# Total Phase Data Center(tm) v7.01
# (c) 2005-2021 Total Phase, Inc.
# www.totalphase.com
#
# 
#
# Level,Index,m:s.ms.us,Dur,Len,Err,S/P,Addr,Record,Data
0,0,0:00.000.000,,,,,,Capture started,[08/03/23 13:33:45]
0,1,0:00.296.448,70.100 us,2 B,,SP,4B,Write Transaction,82 01
0,2,0:00.296.519,49.800 us,1 B,,SP,4B,Read Transaction,01*
0,3,0:00.296.570,70.100 us,2 B,,SP,4B,Write Transaction,82 01
0,4,0:00.296.642,323.000 us,11 B,,SP,4B,Read Transaction,01 29 10 02 06 01 01 16 00 00 00*
0,5,0:01.434.671,70.100 us,2 B,,SP,4B,Write Transaction,82 01
0,6,0:01.434.742,49.700 us,1 B,,SP,4B,Read Transaction,01*
0,7,0:01.434.793,70.100 us,2 B,,SP,4B,Write Transaction,82 01
0,8,0:01.434.865,323.000 us,11 B,,SP,4B,Read Transaction,01 29 10 02 06 01 01 16 00 00 00*
0,9,0:02.573.680,70.100 us,2 B,,SP,4B,Write Transaction,82 01
0,10,0:02.573.751,49.800 us,1 B,,SP,4B,Read Transaction,01*
0,11,0:02.573.802,70.100 us,2 B,,SP,4B,Write Transaction,82 01
0,12,0:02.573.874,323.000 us,11 B,,SP,4B,Read Transaction,01 29 10 02 06 01 00 16 00 00 00*
0,13,0:03.443.648,70.200 us,2 B,,SP,4B,Write Transaction,82 01
0,14,0:03.443.719,49.800 us,1 B,,SP,4B,Read Transaction,01*
0,15,0:03.443.770,70.200 us,2 B,,SP,4B,Write Transaction,82 01
0,16,0:03.443.842,325.400 us,11 B,,SP,4B,Read Transaction,01 30 94 0B 00 13 00 0E 00 00 00*
0,17,0:03.476.591,70.100 us,2 B,,SP,4B,Write Transaction,82 01
0,18,0:03.476.662,49.800 us,1 B,,SP,4B,Read Transaction,01*
0,19,0:03.476.714,70.100 us,2 B,,SP,4B,Write Transaction,82 01
0,20,0:03.476.785,325.300 us,11 B,,SP,4B,Read Transaction,01 30 90 0B 00 13 00 15 00 00 00*
0,21,0:03.493.057,70.100 us,2 B,,SP,4B,Write Transaction,82 01
0,22,0:03.493.128,49.800 us,1 B,,SP,4B,Read Transaction,01*
0,23,0:03.493.179,70.100 us,2 B,,SP,4B,Write Transaction,82 01
0,24,0:03.493.251,325.100 us,11 B,,SP,4B,Read Transaction,01 30 90 0B 00 13 00 1A 00 00 00*
0,25,0:03.526.051,70.100 us,2 B,,SP,4B,Write Transaction,82 01
0,26,0:03.526.122,49.800 us,1 B,,SP,4B,Read Transaction,01*
0,27,0:03.526.174,70.100 us,2 B,,SP,4B,Write Transaction,82 01
0,28,0:03.526.245,325.400 us,11 B,,SP,4B,Read Transaction,01 30 90 0B 00 13 00 23 00 00 00*
0,29,0:03.542.548,70.100 us,2 B,,SP,4B,Write Transaction,82 01
0,30,0:03.542.619,49.800 us,1 B,,SP,4B,Read Transaction,01*
0,31,0:03.542.670,70.100 us,2 B,,SP,4B,Write Transaction,82 01
0,32,0:03.542.742,325.300 us,11 B,,SP,4B,Read Transaction,01 30 90 0B 00 13 00 28 00 00 00*
0,33,0:03.560.609,70.100 us,2 B,,SP,4B,Write Transaction,82 01
0,34,0:03.560.680,49.800 us,1 B,,SP,4B,Read Transaction,01*
0,35,0:03.560.731,70.100 us,2 B,,SP,4B,Write Transaction,82 01
0,36,0:03.560.803,325.000 us,11 B,,SP,4B,Read Transaction,01 30 90 0B 00 13 00 2D 00 00 00*
0,37,0:03.577.132,70.200 us,2 B,,SP,4B,Write Transaction,82 01
0,38,0:03.577.203,49.800 us,1 B,,SP,4B,Read Transaction,01*
0,39,0:03.577.254,70.100 us,2 B,,SP,4B,Write Transaction,82 01
0,40,0:03.577.326,325.300 us,11 B,,SP,4B,Read Transaction,01 30 90 0B 00 13 00 33 00 00 00*
0,41,0:03.593.670,70.100 us,2 B,,SP,4B,Write Transaction,82 01
0,42,0:03.593.741,49.700 us,1 B,,SP,4B,Read Transaction,01*
0,43,0:03.593.792,70.200 us,2 B,,SP,4B,Write Transaction,82 01
0,44,0:03.593.863,325.200 us,11 B,,SP,4B,Read Transaction,01 30 90 0B 00 13 00 39 00 00 00*
0,45,0:03.610.086,70.200 us,2 B,,SP,4B,Write Transaction,82 01
0,46,0:03.610.157,49.800 us,1 B,,SP,4B,Read Transaction,01*
0,47,0:03.610.209,70.200 us,2 B,,SP,4B,Write Transaction,82 01
0,48,0:03.610.280,325.200 us,11 B,,SP,4B,Read Transaction,01 30 90 0B 00 13 00 40 00 00 00*
0,49,0:03.626.580,70.100 us,2 B,,SP,4B,Write Transaction,82 01
0,50,0:03.626.651,49.800 us,1 B,,SP,4B,Read Transaction,01*
0,51,0:03.626.702,70.100 us,2 B,,SP,4B,Write Transaction,82 01
0,52,0:03.626.774,325.200 us,11 B,,SP,4B,Read Transaction,01 30 90 0B 00 13 00 46 00 00 00*
0,53,0:03.643.046,70.100 us,2 B,,SP,4B,Write Transaction,82 01
0,54,0:03.643.118,49.800 us,1 B,,SP,4B,Read Transaction,01*
0,55,0:03.643.169,70.200 us,2 B,,SP,4B,Write Transaction,82 01
0,56,0:03.643.240,325.200 us,11 B,,SP,4B,Read Transaction,01 30 90 0B 00 13 00 53 00 00 00*
0,57,0:03.659.514,70.100 us,2 B,,SP,4B,Write Transaction,82 01
0,58,0:03.659.586,49.800 us,1 B,,SP,4B,Read Transaction,01*
0,59,0:03.659.637,70.100 us,2 B,,SP,4B,Write Transaction,82 01
0,60,0:03.659.708,325.200 us,11 B,,SP,4B,Read Transaction,01 30 91 1B 00 20 00 58 00 00 00*
0,61,0:03.676.009,70.100 us,2 B,,SP,4B,Write Transaction,82 01
0,62,0:03.676.080,49.800 us,1 B,,SP,4B,Read Transaction,01*
0,63,0:03.676.131,70.100 us,2 B,,SP,4B,Write Transaction,82 01
0,64,0:03.676.203,325.400 us,11 B,,SP,4B,Read Transaction,01 30 91 27 00 29 00 58 00 00 00*
0,65,0:03.692.511,70.100 us,2 B,,SP,4B,Write Transaction,82 01
0,66,0:03.692.582,49.800 us,1 B,,SP,4B,Read Transaction,01*
0,67,0:03.692.633,70.100 us,2 B,,SP,4B,Write Transaction,82 01
0,68,0:03.692.705,325.100 us,11 B,,SP,4B,Read Transaction,01 30 91 37 00 36 00 66 00 00 00*
0,69,0:03.709.002,70.100 us,2 B,,SP,4B,Write Transaction,82 01
0,70,0:03.709.074,49.800 us,1 B,,SP,4B,Read Transaction,01*
0,71,0:03.709.125,70.200 us,2 B,,SP,4B,Write Transaction,82 01
0,72,0:03.709.196,325.000 us,11 B,,SP,4B,Read Transaction,01 30 91 4A 00 45 00 66 00 00 00*
0,73,0:03.727.082,70.200 us,2 B,,SP,4B,Write Transaction,82 01
0,74,0:03.727.154,49.700 us,1 B,,SP,4B,Read Transaction,01*
0,75,0:03.727.205,70.100 us,2 B,,SP,4B,Write Transaction,82 01
0,76,0:03.727.276,325.100 us,11 B,,SP,4B,Read Transaction,01 30 91 64 00 59 00 6D 00 00 00*
0,77,0:03.743.612,70.200 us,2 B,,SP,4B,Write Transaction,82 01
0,78,0:03.743.684,49.800 us,1 B,,SP,4B,Read Transaction,01*
0,79,0:03.743.735,70.200 us,2 B,,SP,4B,Write Transaction,82 01
0,80,0:03.743.806,325.200 us,11 B,,SP,4B,Read Transaction,01 30 91 7F 00 6B 00 6D 00 00 00*
0,81,0:03.760.106,70.100 us,2 B,,SP,4B,Write Transaction,82 01
0,82,0:03.760.177,49.800 us,1 B,,SP,4B,Read Transaction,01*
0,83,0:03.760.228,70.100 us,2 B,,SP,4B,Write Transaction,82 01
0,84,0:03.760.300,325.300 us,11 B,,SP,4B,Read Transaction,01 30 91 9C 00 82 00 6D 00 00 00*
0,85,0:03.776.614,70.200 us,2 B,,SP,4B,Write Transaction,82 01
0,86,0:03.776.686,49.800 us,1 B,,SP,4B,Read Transaction,01*
0,87,0:03.776.737,70.200 us,2 B,,SP,4B,Write Transaction,82 01
0,88,0:03.776.808,325.300 us,11 B,,SP,4B,Read Transaction,01 30 91 BE 00 9C 00 6D 00 00 00*
0,89,0:03.793.203,70.100 us,2 B,,SP,4B,Write Transaction,82 01
0,90,0:03.793.274,49.700 us,1 B,,SP,4B,Read Transaction,01*
0,91,0:03.793.325,70.200 us,2 B,,SP,4B,Write Transaction,82 01
0,92,0:03.793.397,325.100 us,11 B,,SP,4B,Read Transaction,01 30 91 E7 00 BD 00 6D 00 00 00*
0,93,0:03.809.603,70.100 us,2 B,,SP,4B,Write Transaction,82 01
0,94,0:03.809.674,49.800 us,1 B,,SP,4B,Read Transaction,01*
0,95,0:03.809.726,70.100 us,2 B,,SP,4B,Write Transaction,82 01
0,96,0:03.809.797,325.300 us,11 B,,SP,4B,Read Transaction,01 30 91 08 01 DA 00 66 00 00 00*
0,97,0:03.826.088,70.100 us,2 B,,SP,4B,Write Transaction,82 01
0,98,0:03.826.159,49.800 us,1 B,,SP,4B,Read Transaction,01*
0,99,0:03.826.210,70.100 us,2 B,,SP,4B,Write Transaction,82 01
0,100,0:03.826.282,325.300 us,11 B,,SP,4B,Read Transaction,01 30 91 2D 01 FD 00 6F 00 00 00*
0,101,0:03.842.568,70.100 us,2 B,,SP,4B,Write Transaction,82 01
0,102,0:03.842.640,49.800 us,1 B,,SP,4B,Read Transaction,01*
0,103,0:03.842.691,70.100 us,2 B,,SP,4B,Write Transaction,82 01
0,104,0:03.842.762,325.200 us,11 B,,SP,4B,Read Transaction,01 30 91 57 01 20 01 6F 00 00 00*
0,105,0:03.859.082,70.100 us,2 B,,SP,4B,Write Transaction,82 01
0,106,0:03.859.153,49.800 us,1 B,,SP,4B,Read Transaction,01*
0,107,0:03.859.205,70.100 us,2 B,,SP,4B,Write Transaction,82 01
0,108,0:03.859.276,325.000 us,11 B,,SP,4B,Read Transaction,01 30 91 7A 01 3D 01 6F 00 00 00*
0,109,0:03.875.573,70.200 us,2 B,,SP,4B,Write Transaction,82 01
0,110,0:03.875.644,49.800 us,1 B,,SP,4B,Read Transaction,01*
0,111,0:03.875.695,70.200 us,2 B,,SP,4B,Write Transaction,82 01
0,112,0:03.875.767,325.400 us,11 B,,SP,4B,Read Transaction,01 30 91 A0 01 5D 01 6F 00 00 00*
0,113,0:03.893.681,70.100 us,2 B,,SP,4B,Write Transaction,82 01
0,114,0:03.893.752,49.800 us,1 B,,SP,4B,Read Transaction,01*
0,115,0:03.893.804,70.100 us,2 B,,SP,4B,Write Transaction,82 01
0,116,0:03.893.875,325.100 us,11 B,,SP,4B,Read Transaction,01 30 91 C5 01 7F 01 6F 00 00 00*
0,117,0:03.910.206,70.100 us,2 B,,SP,4B,Write Transaction,82 01
0,118,0:03.910.277,49.800 us,1 B,,SP,4B,Read Transaction,01*
0,119,0:03.910.328,70.100 us,2 B,,SP,4B,Write Transaction,82 01
0,120,0:03.910.400,325.000 us,11 B,,SP,4B,Read Transaction,01 30 91 E6 01 A0 01 6F 00 00 00*
0,121,0:03.926.691,70.100 us,2 B,,SP,4B,Write Transaction,82 01
0,122,0:03.926.763,49.700 us,1 B,,SP,4B,Read Transaction,01*
0,123,0:03.926.814,70.200 us,2 B,,SP,4B,Write Transaction,82 01
0,124,0:03.926.885,325.300 us,11 B,,SP,4B,Read Transaction,01 30 91 0E 02 C8 01 6F 00 00 00*
0,125,0:03.942.291,70.200 us,2 B,,SP,4B,Write Transaction,82 01
0,126,0:03.942.362,49.700 us,1 B,,SP,4B,Read Transaction,01*
0,127,0:03.942.413,70.100 us,2 B,,SP,4B,Write Transaction,82 01
0,128,0:03.942.485,318.400 us,11 B,,SP,4B,Read Transaction,01 29 12 02 07 01 01 16 00 00 00*
0,129,0:03.943.346,70.100 us,2 B,,SP,4B,Write Transaction,82 01
0,130,0:03.943.418,49.800 us,1 B,,SP,4B,Read Transaction,01*
0,131,0:03.943.469,70.100 us,2 B,,SP,4B,Write Transaction,82 01
0,132,0:03.943.540,325.300 us,11 B,,SP,4B,Read Transaction,01 30 91 32 02 EA 01 6F 00 00 00*
0,133,0:03.959.744,70.100 us,2 B,,SP,4B,Write Transaction,82 01
0,134,0:03.959.815,49.800 us,1 B,,SP,4B,Read Transaction,01*
0,135,0:03.959.866,70.100 us,2 B,,SP,4B,Write Transaction,82 01
0,136,0:03.959.938,325.700 us,11 B,,SP,4B,Read Transaction,01 30 91 4E 02 08 02 6A 00 00 00*
0,137,0:03.976.331,70.100 us,2 B,,SP,4B,Write Transaction,82 01
0,138,0:03.976.403,49.800 us,1 B,,SP,4B,Read Transaction,01*
0,139,0:03.976.454,70.100 us,2 B,,SP,4B,Write Transaction,82 01
0,140,0:03.976.525,325.400 us,11 B,,SP,4B,Read Transaction,01 30 91 6E 02 2A 02 6A 00 00 00*
0,141,0:03.992.746,70.100 us,2 B,,SP,4B,Write Transaction,82 01
0,142,0:03.992.817,49.800 us,1 B,,SP,4B,Read Transaction,01*
0,143,0:03.992.869,70.100 us,2 B,,SP,4B,Write Transaction,82 01
0,144,0:03.992.940,325.400 us,11 B,,SP,4B,Read Transaction,01 30 91 8D 02 4C 02 71 00 00 00*
0,145,0:04.009.232,70.200 us,2 B,,SP,4B,Write Transaction,82 01
0,146,0:04.009.303,49.800 us,1 B,,SP,4B,Read Transaction,01*
0,147,0:04.009.354,70.100 us,2 B,,SP,4B,Write Transaction,82 01
0,148,0:04.009.426,325.200 us,11 B,,SP,4B,Read Transaction,01 30 91 A9 02 6B 02 71 00 00 00*
0,149,0:04.025.711,70.100 us,2 B,,SP,4B,Write Transaction,82 01
0,150,0:04.025.782,49.800 us,1 B,,SP,4B,Read Transaction,01*
0,151,0:04.025.833,70.100 us,2 B,,SP,4B,Write Transaction,82 01
0,152,0:04.025.905,325.400 us,11 B,,SP,4B,Read Transaction,01 30 91 C4 02 8A 02 71 00 00 00*
0,153,0:04.042.217,70.100 us,2 B,,SP,4B,Write Transaction,82 01
0,154,0:04.042.288,49.800 us,1 B,,SP,4B,Read Transaction,01*
0,155,0:04.042.339,70.200 us,2 B,,SP,4B,Write Transaction,82 01
0,156,0:04.042.411,325.100 us,11 B,,SP,4B,Read Transaction,01 30 91 E4 02 AB 02 71 00 00 00*
0,157,0:04.060.382,70.100 us,2 B,,SP,4B,Write Transaction,82 01
0,158,0:04.060.454,49.800 us,1 B,,SP,4B,Read Transaction,01*
0,159,0:04.060.505,70.100 us,2 B,,SP,4B,Write Transaction,82 01
0,160,0:04.060.576,325.200 us,11 B,,SP,4B,Read Transaction,01 30 91 03 03 C7 02 71 00 00 00*
0,161,0:04.076.907,70.100 us,2 B,,SP,4B,Write Transaction,82 01
0,162,0:04.076.978,49.800 us,1 B,,SP,4B,Read Transaction,01*
0,163,0:04.077.029,70.100 us,2 B,,SP,4B,Write Transaction,82 01
0,164,0:04.077.101,325.200 us,11 B,,SP,4B,Read Transaction,01 30 91 1D 03 DD 02 69 00 00 00*
0,165,0:04.093.393,70.200 us,2 B,,SP,4B,Write Transaction,82 01
0,166,0:04.093.464,49.800 us,1 B,,SP,4B,Read Transaction,01*
0,167,0:04.093.515,70.200 us,2 B,,SP,4B,Write Transaction,82 01
0,168,0:04.093.587,325.200 us,11 B,,SP,4B,Read Transaction,01 30 91 3D 03 F9 02 69 00 00 00*
0,169,0:04.109.890,70.100 us,2 B,,SP,4B,Write Transaction,82 01
0,170,0:04.109.962,49.800 us,1 B,,SP,4B,Read Transaction,01*
0,171,0:04.110.013,70.100 us,2 B,,SP,4B,Write Transaction,82 01
0,172,0:04.110.084,325.000 us,11 B,,SP,4B,Read Transaction,01 30 91 5D 03 15 03 72 00 00 00*
0,173,0:04.126.367,70.100 us,2 B,,SP,4B,Write Transaction,82 01
0,174,0:04.126.439,49.800 us,1 B,,SP,4B,Read Transaction,01*
0,175,0:04.126.490,70.100 us,2 B,,SP,4B,Write Transaction,82 01
0,176,0:04.126.561,325.200 us,11 B,,SP,4B,Read Transaction,01 30 91 76 03 2F 03 72 00 00 00*
0,177,0:04.142.817,70.100 us,2 B,,SP,4B,Write Transaction,82 01
0,178,0:04.142.889,49.800 us,1 B,,SP,4B,Read Transaction,01*
0,179,0:04.142.940,70.100 us,2 B,,SP,4B,Write Transaction,82 01
0,180,0:04.143.011,325.300 us,11 B,,SP,4B,Read Transaction,01 30 91 8D 03 4A 03 72 00 00 00*
0,181,0:04.159.308,70.100 us,2 B,,SP,4B,Write Transaction,82 01
0,182,0:04.159.379,49.800 us,1 B,,SP,4B,Read Transaction,01*
0,183,0:04.159.430,70.100 us,2 B,,SP,4B,Write Transaction,82 01
0,184,0:04.159.502,325.100 us,11 B,,SP,4B,Read Transaction,01 30 91 A6 03 67 03 72 00 00 00*
0,185,0:04.175.890,70.100 us,2 B,,SP,4B,Write Transaction,82 01
0,186,0:04.175.962,49.800 us,1 B,,SP,4B,Read Transaction,01*
0,187,0:04.176.013,70.100 us,2 B,,SP,4B,Write Transaction,82 01
0,188,0:04.176.084,325.200 us,11 B,,SP,4B,Read Transaction,01 30 91 C2 03 85 03 72 00 00 00*
0,189,0:04.192.294,70.100 us,2 B,,SP,4B,Write Transaction,82 01
0,190,0:04.192.365,49.800 us,1 B,,SP,4B,Read Transaction,01*
0,191,0:04.192.416,70.100 us,2 B,,SP,4B,Write Transaction,82 01
0,192,0:04.192.488,325.300 us,11 B,,SP,4B,Read Transaction,01 30 91 DB 03 9F 03 72 00 00 00*
0,193,0:04.208.785,70.100 us,2 B,,SP,4B,Write Transaction,82 01
0,194,0:04.208.856,49.800 us,1 B,,SP,4B,Read Transaction,01*
0,195,0:04.208.908,70.100 us,2 B,,SP,4B,Write Transaction,82 01
0,196,0:04.208.979,325.500 us,11 B,,SP,4B,Read Transaction,01 30 91 F5 03 BC 03 6B 00 00 00*
0,197,0:04.226.836,70.200 us,2 B,,SP,4B,Write Transaction,82 01
0,198,0:04.226.907,49.800 us,1 B,,SP,4B,Read Transaction,01*
0,199,0:04.226.958,70.200 us,2 B,,SP,4B,Write Transaction,82 01
0,200,0:04.227.030,325.300 us,11 B,,SP,4B,Read Transaction,01 30 91 13 04 DD 03 75 00 00 00*
0,201,0:04.243.350,70.100 us,2 B,,SP,4B,Write Transaction,82 01
0,202,0:04.243.421,49.800 us,1 B,,SP,4B,Read Transaction,01*
0,203,0:04.243.472,70.100 us,2 B,,SP,4B,Write Transaction,82 01
0,204,0:04.243.543,325.200 us,11 B,,SP,4B,Read Transaction,01 30 91 33 04 FC 03 75 00 00 00*
0,205,0:04.259.843,70.200 us,2 B,,SP,4B,Write Transaction,82 01
0,206,0:04.259.914,49.900 us,1 B,,SP,4B,Read Transaction,01*
0,207,0:04.259.965,70.100 us,2 B,,SP,4B,Write Transaction,82 01
0,208,0:04.260.037,325.400 us,11 B,,SP,4B,Read Transaction,01 30 91 50 04 1A 04 6F 00 00 00*
0,209,0:04.276.363,70.100 us,2 B,,SP,4B,Write Transaction,82 01
0,210,0:04.276.434,49.800 us,1 B,,SP,4B,Read Transaction,01*
0,211,0:04.276.485,70.100 us,2 B,,SP,4B,Write Transaction,82 01
0,212,0:04.276.556,325.200 us,11 B,,SP,4B,Read Transaction,01 30 91 70 04 37 04 6F 00 00 00*
0,213,0:04.292.835,70.100 us,2 B,,SP,4B,Write Transaction,82 01
0,214,0:04.292.906,49.800 us,1 B,,SP,4B,Read Transaction,01*
0,215,0:04.292.958,70.100 us,2 B,,SP,4B,Write Transaction,82 01
0,216,0:04.293.029,325.300 us,11 B,,SP,4B,Read Transaction,01 30 91 96 04 58 04 6F 00 00 00*
0,217,0:04.309.334,70.200 us,2 B,,SP,4B,Write Transaction,82 01
0,218,0:04.309.405,49.700 us,1 B,,SP,4B,Read Transaction,01*
0,219,0:04.309.456,70.200 us,2 B,,SP,4B,Write Transaction,82 01
0,220,0:04.309.527,325.300 us,11 B,,SP,4B,Read Transaction,01 30 91 B5 04 74 04 6F 00 00 00*
0,221,0:04.325.818,70.200 us,2 B,,SP,4B,Write Transaction,82 01
0,222,0:04.325.889,49.800 us,1 B,,SP,4B,Read Transaction,01*
0,223,0:04.325.940,70.200 us,2 B,,SP,4B,Write Transaction,82 01
0,224,0:04.326.012,325.300 us,11 B,,SP,4B,Read Transaction,01 30 91 D6 04 95 04 6F 00 00 00*
0,225,0:04.342.304,70.100 us,2 B,,SP,4B,Write Transaction,82 01
0,226,0:04.342.375,49.800 us,1 B,,SP,4B,Read Transaction,01*
0,227,0:04.342.426,70.100 us,2 B,,SP,4B,Write Transaction,82 01
0,228,0:04.342.498,325.300 us,11 B,,SP,4B,Read Transaction,01 30 91 FF 04 BA 04 75 00 00 00*
0,229,0:04.358.816,70.200 us,2 B,,SP,4B,Write Transaction,82 01
0,230,0:04.358.887,49.700 us,1 B,,SP,4B,Read Transaction,01*
0,231,0:04.358.938,70.200 us,2 B,,SP,4B,Write Transaction,82 01
0,232,0:04.359.010,324.900 us,11 B,,SP,4B,Read Transaction,01 30 91 20 05 D9 04 70 00 00 00*
0,233,0:04.375.405,70.100 us,2 B,,SP,4B,Write Transaction,82 01
0,234,0:04.375.477,49.800 us,1 B,,SP,4B,Read Transaction,01*
0,235,0:04.375.528,70.100 us,2 B,,SP,4B,Write Transaction,82 01
0,236,0:04.375.599,325.400 us,11 B,,SP,4B,Read Transaction,01 30 91 41 05 F8 04 70 00 00 00*
0,237,0:04.393.372,70.100 us,2 B,,SP,4B,Write Transaction,82 01
0,238,0:04.393.443,49.800 us,1 B,,SP,4B,Read Transaction,01*
0,239,0:04.393.494,70.100 us,2 B,,SP,4B,Write Transaction,82 01
0,240,0:04.393.566,325.200 us,11 B,,SP,4B,Read Transaction,01 30 91 6A 05 1F 05 70 00 00 00*
0,241,0:04.409.906,70.100 us,2 B,,SP,4B,Write Transaction,82 01
0,242,0:04.409.977,49.800 us,1 B,,SP,4B,Read Transaction,01*
0,243,0:04.410.028,70.100 us,2 B,,SP,4B,Write Transaction,82 01
0,244,0:04.410.100,325.400 us,11 B,,SP,4B,Read Transaction,01 30 91 8E 05 43 05 70 00 00 00*
0,245,0:04.426.372,70.100 us,2 B,,SP,4B,Write Transaction,82 01
0,246,0:04.426.443,49.700 us,1 B,,SP,4B,Read Transaction,01*
0,247,0:04.426.494,70.100 us,2 B,,SP,4B,Write Transaction,82 01
0,248,0:04.426.566,325.000 us,11 B,,SP,4B,Read Transaction,01 30 91 B8 05 6F 05 76 00 00 00*
0,249,0:04.442.887,70.200 us,2 B,,SP,4B,Write Transaction,82 01
0,250,0:04.442.959,49.800 us,1 B,,SP,4B,Read Transaction,01*
0,251,0:04.443.010,70.200 us,2 B,,SP,4B,Write Transaction,82 01
0,252,0:04.443.081,325.100 us,11 B,,SP,4B,Read Transaction,01 30 91 E0 05 97 05 76 00 00 00*
0,253,0:04.459.382,70.100 us,2 B,,SP,4B,Write Transaction,82 01
0,254,0:04.459.453,49.800 us,1 B,,SP,4B,Read Transaction,01*
0,255,0:04.459.504,70.200 us,2 B,,SP,4B,Write Transaction,82 01
0,256,0:04.459.576,325.100 us,11 B,,SP,4B,Read Transaction,01 30 91 00 06 BB 05 69 00 00 00*
0,257,0:04.475.861,70.200 us,2 B,,SP,4B,Write Transaction,82 01
0,258,0:04.475.933,49.800 us,1 B,,SP,4B,Read Transaction,01*
0,259,0:04.475.984,70.200 us,2 B,,SP,4B,Write Transaction,82 01
0,260,0:04.476.055,325.200 us,11 B,,SP,4B,Read Transaction,01 30 91 23 06 E1 05 72 00 00 00*
0,261,0:04.492.354,70.200 us,2 B,,SP,4B,Write Transaction,82 01
0,262,0:04.492.425,49.700 us,1 B,,SP,4B,Read Transaction,01*
0,263,0:04.492.476,70.200 us,2 B,,SP,4B,Write Transaction,82 01
0,264,0:04.492.548,325.100 us,11 B,,SP,4B,Read Transaction,01 30 91 47 06 09 06 72 00 00 00*
0,265,0:04.508.824,70.100 us,2 B,,SP,4B,Write Transaction,82 01
0,266,0:04.508.896,49.800 us,1 B,,SP,4B,Read Transaction,01*
0,267,0:04.508.947,70.100 us,2 B,,SP,4B,Write Transaction,82 01
0,268,0:04.509.018,325.100 us,11 B,,SP,4B,Read Transaction,01 30 91 65 06 2C 06 72 00 00 00*
0,269,0:04.525.328,70.100 us,2 B,,SP,4B,Write Transaction,82 01
0,270,0:04.525.399,49.800 us,1 B,,SP,4B,Read Transaction,01*
0,271,0:04.525.450,70.100 us,2 B,,SP,4B,Write Transaction,82 01
0,272,0:04.525.522,325.300 us,11 B,,SP,4B,Read Transaction,01 30 91 84 06 52 06 72 00 00 00*
0,273,0:04.541.839,70.100 us,2 B,,SP,4B,Write Transaction,82 01
0,274,0:04.541.910,49.800 us,1 B,,SP,4B,Read Transaction,01*
0,275,0:04.541.961,70.200 us,2 B,,SP,4B,Write Transaction,82 01
0,276,0:04.542.032,324.900 us,11 B,,SP,4B,Read Transaction,01 30 91 A8 06 79 06 72 00 00 00*
0,277,0:04.559.919,70.100 us,2 B,,SP,4B,Write Transaction,82 01
0,278,0:04.559.991,49.800 us,1 B,,SP,4B,Read Transaction,01*
0,279,0:04.560.042,70.100 us,2 B,,SP,4B,Write Transaction,82 01
0,280,0:04.560.113,325.400 us,11 B,,SP,4B,Read Transaction,01 30 91 C5 06 9A 06 72 00 00 00*
0,281,0:04.576.545,70.100 us,2 B,,SP,4B,Write Transaction,82 01
0,282,0:04.576.616,49.800 us,1 B,,SP,4B,Read Transaction,01*
0,283,0:04.576.667,70.100 us,2 B,,SP,4B,Write Transaction,82 01
0,284,0:04.576.739,325.400 us,11 B,,SP,4B,Read Transaction,01 30 91 E0 06 BC 06 72 00 00 00*
0,285,0:04.592.881,70.100 us,2 B,,SP,4B,Write Transaction,82 01
0,286,0:04.592.952,49.800 us,1 B,,SP,4B,Read Transaction,01*
0,287,0:04.593.003,70.100 us,2 B,,SP,4B,Write Transaction,82 01
0,288,0:04.593.075,325.100 us,11 B,,SP,4B,Read Transaction,01 30 91 02 07 E4 06 72 00 00 00*
0,289,0:04.609.397,70.200 us,2 B,,SP,4B,Write Transaction,82 01
0,290,0:04.609.468,49.800 us,1 B,,SP,4B,Read Transaction,01*
0,291,0:04.609.519,70.200 us,2 B,,SP,4B,Write Transaction,82 01
0,292,0:04.609.591,325.300 us,11 B,,SP,4B,Read Transaction,01 30 91 1F 07 03 07 72 00 00 00*
0,293,0:04.625.882,70.100 us,2 B,,SP,4B,Write Transaction,82 01
0,294,0:04.625.953,49.800 us,1 B,,SP,4B,Read Transaction,01*
0,295,0:04.626.004,70.100 us,2 B,,SP,4B,Write Transaction,82 01
0,296,0:04.626.075,324.900 us,11 B,,SP,4B,Read Transaction,01 30 91 36 07 1F 07 72 00 00 00*
0,297,0:04.642.362,70.100 us,2 B,,SP,4B,Write Transaction,82 01
0,298,0:04.642.433,49.800 us,1 B,,SP,4B,Read Transaction,01*
0,299,0:04.642.484,70.200 us,2 B,,SP,4B,Write Transaction,82 01
0,300,0:04.642.555,325.300 us,11 B,,SP,4B,Read Transaction,01 30 91 4F 07 3D 07 6D 00 00 00*
0,301,0:04.658.821,70.100 us,2 B,,SP,4B,Write Transaction,82 01
0,302,0:04.658.892,49.800 us,1 B,,SP,4B,Read Transaction,01*
0,303,0:04.658.943,70.200 us,2 B,,SP,4B,Write Transaction,82 01
0,304,0:04.659.015,325.200 us,11 B,,SP,4B,Read Transaction,01 30 91 6B 07 5B 07 6D 00 00 00*
0,305,0:04.675.330,70.100 us,2 B,,SP,4B,Write Transaction,82 01
0,306,0:04.675.402,49.800 us,1 B,,SP,4B,Read Transaction,01*
0,307,0:04.675.453,70.200 us,2 B,,SP,4B,Write Transaction,82 01
0,308,0:04.675.524,325.300 us,11 B,,SP,4B,Read Transaction,01 30 91 84 07 77 07 73 00 00 00*
0,309,0:04.691.821,70.100 us,2 B,,SP,4B,Write Transaction,82 01
0,310,0:04.691.892,49.800 us,1 B,,SP,4B,Read Transaction,01*
0,311,0:04.691.943,70.100 us,2 B,,SP,4B,Write Transaction,82 01
0,312,0:04.692.015,325.100 us,11 B,,SP,4B,Read Transaction,01 30 91 99 07 90 07 73 00 00 00*
0,313,0:04.708.296,70.100 us,2 B,,SP,4B,Write Transaction,82 01
0,314,0:04.708.368,49.800 us,1 B,,SP,4B,Read Transaction,01*
0,315,0:04.708.419,70.100 us,2 B,,SP,4B,Write Transaction,82 01
0,316,0:04.708.490,325.400 us,11 B,,SP,4B,Read Transaction,01 30 91 AE 07 A7 07 73 00 00 00*
0,317,0:04.726.394,70.100 us,2 B,,SP,4B,Write Transaction,82 01
0,318,0:04.726.466,49.800 us,1 B,,SP,4B,Read Transaction,01*
0,319,0:04.726.517,70.100 us,2 B,,SP,4B,Write Transaction,82 01
0,320,0:04.726.588,325.500 us,11 B,,SP,4B,Read Transaction,01 30 91 C3 07 BF 07 73 00 00 00*
0,321,0:04.742.934,70.100 us,2 B,,SP,4B,Write Transaction,82 01
0,322,0:04.743.005,49.800 us,1 B,,SP,4B,Read Transaction,01*
0,323,0:04.743.056,70.100 us,2 B,,SP,4B,Write Transaction,82 01
0,324,0:04.743.127,325.200 us,11 B,,SP,4B,Read Transaction,01 30 91 D9 07 D5 07 73 00 00 00*
0,325,0:04.759.427,70.100 us,2 B,,SP,4B,Write Transaction,82 01
0,326,0:04.759.499,49.800 us,1 B,,SP,4B,Read Transaction,01*
0,327,0:04.759.550,70.200 us,2 B,,SP,4B,Write Transaction,82 01
0,328,0:04.759.621,325.400 us,11 B,,SP,4B,Read Transaction,01 30 91 EF 07 ED 07 73 00 00 00*
0,329,0:04.776.044,70.100 us,2 B,,SP,4B,Write Transaction,82 01
0,330,0:04.776.115,49.800 us,1 B,,SP,4B,Read Transaction,01*
0,331,0:04.776.167,70.100 us,2 B,,SP,4B,Write Transaction,82 01
0,332,0:04.776.238,325.300 us,11 B,,SP,4B,Read Transaction,01 30 91 03 08 03 08 6D 00 00 00*
0,333,0:04.792.425,70.100 us,2 B,,SP,4B,Write Transaction,82 01
0,334,0:04.792.496,49.800 us,1 B,,SP,4B,Read Transaction,01*
0,335,0:04.792.547,70.100 us,2 B,,SP,4B,Write Transaction,82 01
0,336,0:04.792.619,325.200 us,11 B,,SP,4B,Read Transaction,01 30 91 16 08 1A 08 6D 00 00 00*
0,337,0:04.808.917,70.100 us,2 B,,SP,4B,Write Transaction,82 01
0,338,0:04.808.988,49.800 us,1 B,,SP,4B,Read Transaction,01*
0,339,0:04.809.039,70.100 us,2 B,,SP,4B,Write Transaction,82 01
0,340,0:04.809.111,325.200 us,11 B,,SP,4B,Read Transaction,01 30 91 2E 08 35 08 6D 00 00 00*
0,341,0:04.825.375,70.100 us,2 B,,SP,4B,Write Transaction,82 01
0,342,0:04.825.446,49.800 us,1 B,,SP,4B,Read Transaction,01*
0,343,0:04.825.497,70.100 us,2 B,,SP,4B,Write Transaction,82 01
0,344,0:04.825.569,324.900 us,11 B,,SP,4B,Read Transaction,01 30 91 47 08 4F 08 74 00 00 00*
0,345,0:04.841.829,70.200 us,2 B,,SP,4B,Write Transaction,82 01
0,346,0:04.841.901,49.800 us,1 B,,SP,4B,Read Transaction,01*
0,347,0:04.841.952,70.200 us,2 B,,SP,4B,Write Transaction,82 01
0,348,0:04.842.023,324.800 us,11 B,,SP,4B,Read Transaction,01 30 91 5C 08 66 08 74 00 00 00*
0,349,0:04.858.325,70.100 us,2 B,,SP,4B,Write Transaction,82 01
0,350,0:04.858.396,49.800 us,1 B,,SP,4B,Read Transaction,01*
0,351,0:04.858.447,70.200 us,2 B,,SP,4B,Write Transaction,82 01
0,352,0:04.858.519,325.600 us,11 B,,SP,4B,Read Transaction,01 30 91 71 08 7C 08 74 00 00 00*
0,353,0:04.874.844,70.100 us,2 B,,SP,4B,Write Transaction,82 01
0,354,0:04.874.915,49.800 us,1 B,,SP,4B,Read Transaction,01*
0,355,0:04.874.966,70.100 us,2 B,,SP,4B,Write Transaction,82 01
0,356,0:04.875.038,325.300 us,11 B,,SP,4B,Read Transaction,01 30 91 85 08 92 08 74 00 00 00*
0,357,0:04.892.988,70.100 us,2 B,,SP,4B,Write Transaction,82 01
0,358,0:04.893.060,49.800 us,1 B,,SP,4B,Read Transaction,01*
0,359,0:04.893.111,70.100 us,2 B,,SP,4B,Write Transaction,82 01
0,360,0:04.893.182,325.200 us,11 B,,SP,4B,Read Transaction,01 30 91 9F 08 AB 08 74 00 00 00*
0,361,0:04.909.488,70.100 us,2 B,,SP,4B,Write Transaction,82 01
0,362,0:04.909.559,49.800 us,1 B,,SP,4B,Read Transaction,01*
0,363,0:04.909.610,70.100 us,2 B,,SP,4B,Write Transaction,82 01
0,364,0:04.909.682,325.300 us,11 B,,SP,4B,Read Transaction,01 30 91 B7 08 C4 08 6E 00 00 00*
0,365,0:04.925.991,70.200 us,2 B,,SP,4B,Write Transaction,82 01
0,366,0:04.926.062,49.800 us,1 B,,SP,4B,Read Transaction,01*
0,367,0:04.926.113,70.200 us,2 B,,SP,4B,Write Transaction,82 01
0,368,0:04.926.185,325.200 us,11 B,,SP,4B,Read Transaction,01 30 91 CF 08 DE 08 6E 00 00 00*
0,369,0:04.942.498,70.100 us,2 B,,SP,4B,Write Transaction,82 01
0,370,0:04.942.569,49.700 us,1 B,,SP,4B,Read Transaction,01*
0,371,0:04.942.620,70.200 us,2 B,,SP,4B,Write Transaction,82 01
0,372,0:04.942.692,325.300 us,11 B,,SP,4B,Read Transaction,01 30 91 E5 08 F7 08 6E 00 00 00*
0,373,0:04.959.079,70.100 us,2 B,,SP,4B,Write Transaction,82 01
0,374,0:04.959.150,49.700 us,1 B,,SP,4B,Read Transaction,01*
0,375,0:04.959.201,70.100 us,2 B,,SP,4B,Write Transaction,82 01
0,376,0:04.959.272,325.100 us,11 B,,SP,4B,Read Transaction,01 30 91 00 09 13 09 73 00 00 00*
0,377,0:04.975.417,70.100 us,2 B,,SP,4B,Write Transaction,82 01
0,378,0:04.975.489,49.800 us,1 B,,SP,4B,Read Transaction,01*
0,379,0:04.975.540,70.100 us,2 B,,SP,4B,Write Transaction,82 01
0,380,0:04.975.611,325.200 us,11 B,,SP,4B,Read Transaction,01 30 91 1A 09 2C 09 73 00 00 00*
0,381,0:04.991.943,70.100 us,2 B,,SP,4B,Write Transaction,82 01
0,382,0:04.992.014,49.800 us,1 B,,SP,4B,Read Transaction,01*
0,383,0:04.992.065,70.100 us,2 B,,SP,4B,Write Transaction,82 01
0,384,0:04.992.137,325.600 us,11 B,,SP,4B,Read Transaction,01 30 91 31 09 42 09 73 00 00 00*
0,385,0:05.008.436,70.100 us,2 B,,SP,4B,Write Transaction,82 01
0,386,0:05.008.507,49.800 us,1 B,,SP,4B,Read Transaction,01*
0,387,0:05.008.558,70.100 us,2 B,,SP,4B,Write Transaction,82 01
0,388,0:05.008.630,325.200 us,11 B,,SP,4B,Read Transaction,01 30 91 47 09 59 09 6D 00 00 00*
0,389,0:05.024.947,70.100 us,2 B,,SP,4B,Write Transaction,82 01
0,390,0:05.025.019,49.800 us,1 B,,SP,4B,Read Transaction,01*
0,391,0:05.025.070,70.100 us,2 B,,SP,4B,Write Transaction,82 01
0,392,0:05.025.141,325.100 us,11 B,,SP,4B,Read Transaction,01 30 91 5F 09 6F 09 6D 00 00 00*
0,393,0:05.041.424,70.200 us,2 B,,SP,4B,Write Transaction,82 01
0,394,0:05.041.496,49.800 us,1 B,,SP,4B,Read Transaction,01*
0,395,0:05.041.547,70.100 us,2 B,,SP,4B,Write Transaction,82 01
0,396,0:05.041.618,325.200 us,11 B,,SP,4B,Read Transaction,01 30 91 7A 09 89 09 6D 00 00 00*
0,397,0:05.059.485,70.100 us,2 B,,SP,4B,Write Transaction,82 01
0,398,0:05.059.557,49.800 us,1 B,,SP,4B,Read Transaction,01*
0,399,0:05.059.608,70.100 us,2 B,,SP,4B,Write Transaction,82 01
0,400,0:05.059.679,325.300 us,11 B,,SP,4B,Read Transaction,01 30 91 92 09 A1 09 6D 00 00 00*
0,401,0:05.076.016,70.100 us,2 B,,SP,4B,Write Transaction,82 01
0,402,0:05.076.087,49.800 us,1 B,,SP,4B,Read Transaction,01*
0,403,0:05.076.138,70.100 us,2 B,,SP,4B,Write Transaction,82 01
0,404,0:05.076.210,324.700 us,11 B,,SP,4B,Read Transaction,01 30 91 A7 09 B9 09 6D 00 00 00*
0,405,0:05.092.504,70.100 us,2 B,,SP,4B,Write Transaction,82 01
0,406,0:05.092.575,49.800 us,1 B,,SP,4B,Read Transaction,01*
0,407,0:05.092.626,70.200 us,2 B,,SP,4B,Write Transaction,82 01
0,408,0:05.092.697,325.600 us,11 B,,SP,4B,Read Transaction,01 30 91 BF 09 D2 09 6D 00 00 00*
0,409,0:05.108.993,70.100 us,2 B,,SP,4B,Write Transaction,82 01
0,410,0:05.109.065,49.800 us,1 B,,SP,4B,Read Transaction,01*
0,411,0:05.109.116,70.100 us,2 B,,SP,4B,Write Transaction,82 01
0,412,0:05.109.187,325.100 us,11 B,,SP,4B,Read Transaction,01 30 91 D7 09 EB 09 73 00 00 00*
0,413,0:05.125.490,70.200 us,2 B,,SP,4B,Write Transaction,82 01
0,414,0:05.125.561,49.800 us,1 B,,SP,4B,Read Transaction,01*
0,415,0:05.125.612,70.200 us,2 B,,SP,4B,Write Transaction,82 01
0,416,0:05.125.684,325.400 us,11 B,,SP,4B,Read Transaction,01 30 91 EF 09 02 0A 73 00 00 00*
0,417,0:05.141.997,70.100 us,2 B,,SP,4B,Write Transaction,82 01
0,418,0:05.142.069,49.800 us,1 B,,SP,4B,Read Transaction,01*
0,419,0:05.142.120,70.100 us,2 B,,SP,4B,Write Transaction,82 01
0,420,0:05.142.191,325.200 us,11 B,,SP,4B,Read Transaction,01 30 91 05 0A 17 0A 73 00 00 00*
0,421,0:05.158.607,70.100 us,2 B,,SP,4B,Write Transaction,82 01
0,422,0:05.158.678,49.800 us,1 B,,SP,4B,Read Transaction,01*
0,423,0:05.158.729,70.100 us,2 B,,SP,4B,Write Transaction,82 01
0,424,0:05.158.801,324.800 us,11 B,,SP,4B,Read Transaction,01 30 91 19 0A 2C 0A 6C 00 00 00*
0,425,0:05.174.988,70.100 us,2 B,,SP,4B,Write Transaction,82 01
0,426,0:05.175.059,49.800 us,1 B,,SP,4B,Read Transaction,01*
0,427,0:05.175.110,70.100 us,2 B,,SP,4B,Write Transaction,82 01
0,428,0:05.175.182,325.300 us,11 B,,SP,4B,Read Transaction,01 30 91 2E 0A 42 0A 6C 00 00 00*
0,429,0:05.191.478,70.100 us,2 B,,SP,4B,Write Transaction,82 01
0,430,0:05.191.549,49.800 us,1 B,,SP,4B,Read Transaction,01*
0,431,0:05.191.600,70.100 us,2 B,,SP,4B,Write Transaction,82 01
0,432,0:05.191.672,325.200 us,11 B,,SP,4B,Read Transaction,01 30 91 47 0A 5B 0A 71 00 00 00*
0,433,0:05.207.971,70.100 us,2 B,,SP,4B,Write Transaction,82 01
0,434,0:05.208.042,49.800 us,1 B,,SP,4B,Read Transaction,01*
0,435,0:05.208.093,70.100 us,2 B,,SP,4B,Write Transaction,82 01
0,436,0:05.208.165,325.200 us,11 B,,SP,4B,Read Transaction,01 30 91 5F 0A 73 0A 71 00 00 00*
0,437,0:05.226.025,70.100 us,2 B,,SP,4B,Write Transaction,82 01
0,438,0:05.226.097,49.800 us,1 B,,SP,4B,Read Transaction,01*
0,439,0:05.226.148,70.100 us,2 B,,SP,4B,Write Transaction,82 01
0,440,0:05.226.219,325.300 us,11 B,,SP,4B,Read Transaction,01 30 91 73 0A 8A 0A 71 00 00 00*
0,441,0:05.242.549,70.100 us,2 B,,SP,4B,Write Transaction,82 01
0,442,0:05.242.620,49.800 us,1 B,,SP,4B,Read Transaction,01*
0,443,0:05.242.671,70.100 us,2 B,,SP,4B,Write Transaction,82 01
0,444,0:05.242.743,325.200 us,11 B,,SP,4B,Read Transaction,01 30 91 88 0A A0 0A 71 00 00 00*
0,445,0:05.259.042,70.100 us,2 B,,SP,4B,Write Transaction,82 01
0,446,0:05.259.113,49.800 us,1 B,,SP,4B,Read Transaction,01*
0,447,0:05.259.164,70.100 us,2 B,,SP,4B,Write Transaction,82 01
0,448,0:05.259.235,325.300 us,11 B,,SP,4B,Read Transaction,01 30 91 A2 0A BA 0A 71 00 00 00*
0,449,0:05.275.553,70.100 us,2 B,,SP,4B,Write Transaction,82 01
0,450,0:05.275.624,49.800 us,1 B,,SP,4B,Read Transaction,01*
0,451,0:05.275.675,70.100 us,2 B,,SP,4B,Write Transaction,82 01
0,452,0:05.275.746,325.500 us,11 B,,SP,4B,Read Transaction,01 30 91 BC 0A D2 0A 71 00 00 00*
0,453,0:05.292.052,70.100 us,2 B,,SP,4B,Write Transaction,82 01
0,454,0:05.292.124,49.800 us,1 B,,SP,4B,Read Transaction,01*
0,455,0:05.292.175,70.100 us,2 B,,SP,4B,Write Transaction,82 01
0,456,0:05.292.246,325.100 us,11 B,,SP,4B,Read Transaction,01 30 91 D2 0A E9 0A 71 00 00 00*
0,457,0:05.308.556,70.100 us,2 B,,SP,4B,Write Transaction,82 01
0,458,0:05.308.628,49.800 us,1 B,,SP,4B,Read Transaction,01*
0,459,0:05.308.679,70.100 us,2 B,,SP,4B,Write Transaction,82 01
0,460,0:05.308.750,325.300 us,11 B,,SP,4B,Read Transaction,01 30 91 E8 0A FF 0A 6C 00 00 00*
0,461,0:05.325.055,70.200 us,2 B,,SP,4B,Write Transaction,82 01
0,462,0:05.325.126,49.800 us,1 B,,SP,4B,Read Transaction,01*
0,463,0:05.325.177,70.200 us,2 B,,SP,4B,Write Transaction,82 01
0,464,0:05.325.249,325.300 us,11 B,,SP,4B,Read Transaction,01 30 91 00 0B 1A 0B 71 00 00 00*
0,465,0:05.341.543,70.100 us,2 B,,SP,4B,Write Transaction,82 01
0,466,0:05.341.614,49.800 us,1 B,,SP,4B,Read Transaction,01*
0,467,0:05.341.665,70.100 us,2 B,,SP,4B,Write Transaction,82 01
0,468,0:05.341.737,324.800 us,11 B,,SP,4B,Read Transaction,01 30 91 1C 0B 39 0B 76 00 00 00*
0,469,0:05.358.121,70.100 us,2 B,,SP,4B,Write Transaction,82 01
0,470,0:05.358.193,49.700 us,1 B,,SP,4B,Read Transaction,01*
0,471,0:05.358.244,70.200 us,2 B,,SP,4B,Write Transaction,82 01
0,472,0:05.358.315,325.200 us,11 B,,SP,4B,Read Transaction,01 30 91 35 0B 53 0B 76 00 00 00*
0,473,0:05.374.542,70.100 us,2 B,,SP,4B,Write Transaction,82 01
0,474,0:05.374.613,49.800 us,1 B,,SP,4B,Read Transaction,01*
0,475,0:05.374.664,70.100 us,2 B,,SP,4B,Write Transaction,82 01
0,476,0:05.374.736,325.200 us,11 B,,SP,4B,Read Transaction,01 30 91 4C 0B 6C 0B 71 00 00 00*
0,477,0:05.392.611,70.200 us,2 B,,SP,4B,Write Transaction,82 01
0,478,0:05.392.682,49.800 us,1 B,,SP,4B,Read Transaction,01*
0,479,0:05.392.733,70.100 us,2 B,,SP,4B,Write Transaction,82 01
0,480,0:05.392.805,325.100 us,11 B,,SP,4B,Read Transaction,01 30 91 65 0B 87 0B 71 00 00 00*
0,481,0:05.409.140,70.200 us,2 B,,SP,4B,Write Transaction,82 01
0,482,0:05.409.211,49.800 us,1 B,,SP,4B,Read Transaction,01*
0,483,0:05.409.262,70.200 us,2 B,,SP,4B,Write Transaction,82 01
0,484,0:05.409.334,325.200 us,11 B,,SP,4B,Read Transaction,01 30 91 82 0B A4 0B 71 00 00 00*
0,485,0:05.425.615,70.100 us,2 B,,SP,4B,Write Transaction,82 01
0,486,0:05.425.687,49.800 us,1 B,,SP,4B,Read Transaction,01*
0,487,0:05.425.738,70.100 us,2 B,,SP,4B,Write Transaction,82 01
0,488,0:05.425.809,325.100 us,11 B,,SP,4B,Read Transaction,01 30 91 9D 0B C1 0B 71 00 00 00*
0,489,0:05.442.093,70.200 us,2 B,,SP,4B,Write Transaction,82 01
0,490,0:05.442.164,49.800 us,1 B,,SP,4B,Read Transaction,01*
0,491,0:05.442.216,70.200 us,2 B,,SP,4B,Write Transaction,82 01
0,492,0:05.442.287,325.100 us,11 B,,SP,4B,Read Transaction,01 30 91 B3 0B DC 0B 71 00 00 00*
0,493,0:05.458.571,70.200 us,2 B,,SP,4B,Write Transaction,82 01
0,494,0:05.458.643,49.800 us,1 B,,SP,4B,Read Transaction,01*
0,495,0:05.458.694,70.100 us,2 B,,SP,4B,Write Transaction,82 01
0,496,0:05.458.765,325.100 us,11 B,,SP,4B,Read Transaction,01 30 91 C9 0B F7 0B 71 00 00 00*
0,497,0:05.475.067,70.100 us,2 B,,SP,4B,Write Transaction,82 01
0,498,0:05.475.138,49.800 us,1 B,,SP,4B,Read Transaction,01*
0,499,0:05.475.189,70.100 us,2 B,,SP,4B,Write Transaction,82 01
0,500,0:05.475.261,325.200 us,11 B,,SP,4B,Read Transaction,01 30 91 E3 0B 14 0C 71 00 00 00*
0,501,0:05.491.593,70.100 us,2 B,,SP,4B,Write Transaction,82 01
0,502,0:05.491.664,49.800 us,1 B,,SP,4B,Read Transaction,01*
0,503,0:05.491.715,70.100 us,2 B,,SP,4B,Write Transaction,82 01
0,504,0:05.491.786,325.400 us,11 B,,SP,4B,Read Transaction,01 30 91 FB 0B 2F 0C 71 00 00 00*
0,505,0:05.508.079,70.200 us,2 B,,SP,4B,Write Transaction,82 01
0,506,0:05.508.150,49.800 us,1 B,,SP,4B,Read Transaction,01*
0,507,0:05.508.201,70.100 us,2 B,,SP,4B,Write Transaction,82 01
0,508,0:05.508.273,325.400 us,11 B,,SP,4B,Read Transaction,01 30 91 12 0C 49 0C 71 00 00 00*
0,509,0:05.524.571,70.100 us,2 B,,SP,4B,Write Transaction,82 01
0,510,0:05.524.643,49.800 us,1 B,,SP,4B,Read Transaction,01*
0,511,0:05.524.694,70.200 us,2 B,,SP,4B,Write Transaction,82 01
0,512,0:05.524.765,325.300 us,11 B,,SP,4B,Read Transaction,01 30 91 27 0C 62 0C 67 00 00 00*
0,513,0:05.541.065,70.200 us,2 B,,SP,4B,Write Transaction,82 01
0,514,0:05.541.137,49.800 us,1 B,,SP,4B,Read Transaction,01*
0,515,0:05.541.188,70.200 us,2 B,,SP,4B,Write Transaction,82 01
0,516,0:05.541.259,325.200 us,11 B,,SP,4B,Read Transaction,01 30 91 3F 0C 7C 0C 67 00 00 00*
0,517,0:05.559.248,70.200 us,2 B,,SP,4B,Write Transaction,82 01
0,518,0:05.559.320,49.700 us,1 B,,SP,4B,Read Transaction,01*
0,519,0:05.559.371,70.200 us,2 B,,SP,4B,Write Transaction,82 01
0,520,0:05.559.442,325.200 us,11 B,,SP,4B,Read Transaction,01 30 91 5A 0C 98 0C 6E 00 00 00*
0,521,0:05.575.679,70.100 us,2 B,,SP,4B,Write Transaction,82 01
0,522,0:05.575.750,49.800 us,1 B,,SP,4B,Read Transaction,01*
0,523,0:05.575.801,70.100 us,2 B,,SP,4B,Write Transaction,82 01
0,524,0:05.575.873,325.400 us,11 B,,SP,4B,Read Transaction,01 30 91 71 0C AF 0C 6E 00 00 00*
0,525,0:05.592.162,70.100 us,2 B,,SP,4B,Write Transaction,82 01
0,526,0:05.592.234,49.800 us,1 B,,SP,4B,Read Transaction,01*
0,527,0:05.592.285,70.100 us,2 B,,SP,4B,Write Transaction,82 01
0,528,0:05.592.356,325.300 us,11 B,,SP,4B,Read Transaction,01 30 91 87 0C C5 0C 6E 00 00 00*
0,529,0:05.608.656,70.100 us,2 B,,SP,4B,Write Transaction,82 01
0,530,0:05.608.728,49.800 us,1 B,,SP,4B,Read Transaction,01*
0,531,0:05.608.779,70.100 us,2 B,,SP,4B,Write Transaction,82 01
0,532,0:05.608.850,325.500 us,11 B,,SP,4B,Read Transaction,01 30 91 9D 0C DA 0C 6E 00 00 00*
0,533,0:05.625.158,70.100 us,2 B,,SP,4B,Write Transaction,82 01
0,534,0:05.625.230,49.800 us,1 B,,SP,4B,Read Transaction,01*
0,535,0:05.625.281,70.200 us,2 B,,SP,4B,Write Transaction,82 01
0,536,0:05.625.352,325.400 us,11 B,,SP,4B,Read Transaction,01 30 91 B6 0C EF 0C 6E 00 00 00*
0,537,0:05.641.651,70.100 us,2 B,,SP,4B,Write Transaction,82 01
0,538,0:05.641.723,49.800 us,1 B,,SP,4B,Read Transaction,01*
0,539,0:05.641.774,70.100 us,2 B,,SP,4B,Write Transaction,82 01
0,540,0:05.641.845,325.400 us,11 B,,SP,4B,Read Transaction,01 30 91 CE 0C 04 0D 6E 00 00 00*
0,541,0:05.658.152,70.200 us,2 B,,SP,4B,Write Transaction,82 01
0,542,0:05.658.224,49.800 us,1 B,,SP,4B,Read Transaction,01*
0,543,0:05.658.275,70.100 us,2 B,,SP,4B,Write Transaction,82 01
0,544,0:05.658.346,325.300 us,11 B,,SP,4B,Read Transaction,01 30 91 E5 0C 1A 0D 69 00 00 00*
0,545,0:05.674.646,70.100 us,2 B,,SP,4B,Write Transaction,82 01
0,546,0:05.674.718,49.800 us,1 B,,SP,4B,Read Transaction,01*
0,547,0:05.674.769,70.100 us,2 B,,SP,4B,Write Transaction,82 01
0,548,0:05.674.840,325.600 us,11 B,,SP,4B,Read Transaction,01 30 91 F9 0C 2C 0D 62 00 00 00*
0,549,0:05.691.141,70.200 us,2 B,,SP,4B,Write Transaction,82 01
0,550,0:05.691.213,49.900 us,1 B,,SP,4B,Read Transaction,01*
0,551,0:05.691.264,70.100 us,2 B,,SP,4B,Write Transaction,82 01
0,552,0:05.691.335,325.300 us,11 B,,SP,4B,Read Transaction,01 30 91 12 0D 44 0D 62 00 00 00*
0,553,0:05.707.626,70.100 us,2 B,,SP,4B,Write Transaction,82 01
0,554,0:05.707.698,49.800 us,1 B,,SP,4B,Read Transaction,01*
0,555,0:05.707.749,70.100 us,2 B,,SP,4B,Write Transaction,82 01
0,556,0:05.707.820,325.100 us,11 B,,SP,4B,Read Transaction,01 30 91 2C 0D 5C 0D 69 00 00 00*
0,557,0:05.725.765,70.100 us,2 B,,SP,4B,Write Transaction,82 01
0,558,0:05.725.836,49.800 us,1 B,,SP,4B,Read Transaction,01*
0,559,0:05.725.888,70.100 us,2 B,,SP,4B,Write Transaction,82 01
0,560,0:05.725.959,325.200 us,11 B,,SP,4B,Read Transaction,01 30 91 42 0D 72 0D 69 00 00 00*
0,561,0:05.742.389,70.200 us,2 B,,SP,4B,Write Transaction,82 01
0,562,0:05.742.461,49.800 us,1 B,,SP,4B,Read Transaction,01*
0,563,0:05.742.512,70.200 us,2 B,,SP,4B,Write Transaction,82 01
0,564,0:05.742.583,325.300 us,11 B,,SP,4B,Read Transaction,01 30 91 57 0D 87 0D 69 00 00 00*
0,565,0:05.758.784,70.100 us,2 B,,SP,4B,Write Transaction,82 01
0,566,0:05.758.856,49.800 us,1 B,,SP,4B,Read Transaction,01*
0,567,0:05.758.907,70.100 us,2 B,,SP,4B,Write Transaction,82 01
0,568,0:05.758.978,325.200 us,11 B,,SP,4B,Read Transaction,01 30 91 6F 0D 9F 0D 69 00 00 00*
0,569,0:05.775.308,70.200 us,2 B,,SP,4B,Write Transaction,82 01
0,570,0:05.775.379,49.800 us,1 B,,SP,4B,Read Transaction,01*
0,571,0:05.775.430,70.200 us,2 B,,SP,4B,Write Transaction,82 01
0,572,0:05.775.501,325.300 us,11 B,,SP,4B,Read Transaction,01 30 91 87 0D B7 0D 69 00 00 00*
0,573,0:05.791.786,70.100 us,2 B,,SP,4B,Write Transaction,82 01
0,574,0:05.791.858,49.800 us,1 B,,SP,4B,Read Transaction,01*
0,575,0:05.791.909,70.100 us,2 B,,SP,4B,Write Transaction,82 01
0,576,0:05.791.980,325.100 us,11 B,,SP,4B,Read Transaction,01 30 91 A0 0D D1 0D 64 00 00 00*
0,577,0:05.808.280,70.100 us,2 B,,SP,4B,Write Transaction,82 01
0,578,0:05.808.352,49.800 us,1 B,,SP,4B,Read Transaction,01*
0,579,0:05.808.403,70.100 us,2 B,,SP,4B,Write Transaction,82 01
0,580,0:05.808.474,324.000 us,11 B,,SP,4B,Read Transaction,01 30 91 B6 0D E9 0D 5F 00 00 00*
0,581,0:05.824.801,70.200 us,2 B,,SP,4B,Write Transaction,82 01
0,582,0:05.824.873,49.800 us,1 B,,SP,4B,Read Transaction,01*
0,583,0:05.824.924,70.200 us,2 B,,SP,4B,Write Transaction,82 01
0,584,0:05.824.995,325.300 us,11 B,,SP,4B,Read Transaction,01 30 91 CB 0D 02 0E 5F 00 00 00*
0,585,0:05.841.265,70.200 us,2 B,,SP,4B,Write Transaction,82 01
0,586,0:05.841.337,49.800 us,1 B,,SP,4B,Read Transaction,01*
0,587,0:05.841.388,70.200 us,2 B,,SP,4B,Write Transaction,82 01
0,588,0:05.841.459,325.400 us,11 B,,SP,4B,Read Transaction,01 30 91 E2 0D 1D 0E 5F 00 00 00*
0,589,0:05.857.751,70.100 us,2 B,,SP,4B,Write Transaction,82 01
0,590,0:05.857.822,49.800 us,1 B,,SP,4B,Read Transaction,01*
0,591,0:05.857.873,70.100 us,2 B,,SP,4B,Write Transaction,82 01
0,592,0:05.857.944,325.400 us,11 B,,SP,4B,Read Transaction,01 30 91 FB 0D 37 0E 67 00 00 00*
0,593,0:05.874.248,70.100 us,2 B,,SP,4B,Write Transaction,82 01
0,594,0:05.874.320,49.800 us,1 B,,SP,4B,Read Transaction,01*
0,595,0:05.874.371,70.100 us,2 B,,SP,4B,Write Transaction,82 01
0,596,0:05.874.442,325.000 us,11 B,,SP,4B,Read Transaction,01 30 91 11 0E 4D 0E 67 00 00 00*
0,597,0:05.891.450,70.100 us,2 B,,SP,4B,Write Transaction,82 01
0,598,0:05.891.521,49.700 us,1 B,,SP,4B,Read Transaction,01*
0,599,0:05.891.572,70.200 us,2 B,,SP,4B,Write Transaction,82 01
0,600,0:05.891.644,318.500 us,11 B,,SP,4B,Read Transaction,01 29 12 02 07 02 01 16 00 00 00*
0,601,0:05.892.469,70.100 us,2 B,,SP,4B,Write Transaction,82 01
0,602,0:05.892.540,49.800 us,1 B,,SP,4B,Read Transaction,01*
0,603,0:05.892.591,70.100 us,2 B,,SP,4B,Write Transaction,82 01
0,604,0:05.892.663,325.300 us,11 B,,SP,4B,Read Transaction,01 30 91 25 0E 64 0E 67 00 00 00*
0,605,0:05.908.903,70.200 us,2 B,,SP,4B,Write Transaction,82 01
0,606,0:05.908.974,49.800 us,1 B,,SP,4B,Read Transaction,01*
0,607,0:05.909.025,70.200 us,2 B,,SP,4B,Write Transaction,82 01
0,608,0:05.909.096,325.400 us,11 B,,SP,4B,Read Transaction,01 30 91 39 0E 7A 0E 61 00 00 00*
0,609,0:05.925.393,70.100 us,2 B,,SP,4B,Write Transaction,82 01
0,610,0:05.925.464,49.800 us,1 B,,SP,4B,Read Transaction,01*
0,611,0:05.925.515,70.100 us,2 B,,SP,4B,Write Transaction,82 01
0,612,0:05.925.587,325.300 us,11 B,,SP,4B,Read Transaction,01 30 91 4E 0E 8F 0E 61 00 00 00*
0,613,0:05.941.954,70.200 us,2 B,,SP,4B,Write Transaction,82 01
0,614,0:05.942.026,49.700 us,1 B,,SP,4B,Read Transaction,01*
0,615,0:05.942.077,70.200 us,2 B,,SP,4B,Write Transaction,82 01
0,616,0:05.942.148,325.500 us,11 B,,SP,4B,Read Transaction,01 30 91 64 0E A5 0E 56 00 00 00*
0,617,0:05.958.372,70.100 us,2 B,,SP,4B,Write Transaction,82 01
0,618,0:05.958.443,49.800 us,1 B,,SP,4B,Read Transaction,01*
0,619,0:05.958.494,70.100 us,2 B,,SP,4B,Write Transaction,82 01
0,620,0:05.958.566,325.300 us,11 B,,SP,4B,Read Transaction,01 30 91 77 0E B7 0E 56 00 00 00*
0,621,0:05.974.867,70.100 us,2 B,,SP,4B,Write Transaction,82 01
0,622,0:05.974.938,49.700 us,1 B,,SP,4B,Read Transaction,01*
0,623,0:05.974.989,70.100 us,2 B,,SP,4B,Write Transaction,82 01
0,624,0:05.975.061,324.900 us,11 B,,SP,4B,Read Transaction,01 30 91 87 0E C6 0E 56 00 00 00*
0,625,0:05.991.411,70.100 us,2 B,,SP,4B,Write Transaction,82 01
0,626,0:05.991.482,49.700 us,1 B,,SP,4B,Read Transaction,01*
0,627,0:05.991.533,70.100 us,2 B,,SP,4B,Write Transaction,82 01
0,628,0:05.991.605,325.300 us,11 B,,SP,4B,Read Transaction,01 30 91 95 0E D2 0E 56 00 00 00*
0,629,0:06.007.900,70.200 us,2 B,,SP,4B,Write Transaction,82 01
0,630,0:06.007.971,49.700 us,1 B,,SP,4B,Read Transaction,01*
0,631,0:06.008.022,70.200 us,2 B,,SP,4B,Write Transaction,82 01
0,632,0:06.008.094,325.200 us,11 B,,SP,4B,Read Transaction,01 30 91 A2 0E DD 0E 4F 00 00 00*
0,633,0:06.024.391,70.100 us,2 B,,SP,4B,Write Transaction,82 01
0,634,0:06.024.462,49.800 us,1 B,,SP,4B,Read Transaction,01*
0,635,0:06.024.513,70.100 us,2 B,,SP,4B,Write Transaction,82 01
0,636,0:06.024.584,325.400 us,11 B,,SP,4B,Read Transaction,01 30 91 B0 0E E7 0E 49 00 00 00*
0,637,0:06.040.887,70.100 us,2 B,,SP,4B,Write Transaction,82 01
0,638,0:06.040.959,49.800 us,1 B,,SP,4B,Read Transaction,01*
0,639,0:06.041.010,70.100 us,2 B,,SP,4B,Write Transaction,82 01
0,640,0:06.041.081,325.500 us,11 B,,SP,4B,Read Transaction,01 30 91 BF 0E F1 0E 49 00 00 00*
0,641,0:06.058.949,70.100 us,2 B,,SP,4B,Write Transaction,82 01
0,642,0:06.059.020,49.800 us,1 B,,SP,4B,Read Transaction,01*
0,643,0:06.059.072,70.100 us,2 B,,SP,4B,Write Transaction,82 01
0,644,0:06.059.143,325.300 us,11 B,,SP,4B,Read Transaction,01 30 91 CF 0E FB 0E 49 00 00 00*
0,645,0:06.075.474,70.100 us,2 B,,SP,4B,Write Transaction,82 01
0,646,0:06.075.545,49.800 us,1 B,,SP,4B,Read Transaction,01*
0,647,0:06.075.596,70.100 us,2 B,,SP,4B,Write Transaction,82 01
0,648,0:06.075.668,325.500 us,11 B,,SP,4B,Read Transaction,01 30 91 DF 0E 04 0F 40 00 00 00*
0,649,0:06.091.967,70.200 us,2 B,,SP,4B,Write Transaction,82 01
0,650,0:06.092.039,49.800 us,1 B,,SP,4B,Read Transaction,01*
0,651,0:06.092.090,70.200 us,2 B,,SP,4B,Write Transaction,82 01
0,652,0:06.092.161,325.100 us,11 B,,SP,4B,Read Transaction,01 30 91 F0 0E 0D 0F 3B 00 00 00*
0,653,0:06.108.468,70.100 us,2 B,,SP,4B,Write Transaction,82 01
0,654,0:06.108.539,49.700 us,1 B,,SP,4B,Read Transaction,01*
0,655,0:06.108.590,70.100 us,2 B,,SP,4B,Write Transaction,82 01
0,656,0:06.108.661,325.100 us,11 B,,SP,4B,Read Transaction,01 30 91 FE 0E 15 0F 36 00 00 00*
0,657,0:06.124.960,70.100 us,2 B,,SP,4B,Write Transaction,82 01
0,658,0:06.125.031,49.700 us,1 B,,SP,4B,Read Transaction,01*
0,659,0:06.125.082,70.200 us,2 B,,SP,4B,Write Transaction,82 01
0,660,0:06.125.154,325.200 us,11 B,,SP,4B,Read Transaction,01 30 91 0D 0F 1C 0F 30 00 00 00*
0,661,0:06.141.505,70.200 us,2 B,,SP,4B,Write Transaction,82 01
0,662,0:06.141.576,49.800 us,1 B,,SP,4B,Read Transaction,01*
0,663,0:06.141.627,70.100 us,2 B,,SP,4B,Write Transaction,82 01
0,664,0:06.141.699,325.200 us,11 B,,SP,4B,Read Transaction,01 30 91 1F 0F 23 0F 2B 00 00 00*
0,665,0:06.157.916,70.100 us,2 B,,SP,4B,Write Transaction,82 01
0,666,0:06.157.987,49.800 us,1 B,,SP,4B,Read Transaction,01*
0,667,0:06.158.038,70.200 us,2 B,,SP,4B,Write Transaction,82 01
0,668,0:06.158.110,325.400 us,11 B,,SP,4B,Read Transaction,01 30 91 34 0F 29 0F 26 00 00 00*
0,669,0:06.174.409,70.100 us,2 B,,SP,4B,Write Transaction,82 01
0,670,0:06.174.480,49.800 us,1 B,,SP,4B,Read Transaction,01*
0,671,0:06.174.531,70.100 us,2 B,,SP,4B,Write Transaction,82 01
0,672,0:06.174.603,325.000 us,11 B,,SP,4B,Read Transaction,01 30 91 49 0F 2E 0F 20 00 00 00*
0,673,0:06.190.906,70.100 us,2 B,,SP,4B,Write Transaction,82 01
0,674,0:06.190.977,49.800 us,1 B,,SP,4B,Read Transaction,01*
0,675,0:06.191.029,70.100 us,2 B,,SP,4B,Write Transaction,82 01
0,676,0:06.191.100,325.000 us,11 B,,SP,4B,Read Transaction,01 30 91 5D 0F 32 0F 19 00 00 00*
0,677,0:06.207.374,70.100 us,2 B,,SP,4B,Write Transaction,82 01
0,678,0:06.207.445,49.700 us,1 B,,SP,4B,Read Transaction,01*
0,679,0:06.207.496,70.200 us,2 B,,SP,4B,Write Transaction,82 01
0,680,0:06.207.568,325.400 us,11 B,,SP,4B,Read Transaction,01 30 91 77 0F 34 0F 12 00 00 00*
0,681,0:06.225.465,70.100 us,2 B,,SP,4B,Write Transaction,82 01
0,682,0:06.225.536,49.800 us,1 B,,SP,4B,Read Transaction,01*
0,683,0:06.225.587,70.100 us,2 B,,SP,4B,Write Transaction,82 01
0,684,0:06.225.659,325.400 us,11 B,,SP,4B,Read Transaction,01 30 91 91 0F 35 0F 12 00 00 00*
0,685,0:06.241.991,70.100 us,2 B,,SP,4B,Write Transaction,82 01
0,686,0:06.242.062,49.800 us,1 B,,SP,4B,Read Transaction,01*
0,687,0:06.242.113,70.100 us,2 B,,SP,4B,Write Transaction,82 01
0,688,0:06.242.184,325.100 us,11 B,,SP,4B,Read Transaction,01 30 91 A5 0F 35 0F 0A 00 00 00*
0,689,0:06.258.485,70.100 us,2 B,,SP,4B,Write Transaction,82 01
0,690,0:06.258.556,49.700 us,1 B,,SP,4B,Read Transaction,01*
0,691,0:06.258.607,70.100 us,2 B,,SP,4B,Write Transaction,82 01
0,692,0:06.258.679,325.300 us,11 B,,SP,4B,Read Transaction,01 30 91 B4 0F 34 0F 0A 00 00 00*
0,693,0:06.307.630,70.100 us,2 B,,SP,4B,Write Transaction,82 01
0,694,0:06.307.702,49.800 us,1 B,,SP,4B,Read Transaction,01*
0,695,0:06.307.753,70.100 us,2 B,,SP,4B,Write Transaction,82 01
0,696,0:06.307.824,325.300 us,11 B,,SP,4B,Read Transaction,01 30 15 B4 0F 34 0F 0A 00 00 00*
0,697,0:07.230.048,70.100 us,2 B,,SP,4B,Write Transaction,82 01
0,698,0:07.230.120,49.700 us,1 B,,SP,4B,Read Transaction,01*
0,699,0:07.230.171,70.100 us,2 B,,SP,4B,Write Transaction,82 01
0,700,0:07.230.242,321.500 us,11 B,,SP,4B,Read Transaction,01 29 12 02 06 01 01 16 00 00 00*
0,701,0:08.390.776,70.200 us,2 B,,SP,4B,Write Transaction,82 01
0,702,0:08.390.847,49.800 us,1 B,,SP,4B,Read Transaction,01*
0,703,0:08.390.898,70.100 us,2 B,,SP,4B,Write Transaction,82 01
0,704,0:08.390.970,321.800 us,11 B,,SP,4B,Read Transaction,01 29 12 02 06 01 01 16 00 00 00*
0,705,0:09.551.476,70.200 us,2 B,,SP,4B,Write Transaction,82 01
0,706,0:09.551.548,49.700 us,1 B,,SP,4B,Read Transaction,01*
0,707,0:09.551.599,70.100 us,2 B,,SP,4B,Write Transaction,82 01
0,708,0:09.551.670,321.900 us,11 B,,SP,4B,Read Transaction,01 29 12 02 06 01 01 16 00 00 00*
0,709,0:10.464.274,,,,,,Capture stopped,[08/03/23 13:33:56]
