# Total Phase Data Center(tm) v7.01
# (c) 2005-2021 Total Phase, Inc.
# www.totalphase.com
#
# 
#
# Level,Index,m:s.ms.us,Dur,Len,Err,S/P,Addr,Record,Data
0,0,0:00.000.000,,,,,,Capture started,[08/03/23 16:36:27]
0,1,0:01.127.507,70.100 us,2 B,,SP,4B,Write Transaction,82 01
0,2,0:01.127.579,49.800 us,1 B,,SP,4B,Read Transaction,01*
0,3,0:01.127.630,70.100 us,2 B,,SP,4B,Write Transaction,82 01
0,4,0:01.127.701,322.900 us,11 B,,SP,4B,Read Transaction,01 29 10 02 06 01 01 16 00 00 00*
0,5,0:02.266.556,70.200 us,2 B,,SP,4B,Write Transaction,82 01
0,6,0:02.266.628,49.800 us,1 B,,SP,4B,Read Transaction,01*
0,7,0:02.266.679,70.100 us,2 B,,SP,4B,Write Transaction,82 01
0,8,0:02.266.750,322.600 us,11 B,,SP,4B,Read Transaction,01 29 10 02 06 01 00 16 00 00 00*
0,9,0:04.543.439,70.100 us,2 B,,SP,4B,Write Transaction,82 01
0,10,0:04.543.510,49.800 us,1 B,,SP,4B,Read Transaction,01*
0,11,0:04.543.561,70.100 us,2 B,,SP,4B,Write Transaction,82 01
0,12,0:04.543.633,322.900 us,11 B,,SP,4B,Read Transaction,01 29 10 02 06 01 00 16 00 00 00*
0,13,0:05.682.335,70.100 us,2 B,,SP,4B,Write Transaction,82 01
0,14,0:05.682.407,49.800 us,1 B,,SP,4B,Read Transaction,01*
0,15,0:05.682.458,70.100 us,2 B,,SP,4B,Write Transaction,82 01
0,16,0:05.682.529,322.800 us,11 B,,SP,4B,Read Transaction,01 29 10 02 06 01 01 16 00 00 00*
0,17,0:06.898.812,70.200 us,2 B,,SP,4B,Write Transaction,82 01
0,18,0:06.898.883,49.800 us,1 B,,SP,4B,Read Transaction,01*
0,19,0:06.898.935,70.200 us,2 B,,SP,4B,Write Transaction,82 01
0,20,0:06.899.006,325.100 us,11 B,,SP,4B,Read Transaction,01 30 94 12 00 32 0F 0B 00 00 00*
0,21,0:06.948.250,70.100 us,2 B,,SP,4B,Write Transaction,82 01
0,22,0:06.948.321,49.800 us,1 B,,SP,4B,Read Transaction,01*
0,23,0:06.948.373,70.100 us,2 B,,SP,4B,Write Transaction,82 01
0,24,0:06.948.444,325.200 us,11 B,,SP,4B,Read Transaction,01 30 90 12 00 32 0F 10 00 00 00*
0,25,0:07.014.084,70.200 us,2 B,,SP,4B,Write Transaction,82 01
0,26,0:07.014.156,49.800 us,1 B,,SP,4B,Read Transaction,01*
0,27,0:07.014.207,70.200 us,2 B,,SP,4B,Write Transaction,82 01
0,28,0:07.014.278,325.200 us,11 B,,SP,4B,Read Transaction,01 30 90 12 00 32 0F 15 00 00 00*
0,29,0:07.065.173,70.100 us,2 B,,SP,4B,Write Transaction,82 01
0,30,0:07.065.244,49.800 us,1 B,,SP,4B,Read Transaction,01*
0,31,0:07.065.295,70.100 us,2 B,,SP,4B,Write Transaction,82 01
0,32,0:07.065.367,325.500 us,11 B,,SP,4B,Read Transaction,01 30 91 1D 00 33 0F 1A 00 00 00*
0,33,0:07.081.637,70.100 us,2 B,,SP,4B,Write Transaction,82 01
0,34,0:07.081.708,49.800 us,1 B,,SP,4B,Read Transaction,01*
0,35,0:07.081.759,70.100 us,2 B,,SP,4B,Write Transaction,82 01
0,36,0:07.081.831,325.000 us,11 B,,SP,4B,Read Transaction,01 30 91 20 00 33 0F 1A 00 00 00*
0,37,0:07.098.094,70.100 us,2 B,,SP,4B,Write Transaction,82 01
0,38,0:07.098.165,49.800 us,1 B,,SP,4B,Read Transaction,01*
0,39,0:07.098.216,70.100 us,2 B,,SP,4B,Write Transaction,82 01
0,40,0:07.098.288,325.200 us,11 B,,SP,4B,Read Transaction,01 30 91 22 00 33 0F 1A 00 00 00*
0,41,0:07.114.556,70.100 us,2 B,,SP,4B,Write Transaction,82 01
0,42,0:07.114.627,49.700 us,1 B,,SP,4B,Read Transaction,01*
0,43,0:07.114.678,70.100 us,2 B,,SP,4B,Write Transaction,82 01
0,44,0:07.114.750,325.400 us,11 B,,SP,4B,Read Transaction,01 30 91 25 00 34 0F 1A 00 00 00*
0,45,0:07.131.023,70.100 us,2 B,,SP,4B,Write Transaction,82 01
0,46,0:07.131.095,49.800 us,1 B,,SP,4B,Read Transaction,01*
0,47,0:07.131.146,70.100 us,2 B,,SP,4B,Write Transaction,82 01
0,48,0:07.131.217,325.300 us,11 B,,SP,4B,Read Transaction,01 30 91 28 00 34 0F 1A 00 00 00*
0,49,0:07.147.553,70.100 us,2 B,,SP,4B,Write Transaction,82 01
0,50,0:07.147.624,49.700 us,1 B,,SP,4B,Read Transaction,01*
0,51,0:07.147.675,70.200 us,2 B,,SP,4B,Write Transaction,82 01
0,52,0:07.147.747,325.100 us,11 B,,SP,4B,Read Transaction,01 30 91 2B 00 34 0F 1A 00 00 00*
0,53,0:07.164.012,70.200 us,2 B,,SP,4B,Write Transaction,82 01
0,54,0:07.164.083,49.800 us,1 B,,SP,4B,Read Transaction,01*
0,55,0:07.164.134,70.200 us,2 B,,SP,4B,Write Transaction,82 01
0,56,0:07.164.206,325.300 us,11 B,,SP,4B,Read Transaction,01 30 91 2E 00 34 0F 1F 00 00 00*
0,57,0:07.180.507,70.100 us,2 B,,SP,4B,Write Transaction,82 01
0,58,0:07.180.579,49.800 us,1 B,,SP,4B,Read Transaction,01*
0,59,0:07.180.630,70.100 us,2 B,,SP,4B,Write Transaction,82 01
0,60,0:07.180.701,325.400 us,11 B,,SP,4B,Read Transaction,01 30 91 31 00 34 0F 1F 00 00 00*
0,61,0:07.198.598,70.100 us,2 B,,SP,4B,Write Transaction,82 01
0,62,0:07.198.670,49.800 us,1 B,,SP,4B,Read Transaction,01*
0,63,0:07.198.721,70.100 us,2 B,,SP,4B,Write Transaction,82 01
0,64,0:07.198.792,324.800 us,11 B,,SP,4B,Read Transaction,01 30 91 33 00 34 0F 1F 00 00 00*
0,65,0:07.215.122,70.200 us,2 B,,SP,4B,Write Transaction,82 01
0,66,0:07.215.193,49.800 us,1 B,,SP,4B,Read Transaction,01*
0,67,0:07.215.244,70.100 us,2 B,,SP,4B,Write Transaction,82 01
0,68,0:07.215.316,325.300 us,11 B,,SP,4B,Read Transaction,01 30 91 36 00 34 0F 1F 00 00 00*
0,69,0:07.231.614,70.200 us,2 B,,SP,4B,Write Transaction,82 01
0,70,0:07.231.685,49.800 us,1 B,,SP,4B,Read Transaction,01*
0,71,0:07.231.736,70.200 us,2 B,,SP,4B,Write Transaction,82 01
0,72,0:07.231.808,325.100 us,11 B,,SP,4B,Read Transaction,01 30 91 38 00 34 0F 1F 00 00 00*
0,73,0:07.248.081,70.100 us,2 B,,SP,4B,Write Transaction,82 01
0,74,0:07.248.152,49.800 us,1 B,,SP,4B,Read Transaction,01*
0,75,0:07.248.203,70.100 us,2 B,,SP,4B,Write Transaction,82 01
0,76,0:07.248.275,325.200 us,11 B,,SP,4B,Read Transaction,01 30 91 3A 00 34 0F 1F 00 00 00*
0,77,0:07.263.686,70.100 us,2 B,,SP,4B,Write Transaction,82 01
0,78,0:07.263.757,49.700 us,1 B,,SP,4B,Read Transaction,01*
0,79,0:07.263.808,70.200 us,2 B,,SP,4B,Write Transaction,82 01
0,80,0:07.263.879,318.500 us,11 B,,SP,4B,Read Transaction,01 29 12 02 06 01 00 16 00 00 00*
0,81,0:07.264.728,70.100 us,2 B,,SP,4B,Write Transaction,82 01
0,82,0:07.264.799,49.800 us,1 B,,SP,4B,Read Transaction,01*
0,83,0:07.264.850,70.100 us,2 B,,SP,4B,Write Transaction,82 01
0,84,0:07.264.922,325.300 us,11 B,,SP,4B,Read Transaction,01 30 91 3B 00 35 0F 1F 00 00 00*
0,85,0:07.281.133,70.100 us,2 B,,SP,4B,Write Transaction,82 01
0,86,0:07.281.204,49.800 us,1 B,,SP,4B,Read Transaction,01*
0,87,0:07.281.255,70.100 us,2 B,,SP,4B,Write Transaction,82 01
0,88,0:07.281.327,325.100 us,11 B,,SP,4B,Read Transaction,01 30 91 3D 00 35 0F 1F 00 00 00*
0,89,0:07.297.596,70.100 us,2 B,,SP,4B,Write Transaction,82 01
0,90,0:07.297.667,49.800 us,1 B,,SP,4B,Read Transaction,01*
0,91,0:07.297.718,70.100 us,2 B,,SP,4B,Write Transaction,82 01
0,92,0:07.297.790,325.300 us,11 B,,SP,4B,Read Transaction,01 30 91 3F 00 35 0F 1F 00 00 00*
0,93,0:07.314.086,70.200 us,2 B,,SP,4B,Write Transaction,82 01
0,94,0:07.314.158,49.800 us,1 B,,SP,4B,Read Transaction,01*
0,95,0:07.314.209,70.200 us,2 B,,SP,4B,Write Transaction,82 01
0,96,0:07.314.280,325.400 us,11 B,,SP,4B,Read Transaction,01 30 91 40 00 35 0F 1F 00 00 00*
0,97,0:07.330.579,70.200 us,2 B,,SP,4B,Write Transaction,82 01
0,98,0:07.330.650,49.900 us,1 B,,SP,4B,Read Transaction,01*
0,99,0:07.330.701,70.100 us,2 B,,SP,4B,Write Transaction,82 01
0,100,0:07.330.773,325.100 us,11 B,,SP,4B,Read Transaction,01 30 91 42 00 35 0F 1F 00 00 00*
0,101,0:07.347.110,70.200 us,2 B,,SP,4B,Write Transaction,82 01
0,102,0:07.347.181,49.800 us,1 B,,SP,4B,Read Transaction,01*
0,103,0:07.347.232,70.100 us,2 B,,SP,4B,Write Transaction,82 01
0,104,0:07.347.304,325.000 us,11 B,,SP,4B,Read Transaction,01 30 91 43 00 35 0F 1F 00 00 00*
0,105,0:07.365.228,70.100 us,2 B,,SP,4B,Write Transaction,82 01
0,106,0:07.365.299,49.800 us,1 B,,SP,4B,Read Transaction,01*
0,107,0:07.365.350,70.100 us,2 B,,SP,4B,Write Transaction,82 01
0,108,0:07.365.422,325.300 us,11 B,,SP,4B,Read Transaction,01 30 91 44 00 35 0F 24 00 00 00*
0,109,0:07.381.723,70.100 us,2 B,,SP,4B,Write Transaction,82 01
0,110,0:07.381.794,49.800 us,1 B,,SP,4B,Read Transaction,01*
0,111,0:07.381.846,70.100 us,2 B,,SP,4B,Write Transaction,82 01
0,112,0:07.381.917,325.600 us,11 B,,SP,4B,Read Transaction,01 30 91 46 00 35 0F 24 00 00 00*
0,113,0:07.398.210,70.100 us,2 B,,SP,4B,Write Transaction,82 01
0,114,0:07.398.282,49.800 us,1 B,,SP,4B,Read Transaction,01*
0,115,0:07.398.333,70.100 us,2 B,,SP,4B,Write Transaction,82 01
0,116,0:07.398.404,324.900 us,11 B,,SP,4B,Read Transaction,01 30 91 48 00 36 0F 24 00 00 00*
0,117,0:07.414.677,70.100 us,2 B,,SP,4B,Write Transaction,82 01
0,118,0:07.414.748,49.800 us,1 B,,SP,4B,Read Transaction,01*
0,119,0:07.414.799,70.100 us,2 B,,SP,4B,Write Transaction,82 01
0,120,0:07.414.870,325.200 us,11 B,,SP,4B,Read Transaction,01 30 91 49 00 36 0F 24 00 00 00*
0,121,0:07.431.142,70.100 us,2 B,,SP,4B,Write Transaction,82 01
0,122,0:07.431.213,49.800 us,1 B,,SP,4B,Read Transaction,01*
0,123,0:07.431.264,70.100 us,2 B,,SP,4B,Write Transaction,82 01
0,124,0:07.431.336,325.100 us,11 B,,SP,4B,Read Transaction,01 30 91 4B 00 36 0F 24 00 00 00*
0,125,0:07.447.608,70.200 us,2 B,,SP,4B,Write Transaction,82 01
0,126,0:07.447.680,49.800 us,1 B,,SP,4B,Read Transaction,01*
0,127,0:07.447.731,70.200 us,2 B,,SP,4B,Write Transaction,82 01
0,128,0:07.447.802,325.500 us,11 B,,SP,4B,Read Transaction,01 30 91 4D 00 36 0F 24 00 00 00*
0,129,0:07.464.102,70.100 us,2 B,,SP,4B,Write Transaction,82 01
0,130,0:07.464.173,49.800 us,1 B,,SP,4B,Read Transaction,01*
0,131,0:07.464.224,70.100 us,2 B,,SP,4B,Write Transaction,82 01
0,132,0:07.464.296,325.100 us,11 B,,SP,4B,Read Transaction,01 30 91 4F 00 36 0F 24 00 00 00*
0,133,0:07.480.566,70.100 us,2 B,,SP,4B,Write Transaction,82 01
0,134,0:07.480.638,49.800 us,1 B,,SP,4B,Read Transaction,01*
0,135,0:07.480.689,70.100 us,2 B,,SP,4B,Write Transaction,82 01
0,136,0:07.480.760,324.800 us,11 B,,SP,4B,Read Transaction,01 30 91 51 00 36 0F 24 00 00 00*
0,137,0:07.497.058,70.200 us,2 B,,SP,4B,Write Transaction,82 01
0,138,0:07.497.130,49.800 us,1 B,,SP,4B,Read Transaction,01*
0,139,0:07.497.181,70.200 us,2 B,,SP,4B,Write Transaction,82 01
0,140,0:07.497.252,325.200 us,11 B,,SP,4B,Read Transaction,01 30 91 54 00 36 0F 24 00 00 00*
0,141,0:07.513.525,70.100 us,2 B,,SP,4B,Write Transaction,82 01
0,142,0:07.513.596,49.700 us,1 B,,SP,4B,Read Transaction,01*
0,143,0:07.513.647,70.100 us,2 B,,SP,4B,Write Transaction,82 01
0,144,0:07.513.719,325.300 us,11 B,,SP,4B,Read Transaction,01 30 91 56 00 36 0F 29 00 00 00*
0,145,0:07.531.556,70.100 us,2 B,,SP,4B,Write Transaction,82 01
0,146,0:07.531.627,49.800 us,1 B,,SP,4B,Read Transaction,01*
0,147,0:07.531.679,70.100 us,2 B,,SP,4B,Write Transaction,82 01
0,148,0:07.531.750,325.000 us,11 B,,SP,4B,Read Transaction,01 30 91 58 00 36 0F 29 00 00 00*
0,149,0:07.548.130,70.200 us,2 B,,SP,4B,Write Transaction,82 01
0,150,0:07.548.201,49.700 us,1 B,,SP,4B,Read Transaction,01*
0,151,0:07.548.252,70.200 us,2 B,,SP,4B,Write Transaction,82 01
0,152,0:07.548.324,325.300 us,11 B,,SP,4B,Read Transaction,01 30 91 5B 00 36 0F 29 00 00 00*
0,153,0:07.564.549,70.200 us,2 B,,SP,4B,Write Transaction,82 01
0,154,0:07.564.620,49.800 us,1 B,,SP,4B,Read Transaction,01*
0,155,0:07.564.671,70.200 us,2 B,,SP,4B,Write Transaction,82 01
0,156,0:07.564.743,325.300 us,11 B,,SP,4B,Read Transaction,01 30 91 5D 00 36 0F 29 00 00 00*
0,157,0:07.581.041,70.200 us,2 B,,SP,4B,Write Transaction,82 01
0,158,0:07.581.112,49.800 us,1 B,,SP,4B,Read Transaction,01*
0,159,0:07.581.164,70.200 us,2 B,,SP,4B,Write Transaction,82 01
0,160,0:07.581.235,325.200 us,11 B,,SP,4B,Read Transaction,01 30 91 5F 00 36 0F 29 00 00 00*
0,161,0:07.597.505,70.100 us,2 B,,SP,4B,Write Transaction,82 01
0,162,0:07.597.576,49.800 us,1 B,,SP,4B,Read Transaction,01*
0,163,0:07.597.627,70.100 us,2 B,,SP,4B,Write Transaction,82 01
0,164,0:07.597.699,325.000 us,11 B,,SP,4B,Read Transaction,01 30 91 61 00 36 0F 29 00 00 00*
0,165,0:07.613.974,70.100 us,2 B,,SP,4B,Write Transaction,82 01
0,166,0:07.614.045,49.800 us,1 B,,SP,4B,Read Transaction,01*
0,167,0:07.614.096,70.100 us,2 B,,SP,4B,Write Transaction,82 01
0,168,0:07.614.167,325.300 us,11 B,,SP,4B,Read Transaction,01 30 91 62 00 36 0F 2E 00 00 00*
0,169,0:07.630.467,70.200 us,2 B,,SP,4B,Write Transaction,82 01
0,170,0:07.630.538,49.800 us,1 B,,SP,4B,Read Transaction,01*
0,171,0:07.630.589,70.100 us,2 B,,SP,4B,Write Transaction,82 01
0,172,0:07.630.660,325.500 us,11 B,,SP,4B,Read Transaction,01 30 91 65 00 36 0F 2E 00 00 00*
0,173,0:07.646.949,70.100 us,2 B,,SP,4B,Write Transaction,82 01
0,174,0:07.647.020,49.800 us,1 B,,SP,4B,Read Transaction,01*
0,175,0:07.647.071,70.100 us,2 B,,SP,4B,Write Transaction,82 01
0,176,0:07.647.143,325.000 us,11 B,,SP,4B,Read Transaction,01 30 91 67 00 36 0F 2E 00 00 00*
0,177,0:07.663.451,70.100 us,2 B,,SP,4B,Write Transaction,82 01
0,178,0:07.663.523,49.800 us,1 B,,SP,4B,Read Transaction,01*
0,179,0:07.663.574,70.200 us,2 B,,SP,4B,Write Transaction,82 01
0,180,0:07.663.645,324.900 us,11 B,,SP,4B,Read Transaction,01 30 91 6A 00 36 0F 2E 00 00 00*
0,181,0:07.679.933,70.100 us,2 B,,SP,4B,Write Transaction,82 01
0,182,0:07.680.005,49.800 us,1 B,,SP,4B,Read Transaction,01*
0,183,0:07.680.056,70.100 us,2 B,,SP,4B,Write Transaction,82 01
0,184,0:07.680.127,325.200 us,11 B,,SP,4B,Read Transaction,01 30 91 6D 00 34 0F 2E 00 00 00*
0,185,0:07.698.003,70.100 us,2 B,,SP,4B,Write Transaction,82 01
0,186,0:07.698.074,49.800 us,1 B,,SP,4B,Read Transaction,01*
0,187,0:07.698.125,70.100 us,2 B,,SP,4B,Write Transaction,82 01
0,188,0:07.698.197,325.400 us,11 B,,SP,4B,Read Transaction,01 30 91 6F 00 34 0F 2E 00 00 00*
0,189,0:07.714.504,70.200 us,2 B,,SP,4B,Write Transaction,82 01
0,190,0:07.714.576,49.800 us,1 B,,SP,4B,Read Transaction,01*
0,191,0:07.714.627,70.200 us,2 B,,SP,4B,Write Transaction,82 01
0,192,0:07.714.698,325.200 us,11 B,,SP,4B,Read Transaction,01 30 91 71 00 34 0F 2E 00 00 00*
0,193,0:07.731.053,70.200 us,2 B,,SP,4B,Write Transaction,82 01
0,194,0:07.731.124,49.800 us,1 B,,SP,4B,Read Transaction,01*
0,195,0:07.731.175,70.100 us,2 B,,SP,4B,Write Transaction,82 01
0,196,0:07.731.247,325.300 us,11 B,,SP,4B,Read Transaction,01 30 91 73 00 34 0F 2E 00 00 00*
0,197,0:07.747.493,70.100 us,2 B,,SP,4B,Write Transaction,82 01
0,198,0:07.747.565,49.700 us,1 B,,SP,4B,Read Transaction,01*
0,199,0:07.747.616,70.200 us,2 B,,SP,4B,Write Transaction,82 01
0,200,0:07.747.687,325.300 us,11 B,,SP,4B,Read Transaction,01 30 91 75 00 34 0F 2E 00 00 00*
0,201,0:07.763.959,70.200 us,2 B,,SP,4B,Write Transaction,82 01
0,202,0:07.764.030,49.700 us,1 B,,SP,4B,Read Transaction,01*
0,203,0:07.764.081,70.100 us,2 B,,SP,4B,Write Transaction,82 01
0,204,0:07.764.153,325.300 us,11 B,,SP,4B,Read Transaction,01 30 91 76 00 33 0F 2E 00 00 00*
0,205,0:07.780.423,70.100 us,2 B,,SP,4B,Write Transaction,82 01
0,206,0:07.780.494,49.800 us,1 B,,SP,4B,Read Transaction,01*
0,207,0:07.780.545,70.100 us,2 B,,SP,4B,Write Transaction,82 01
0,208,0:07.780.617,325.100 us,11 B,,SP,4B,Read Transaction,01 30 91 78 00 33 0F 2E 00 00 00*
0,209,0:07.796.894,70.100 us,2 B,,SP,4B,Write Transaction,82 01
0,210,0:07.796.965,49.800 us,1 B,,SP,4B,Read Transaction,01*
0,211,0:07.797.016,70.100 us,2 B,,SP,4B,Write Transaction,82 01
0,212,0:07.797.088,325.000 us,11 B,,SP,4B,Read Transaction,01 30 91 79 00 33 0F 33 00 00 00*
0,213,0:07.813.364,70.100 us,2 B,,SP,4B,Write Transaction,82 01
0,214,0:07.813.435,49.800 us,1 B,,SP,4B,Read Transaction,01*
0,215,0:07.813.486,70.100 us,2 B,,SP,4B,Write Transaction,82 01
0,216,0:07.813.558,325.400 us,11 B,,SP,4B,Read Transaction,01 30 91 7B 00 32 0F 33 00 00 00*
0,217,0:07.829.830,70.100 us,2 B,,SP,4B,Write Transaction,82 01
0,218,0:07.829.901,49.800 us,1 B,,SP,4B,Read Transaction,01*
0,219,0:07.829.952,70.100 us,2 B,,SP,4B,Write Transaction,82 01
0,220,0:07.830.024,325.300 us,11 B,,SP,4B,Read Transaction,01 30 91 7D 00 32 0F 33 00 00 00*
0,221,0:07.846.314,70.200 us,2 B,,SP,4B,Write Transaction,82 01
0,222,0:07.846.385,49.800 us,1 B,,SP,4B,Read Transaction,01*
0,223,0:07.846.436,70.200 us,2 B,,SP,4B,Write Transaction,82 01
0,224,0:07.846.508,325.200 us,11 B,,SP,4B,Read Transaction,01 30 91 80 00 32 0F 33 00 00 00*
0,225,0:07.864.386,70.100 us,2 B,,SP,4B,Write Transaction,82 01
0,226,0:07.864.457,49.800 us,1 B,,SP,4B,Read Transaction,01*
0,227,0:07.864.508,70.100 us,2 B,,SP,4B,Write Transaction,82 01
0,228,0:07.864.580,325.400 us,11 B,,SP,4B,Read Transaction,01 30 91 83 00 32 0F 3C 00 00 00*
0,229,0:07.880.905,70.200 us,2 B,,SP,4B,Write Transaction,82 01
0,230,0:07.880.976,49.700 us,1 B,,SP,4B,Read Transaction,01*
0,231,0:07.881.027,70.200 us,2 B,,SP,4B,Write Transaction,82 01
0,232,0:07.881.099,325.400 us,11 B,,SP,4B,Read Transaction,01 30 91 86 00 30 0F 3C 00 00 00*
0,233,0:07.897.397,70.100 us,2 B,,SP,4B,Write Transaction,82 01
0,234,0:07.897.468,49.800 us,1 B,,SP,4B,Read Transaction,01*
0,235,0:07.897.520,70.100 us,2 B,,SP,4B,Write Transaction,82 01
0,236,0:07.897.591,325.300 us,11 B,,SP,4B,Read Transaction,01 30 91 8A 00 2F 0F 3C 00 00 00*
0,237,0:07.913.890,70.100 us,2 B,,SP,4B,Write Transaction,82 01
0,238,0:07.913.961,49.800 us,1 B,,SP,4B,Read Transaction,01*
0,239,0:07.914.012,70.100 us,2 B,,SP,4B,Write Transaction,82 01
0,240,0:07.914.083,325.100 us,11 B,,SP,4B,Read Transaction,01 30 91 8D 00 2F 0F 3C 00 00 00*
0,241,0:07.930.429,70.100 us,2 B,,SP,4B,Write Transaction,82 01
0,242,0:07.930.500,49.800 us,1 B,,SP,4B,Read Transaction,01*
0,243,0:07.930.552,70.100 us,2 B,,SP,4B,Write Transaction,82 01
0,244,0:07.930.623,325.000 us,11 B,,SP,4B,Read Transaction,01 30 91 91 00 2E 0F 37 00 00 00*
0,245,0:07.946.867,70.200 us,2 B,,SP,4B,Write Transaction,82 01
0,246,0:07.946.939,49.700 us,1 B,,SP,4B,Read Transaction,01*
0,247,0:07.946.990,70.100 us,2 B,,SP,4B,Write Transaction,82 01
0,248,0:07.947.061,325.000 us,11 B,,SP,4B,Read Transaction,01 30 91 94 00 2D 0F 37 00 00 00*
0,249,0:07.963.362,70.100 us,2 B,,SP,4B,Write Transaction,82 01
0,250,0:07.963.433,49.800 us,1 B,,SP,4B,Read Transaction,01*
0,251,0:07.963.484,70.100 us,2 B,,SP,4B,Write Transaction,82 01
0,252,0:07.963.556,324.900 us,11 B,,SP,4B,Read Transaction,01 30 91 96 00 2C 0F 37 00 00 00*
0,253,0:07.979.830,70.100 us,2 B,,SP,4B,Write Transaction,82 01
0,254,0:07.979.902,49.800 us,1 B,,SP,4B,Read Transaction,01*
0,255,0:07.979.953,70.100 us,2 B,,SP,4B,Write Transaction,82 01
0,256,0:07.980.024,325.300 us,11 B,,SP,4B,Read Transaction,01 30 91 9A 00 2C 0F 37 00 00 00*
0,257,0:07.996.322,70.100 us,2 B,,SP,4B,Write Transaction,82 01
0,258,0:07.996.393,49.800 us,1 B,,SP,4B,Read Transaction,01*
0,259,0:07.996.444,70.100 us,2 B,,SP,4B,Write Transaction,82 01
0,260,0:07.996.516,325.000 us,11 B,,SP,4B,Read Transaction,01 30 91 9D 00 2B 0F 3E 00 00 00*
0,261,0:08.012.815,70.200 us,2 B,,SP,4B,Write Transaction,82 01
0,262,0:08.012.886,49.800 us,1 B,,SP,4B,Read Transaction,01*
0,263,0:08.012.937,70.200 us,2 B,,SP,4B,Write Transaction,82 01
0,264,0:08.013.009,325.300 us,11 B,,SP,4B,Read Transaction,01 30 91 A1 00 2A 0F 45 00 00 00*
0,265,0:08.030.908,70.100 us,2 B,,SP,4B,Write Transaction,82 01
0,266,0:08.030.979,49.800 us,1 B,,SP,4B,Read Transaction,01*
0,267,0:08.031.031,70.100 us,2 B,,SP,4B,Write Transaction,82 01
0,268,0:08.031.102,325.400 us,11 B,,SP,4B,Read Transaction,01 30 91 A5 00 29 0F 45 00 00 00*
0,269,0:08.047.427,70.200 us,2 B,,SP,4B,Write Transaction,82 01
0,270,0:08.047.499,49.700 us,1 B,,SP,4B,Read Transaction,01*
0,271,0:08.047.550,70.200 us,2 B,,SP,4B,Write Transaction,82 01
0,272,0:08.047.621,325.200 us,11 B,,SP,4B,Read Transaction,01 30 91 AA 00 27 0F 45 00 00 00*
0,273,0:08.063.921,70.200 us,2 B,,SP,4B,Write Transaction,82 01
0,274,0:08.063.992,49.700 us,1 B,,SP,4B,Read Transaction,01*
0,275,0:08.064.043,70.200 us,2 B,,SP,4B,Write Transaction,82 01
0,276,0:08.064.115,325.100 us,11 B,,SP,4B,Read Transaction,01 30 91 AF 00 25 0F 4A 00 00 00*
0,277,0:08.080.415,70.100 us,2 B,,SP,4B,Write Transaction,82 01
0,278,0:08.080.487,49.800 us,1 B,,SP,4B,Read Transaction,01*
0,279,0:08.080.538,70.100 us,2 B,,SP,4B,Write Transaction,82 01
0,280,0:08.080.609,325.100 us,11 B,,SP,4B,Read Transaction,01 30 91 B4 00 23 0F 4A 00 00 00*
0,281,0:08.096.879,70.100 us,2 B,,SP,4B,Write Transaction,82 01
0,282,0:08.096.950,49.800 us,1 B,,SP,4B,Read Transaction,01*
0,283,0:08.097.001,70.100 us,2 B,,SP,4B,Write Transaction,82 01
0,284,0:08.097.073,325.100 us,11 B,,SP,4B,Read Transaction,01 30 91 B9 00 22 0F 4A 00 00 00*
0,285,0:08.113.343,70.200 us,2 B,,SP,4B,Write Transaction,82 01
0,286,0:08.113.414,49.800 us,1 B,,SP,4B,Read Transaction,01*
0,287,0:08.113.465,70.200 us,2 B,,SP,4B,Write Transaction,82 01
0,288,0:08.113.536,324.900 us,11 B,,SP,4B,Read Transaction,01 30 91 BF 00 1F 0F 4A 00 00 00*
0,289,0:08.129.905,70.100 us,2 B,,SP,4B,Write Transaction,82 01
0,290,0:08.129.976,49.800 us,1 B,,SP,4B,Read Transaction,01*
0,291,0:08.130.027,70.100 us,2 B,,SP,4B,Write Transaction,82 01
0,292,0:08.130.098,325.000 us,11 B,,SP,4B,Read Transaction,01 30 91 C4 00 1E 0F 4A 00 00 00*
0,293,0:08.146.300,70.100 us,2 B,,SP,4B,Write Transaction,82 01
0,294,0:08.146.372,49.800 us,1 B,,SP,4B,Read Transaction,01*
0,295,0:08.146.423,70.100 us,2 B,,SP,4B,Write Transaction,82 01
0,296,0:08.146.494,325.200 us,11 B,,SP,4B,Read Transaction,01 30 91 CA 00 1C 0F 4A 00 00 00*
0,297,0:08.162.774,70.100 us,2 B,,SP,4B,Write Transaction,82 01
0,298,0:08.162.845,49.800 us,1 B,,SP,4B,Read Transaction,01*
0,299,0:08.162.896,70.100 us,2 B,,SP,4B,Write Transaction,82 01
0,300,0:08.162.968,325.300 us,11 B,,SP,4B,Read Transaction,01 30 91 D0 00 1A 0F 4A 00 00 00*
0,301,0:08.179.240,70.100 us,2 B,,SP,4B,Write Transaction,82 01
0,302,0:08.179.312,49.800 us,1 B,,SP,4B,Read Transaction,01*
0,303,0:08.179.363,70.100 us,2 B,,SP,4B,Write Transaction,82 01
0,304,0:08.179.434,325.300 us,11 B,,SP,4B,Read Transaction,01 30 91 D6 00 17 0F 4A 00 00 00*
0,305,0:08.197.373,70.100 us,2 B,,SP,4B,Write Transaction,82 01
0,306,0:08.197.444,49.800 us,1 B,,SP,4B,Read Transaction,01*
0,307,0:08.197.495,70.100 us,2 B,,SP,4B,Write Transaction,82 01
0,308,0:08.197.567,325.500 us,11 B,,SP,4B,Read Transaction,01 30 91 DC 00 16 0F 4A 00 00 00*
0,309,0:08.213.897,70.100 us,2 B,,SP,4B,Write Transaction,82 01
0,310,0:08.213.969,49.800 us,1 B,,SP,4B,Read Transaction,01*
0,311,0:08.214.020,70.100 us,2 B,,SP,4B,Write Transaction,82 01
0,312,0:08.214.091,325.000 us,11 B,,SP,4B,Read Transaction,01 30 91 E1 00 14 0F 4A 00 00 00*
0,313,0:08.230.363,70.100 us,2 B,,SP,4B,Write Transaction,82 01
0,314,0:08.230.435,49.800 us,1 B,,SP,4B,Read Transaction,01*
0,315,0:08.230.486,70.100 us,2 B,,SP,4B,Write Transaction,82 01
0,316,0:08.230.557,325.400 us,11 B,,SP,4B,Read Transaction,01 30 91 E6 00 13 0F 4A 00 00 00*
0,317,0:08.246.826,70.100 us,2 B,,SP,4B,Write Transaction,82 01
0,318,0:08.246.897,49.800 us,1 B,,SP,4B,Read Transaction,01*
0,319,0:08.246.948,70.100 us,2 B,,SP,4B,Write Transaction,82 01
0,320,0:08.247.019,325.000 us,11 B,,SP,4B,Read Transaction,01 30 91 EA 00 12 0F 4F 00 00 00*
0,321,0:08.263.295,70.200 us,2 B,,SP,4B,Write Transaction,82 01
0,322,0:08.263.366,49.700 us,1 B,,SP,4B,Read Transaction,01*
0,323,0:08.263.417,70.100 us,2 B,,SP,4B,Write Transaction,82 01
0,324,0:08.263.489,325.300 us,11 B,,SP,4B,Read Transaction,01 30 91 EE 00 11 0F 4F 00 00 00*
0,325,0:08.279.764,70.200 us,2 B,,SP,4B,Write Transaction,82 01
0,326,0:08.279.835,49.800 us,1 B,,SP,4B,Read Transaction,01*
0,327,0:08.279.886,70.200 us,2 B,,SP,4B,Write Transaction,82 01
0,328,0:08.279.957,325.300 us,11 B,,SP,4B,Read Transaction,01 30 91 F2 00 0F 0F 4F 00 00 00*
0,329,0:08.296.230,70.100 us,2 B,,SP,4B,Write Transaction,82 01
0,330,0:08.296.301,49.800 us,1 B,,SP,4B,Read Transaction,01*
0,331,0:08.296.353,70.100 us,2 B,,SP,4B,Write Transaction,82 01
0,332,0:08.296.424,325.200 us,11 B,,SP,4B,Read Transaction,01 30 91 F5 00 0F 0F 4F 00 00 00*
0,333,0:08.312.699,70.200 us,2 B,,SP,4B,Write Transaction,82 01
0,334,0:08.312.770,49.800 us,1 B,,SP,4B,Read Transaction,01*
0,335,0:08.312.821,70.200 us,2 B,,SP,4B,Write Transaction,82 01
0,336,0:08.312.893,325.100 us,11 B,,SP,4B,Read Transaction,01 30 91 F9 00 0D 0F 4F 00 00 00*
0,337,0:08.329.225,70.200 us,2 B,,SP,4B,Write Transaction,82 01
0,338,0:08.329.297,49.800 us,1 B,,SP,4B,Read Transaction,01*
0,339,0:08.329.348,70.200 us,2 B,,SP,4B,Write Transaction,82 01
0,340,0:08.329.419,325.200 us,11 B,,SP,4B,Read Transaction,01 30 91 FC 00 0C 0F 4F 00 00 00*
0,341,0:08.345.608,70.200 us,2 B,,SP,4B,Write Transaction,82 01
0,342,0:08.345.679,49.800 us,1 B,,SP,4B,Read Transaction,01*
0,343,0:08.345.730,70.100 us,2 B,,SP,4B,Write Transaction,82 01
0,344,0:08.345.802,325.100 us,11 B,,SP,4B,Read Transaction,01 30 91 00 01 0B 0F 4F 00 00 00*
0,345,0:08.363.674,70.200 us,2 B,,SP,4B,Write Transaction,82 01
0,346,0:08.363.746,49.800 us,1 B,,SP,4B,Read Transaction,01*
0,347,0:08.363.797,70.200 us,2 B,,SP,4B,Write Transaction,82 01
0,348,0:08.363.868,325.200 us,11 B,,SP,4B,Read Transaction,01 30 91 03 01 0A 0F 55 00 00 00*
0,349,0:08.380.172,70.100 us,2 B,,SP,4B,Write Transaction,82 01
0,350,0:08.380.244,49.800 us,1 B,,SP,4B,Read Transaction,01*
0,351,0:08.380.295,70.100 us,2 B,,SP,4B,Write Transaction,82 01
0,352,0:08.380.366,325.200 us,11 B,,SP,4B,Read Transaction,01 30 91 07 01 09 0F 55 00 00 00*
0,353,0:08.396.641,70.100 us,2 B,,SP,4B,Write Transaction,82 01
0,354,0:08.396.712,49.800 us,1 B,,SP,4B,Read Transaction,01*
0,355,0:08.396.763,70.100 us,2 B,,SP,4B,Write Transaction,82 01
0,356,0:08.396.834,325.400 us,11 B,,SP,4B,Read Transaction,01 30 91 0B 01 07 0F 55 00 00 00*
0,357,0:08.413.105,70.100 us,2 B,,SP,4B,Write Transaction,82 01
0,358,0:08.413.176,49.800 us,1 B,,SP,4B,Read Transaction,01*
0,359,0:08.413.227,70.100 us,2 B,,SP,4B,Write Transaction,82 01
0,360,0:08.413.299,325.300 us,11 B,,SP,4B,Read Transaction,01 30 91 0F 01 04 0F 55 00 00 00*
0,361,0:08.429.575,70.200 us,2 B,,SP,4B,Write Transaction,82 01
0,362,0:08.429.646,49.800 us,1 B,,SP,4B,Read Transaction,01*
0,363,0:08.429.697,70.100 us,2 B,,SP,4B,Write Transaction,82 01
0,364,0:08.429.769,325.200 us,11 B,,SP,4B,Read Transaction,01 30 91 14 01 02 0F 55 00 00 00*
0,365,0:08.446.041,70.100 us,2 B,,SP,4B,Write Transaction,82 01
0,366,0:08.446.112,49.700 us,1 B,,SP,4B,Read Transaction,01*
0,367,0:08.446.163,70.200 us,2 B,,SP,4B,Write Transaction,82 01
0,368,0:08.446.234,325.200 us,11 B,,SP,4B,Read Transaction,01 30 91 19 01 FE 0E 55 00 00 00*
0,369,0:08.462.505,70.100 us,2 B,,SP,4B,Write Transaction,82 01
0,370,0:08.462.576,49.800 us,1 B,,SP,4B,Read Transaction,01*
0,371,0:08.462.627,70.100 us,2 B,,SP,4B,Write Transaction,82 01
0,372,0:08.462.699,325.200 us,11 B,,SP,4B,Read Transaction,01 30 91 1E 01 FA 0E 61 00 00 00*
0,373,0:08.478.969,70.200 us,2 B,,SP,4B,Write Transaction,82 01
0,374,0:08.479.041,49.700 us,1 B,,SP,4B,Read Transaction,01*
0,375,0:08.479.092,70.200 us,2 B,,SP,4B,Write Transaction,82 01
0,376,0:08.479.163,325.100 us,11 B,,SP,4B,Read Transaction,01 30 91 23 01 F7 0E 61 00 00 00*
0,377,0:08.495.468,70.100 us,2 B,,SP,4B,Write Transaction,82 01
0,378,0:08.495.539,49.800 us,1 B,,SP,4B,Read Transaction,01*
0,379,0:08.495.590,70.100 us,2 B,,SP,4B,Write Transaction,82 01
0,380,0:08.495.662,325.000 us,11 B,,SP,4B,Read Transaction,01 30 91 28 01 F2 0E 61 00 00 00*
0,381,0:08.512.058,70.100 us,2 B,,SP,4B,Write Transaction,82 01
0,382,0:08.512.129,49.800 us,1 B,,SP,4B,Read Transaction,01*
0,383,0:08.512.180,70.200 us,2 B,,SP,4B,Write Transaction,82 01
0,384,0:08.512.252,325.100 us,11 B,,SP,4B,Read Transaction,01 30 91 2D 01 EC 0E 61 00 00 00*
0,385,0:08.530.026,70.100 us,2 B,,SP,4B,Write Transaction,82 01
0,386,0:08.530.097,49.800 us,1 B,,SP,4B,Read Transaction,01*
0,387,0:08.530.149,70.100 us,2 B,,SP,4B,Write Transaction,82 01
0,388,0:08.530.220,325.300 us,11 B,,SP,4B,Read Transaction,01 30 91 33 01 E7 0E 61 00 00 00*
0,389,0:08.546.547,70.100 us,2 B,,SP,4B,Write Transaction,82 01
0,390,0:08.546.618,49.800 us,1 B,,SP,4B,Read Transaction,01*
0,391,0:08.546.669,70.100 us,2 B,,SP,4B,Write Transaction,82 01
0,392,0:08.546.741,325.100 us,11 B,,SP,4B,Read Transaction,01 30 91 39 01 E2 0E 61 00 00 00*
0,393,0:08.563.037,70.100 us,2 B,,SP,4B,Write Transaction,82 01
0,394,0:08.563.109,49.800 us,1 B,,SP,4B,Read Transaction,01*
0,395,0:08.563.160,70.100 us,2 B,,SP,4B,Write Transaction,82 01
0,396,0:08.563.231,325.100 us,11 B,,SP,4B,Read Transaction,01 30 91 3F 01 DC 0E 61 00 00 00*
0,397,0:08.579.504,70.100 us,2 B,,SP,4B,Write Transaction,82 01
0,398,0:08.579.575,49.800 us,1 B,,SP,4B,Read Transaction,01*
0,399,0:08.579.626,70.100 us,2 B,,SP,4B,Write Transaction,82 01
0,400,0:08.579.698,325.300 us,11 B,,SP,4B,Read Transaction,01 30 91 44 01 D6 0E 61 00 00 00*
0,401,0:08.595.974,70.100 us,2 B,,SP,4B,Write Transaction,82 01
0,402,0:08.596.046,49.800 us,1 B,,SP,4B,Read Transaction,01*
0,403,0:08.596.097,70.100 us,2 B,,SP,4B,Write Transaction,82 01
0,404,0:08.596.168,325.200 us,11 B,,SP,4B,Read Transaction,01 30 91 49 01 D2 0E 61 00 00 00*
0,405,0:08.612.466,70.200 us,2 B,,SP,4B,Write Transaction,82 01
0,406,0:08.612.538,49.800 us,1 B,,SP,4B,Read Transaction,01*
0,407,0:08.612.589,70.200 us,2 B,,SP,4B,Write Transaction,82 01
0,408,0:08.612.660,325.300 us,11 B,,SP,4B,Read Transaction,01 30 91 4D 01 CE 0E 61 00 00 00*
0,409,0:08.628.959,70.100 us,2 B,,SP,4B,Write Transaction,82 01
0,410,0:08.629.031,49.800 us,1 B,,SP,4B,Read Transaction,01*
0,411,0:08.629.082,70.100 us,2 B,,SP,4B,Write Transaction,82 01
0,412,0:08.629.153,325.100 us,11 B,,SP,4B,Read Transaction,01 30 91 50 01 CA 0E 61 00 00 00*
0,413,0:08.645.453,70.100 us,2 B,,SP,4B,Write Transaction,82 01
0,414,0:08.645.525,49.800 us,1 B,,SP,4B,Read Transaction,01*
0,415,0:08.645.576,70.100 us,2 B,,SP,4B,Write Transaction,82 01
0,416,0:08.645.647,325.300 us,11 B,,SP,4B,Read Transaction,01 30 91 53 01 C7 0E 61 00 00 00*
0,417,0:08.661.943,70.100 us,2 B,,SP,4B,Write Transaction,82 01
0,418,0:08.662.014,49.800 us,1 B,,SP,4B,Read Transaction,01*
0,419,0:08.662.066,70.100 us,2 B,,SP,4B,Write Transaction,82 01
0,420,0:08.662.137,325.200 us,11 B,,SP,4B,Read Transaction,01 30 91 56 01 C4 0E 61 00 00 00*
0,421,0:08.678.440,70.100 us,2 B,,SP,4B,Write Transaction,82 01
0,422,0:08.678.512,49.800 us,1 B,,SP,4B,Read Transaction,01*
0,423,0:08.678.563,70.100 us,2 B,,SP,4B,Write Transaction,82 01
0,424,0:08.678.634,325.300 us,11 B,,SP,4B,Read Transaction,01 30 91 59 01 C2 0E 61 00 00 00*
0,425,0:08.696.504,70.100 us,2 B,,SP,4B,Write Transaction,82 01
0,426,0:08.696.575,49.800 us,1 B,,SP,4B,Read Transaction,01*
0,427,0:08.696.627,70.100 us,2 B,,SP,4B,Write Transaction,82 01
0,428,0:08.696.698,325.000 us,11 B,,SP,4B,Read Transaction,01 30 91 5B 01 BF 0E 61 00 00 00*
0,429,0:08.713.123,70.100 us,2 B,,SP,4B,Write Transaction,82 01
0,430,0:08.713.194,49.800 us,1 B,,SP,4B,Read Transaction,01*
0,431,0:08.713.246,70.100 us,2 B,,SP,4B,Write Transaction,82 01
0,432,0:08.713.317,325.300 us,11 B,,SP,4B,Read Transaction,01 30 91 5D 01 BD 0E 61 00 00 00*
0,433,0:08.729.497,70.100 us,2 B,,SP,4B,Write Transaction,82 01
0,434,0:08.729.569,49.800 us,1 B,,SP,4B,Read Transaction,01*
0,435,0:08.729.620,70.100 us,2 B,,SP,4B,Write Transaction,82 01
0,436,0:08.729.691,325.200 us,11 B,,SP,4B,Read Transaction,01 30 91 5F 01 BB 0E 61 00 00 00*
0,437,0:08.745.990,70.200 us,2 B,,SP,4B,Write Transaction,82 01
0,438,0:08.746.062,49.700 us,1 B,,SP,4B,Read Transaction,01*
0,439,0:08.746.113,70.200 us,2 B,,SP,4B,Write Transaction,82 01
0,440,0:08.746.184,325.400 us,11 B,,SP,4B,Read Transaction,01 30 91 61 01 B9 0E 61 00 00 00*
0,441,0:08.762.485,70.100 us,2 B,,SP,4B,Write Transaction,82 01
0,442,0:08.762.556,49.800 us,1 B,,SP,4B,Read Transaction,01*
0,443,0:08.762.607,70.100 us,2 B,,SP,4B,Write Transaction,82 01
0,444,0:08.762.679,324.700 us,11 B,,SP,4B,Read Transaction,01 30 91 63 01 B7 0E 61 00 00 00*
0,445,0:08.778.956,70.100 us,2 B,,SP,4B,Write Transaction,82 01
0,446,0:08.779.027,49.700 us,1 B,,SP,4B,Read Transaction,01*
0,447,0:08.779.078,70.200 us,2 B,,SP,4B,Write Transaction,82 01
0,448,0:08.779.149,325.100 us,11 B,,SP,4B,Read Transaction,01 30 91 65 01 B5 0E 61 00 00 00*
0,449,0:08.795.422,70.100 us,2 B,,SP,4B,Write Transaction,82 01
0,450,0:08.795.493,49.800 us,1 B,,SP,4B,Read Transaction,01*
0,451,0:08.795.544,70.100 us,2 B,,SP,4B,Write Transaction,82 01
0,452,0:08.795.616,325.100 us,11 B,,SP,4B,Read Transaction,01 30 91 67 01 B4 0E 61 00 00 00*
0,453,0:08.811.889,70.200 us,2 B,,SP,4B,Write Transaction,82 01
0,454,0:08.811.961,49.800 us,1 B,,SP,4B,Read Transaction,01*
0,455,0:08.812.012,70.100 us,2 B,,SP,4B,Write Transaction,82 01
0,456,0:08.812.083,325.200 us,11 B,,SP,4B,Read Transaction,01 30 91 69 01 B2 0E 66 00 00 00*
0,457,0:08.828.358,70.200 us,2 B,,SP,4B,Write Transaction,82 01
0,458,0:08.828.429,49.700 us,1 B,,SP,4B,Read Transaction,01*
0,459,0:08.828.480,70.200 us,2 B,,SP,4B,Write Transaction,82 01
0,460,0:08.828.552,325.200 us,11 B,,SP,4B,Read Transaction,01 30 91 6B 01 B0 0E 66 00 00 00*
0,461,0:08.844.823,70.100 us,2 B,,SP,4B,Write Transaction,82 01
0,462,0:08.844.894,49.700 us,1 B,,SP,4B,Read Transaction,01*
0,463,0:08.844.945,70.200 us,2 B,,SP,4B,Write Transaction,82 01
0,464,0:08.845.017,325.000 us,11 B,,SP,4B,Read Transaction,01 30 91 6D 01 AE 0E 66 00 00 00*
0,465,0:08.862.921,70.100 us,2 B,,SP,4B,Write Transaction,82 01
0,466,0:08.862.992,49.700 us,1 B,,SP,4B,Read Transaction,01*
0,467,0:08.863.043,70.200 us,2 B,,SP,4B,Write Transaction,82 01
0,468,0:08.863.115,324.800 us,11 B,,SP,4B,Read Transaction,01 30 91 6F 01 AC 0E 66 00 00 00*
0,469,0:08.879.413,70.200 us,2 B,,SP,4B,Write Transaction,82 01
0,470,0:08.879.484,49.800 us,1 B,,SP,4B,Read Transaction,01*
0,471,0:08.879.535,70.200 us,2 B,,SP,4B,Write Transaction,82 01
0,472,0:08.879.607,325.200 us,11 B,,SP,4B,Read Transaction,01 30 91 72 01 AA 0E 66 00 00 00*
0,473,0:08.895.880,70.100 us,2 B,,SP,4B,Write Transaction,82 01
0,474,0:08.895.951,49.800 us,1 B,,SP,4B,Read Transaction,01*
0,475,0:08.896.002,70.100 us,2 B,,SP,4B,Write Transaction,82 01
0,476,0:08.896.073,324.900 us,11 B,,SP,4B,Read Transaction,01 30 91 75 01 A7 0E 66 00 00 00*
0,477,0:08.912.458,70.200 us,2 B,,SP,4B,Write Transaction,82 01
0,478,0:08.912.529,49.700 us,1 B,,SP,4B,Read Transaction,01*
0,479,0:08.912.580,70.200 us,2 B,,SP,4B,Write Transaction,82 01
0,480,0:08.912.652,325.400 us,11 B,,SP,4B,Read Transaction,01 30 91 79 01 A4 0E 66 00 00 00*
0,481,0:08.928.865,70.200 us,2 B,,SP,4B,Write Transaction,82 01
0,482,0:08.928.936,49.800 us,1 B,,SP,4B,Read Transaction,01*
0,483,0:08.928.987,70.200 us,2 B,,SP,4B,Write Transaction,82 01
0,484,0:08.929.058,324.900 us,11 B,,SP,4B,Read Transaction,01 30 91 7C 01 A0 0E 66 00 00 00*
0,485,0:08.945.358,70.100 us,2 B,,SP,4B,Write Transaction,82 01
0,486,0:08.945.429,49.800 us,1 B,,SP,4B,Read Transaction,01*
0,487,0:08.945.480,70.100 us,2 B,,SP,4B,Write Transaction,82 01
0,488,0:08.945.552,325.200 us,11 B,,SP,4B,Read Transaction,01 30 91 7F 01 9C 0E 66 00 00 00*
0,489,0:08.961.824,70.200 us,2 B,,SP,4B,Write Transaction,82 01
0,490,0:08.961.896,49.700 us,1 B,,SP,4B,Read Transaction,01*
0,491,0:08.961.947,70.200 us,2 B,,SP,4B,Write Transaction,82 01
0,492,0:08.962.018,325.300 us,11 B,,SP,4B,Read Transaction,01 30 91 83 01 9A 0E 66 00 00 00*
0,493,0:08.978.287,70.200 us,2 B,,SP,4B,Write Transaction,82 01
0,494,0:08.978.359,49.800 us,1 B,,SP,4B,Read Transaction,01*
0,495,0:08.978.410,70.200 us,2 B,,SP,4B,Write Transaction,82 01
0,496,0:08.978.481,325.100 us,11 B,,SP,4B,Read Transaction,01 30 91 86 01 96 0E 66 00 00 00*
0,497,0:08.994.760,70.100 us,2 B,,SP,4B,Write Transaction,82 01
0,498,0:08.994.831,49.800 us,1 B,,SP,4B,Read Transaction,01*
0,499,0:08.994.882,70.100 us,2 B,,SP,4B,Write Transaction,82 01
0,500,0:08.994.953,325.000 us,11 B,,SP,4B,Read Transaction,01 30 91 89 01 93 0E 66 00 00 00*
0,501,0:09.011.224,70.100 us,2 B,,SP,4B,Write Transaction,82 01
0,502,0:09.011.296,49.800 us,1 B,,SP,4B,Read Transaction,01*
0,503,0:09.011.347,70.100 us,2 B,,SP,4B,Write Transaction,82 01
0,504,0:09.011.418,325.100 us,11 B,,SP,4B,Read Transaction,01 30 91 8B 01 8F 0E 66 00 00 00*
0,505,0:09.029.380,70.100 us,2 B,,SP,4B,Write Transaction,82 01
0,506,0:09.029.452,49.800 us,1 B,,SP,4B,Read Transaction,01*
0,507,0:09.029.503,70.100 us,2 B,,SP,4B,Write Transaction,82 01
0,508,0:09.029.574,325.000 us,11 B,,SP,4B,Read Transaction,01 30 91 8E 01 8C 0E 66 00 00 00*
0,509,0:09.045.907,70.100 us,2 B,,SP,4B,Write Transaction,82 01
0,510,0:09.045.978,49.800 us,1 B,,SP,4B,Read Transaction,01*
0,511,0:09.046.030,70.100 us,2 B,,SP,4B,Write Transaction,82 01
0,512,0:09.046.101,325.200 us,11 B,,SP,4B,Read Transaction,01 30 91 90 01 8A 0E 66 00 00 00*
0,513,0:09.062.417,70.200 us,2 B,,SP,4B,Write Transaction,82 01
0,514,0:09.062.489,49.700 us,1 B,,SP,4B,Read Transaction,01*
0,515,0:09.062.540,70.200 us,2 B,,SP,4B,Write Transaction,82 01
0,516,0:09.062.611,325.300 us,11 B,,SP,4B,Read Transaction,01 30 91 92 01 87 0E 66 00 00 00*
0,517,0:09.078.865,70.100 us,2 B,,SP,4B,Write Transaction,82 01
0,518,0:09.078.936,49.800 us,1 B,,SP,4B,Read Transaction,01*
0,519,0:09.078.987,70.100 us,2 B,,SP,4B,Write Transaction,82 01
0,520,0:09.079.059,325.000 us,11 B,,SP,4B,Read Transaction,01 30 91 94 01 85 0E 66 00 00 00*
0,521,0:09.095.357,70.100 us,2 B,,SP,4B,Write Transaction,82 01
0,522,0:09.095.428,49.800 us,1 B,,SP,4B,Read Transaction,01*
0,523,0:09.095.479,70.100 us,2 B,,SP,4B,Write Transaction,82 01
0,524,0:09.095.551,325.200 us,11 B,,SP,4B,Read Transaction,01 30 91 95 01 83 0E 66 00 00 00*
0,525,0:09.111.936,70.100 us,2 B,,SP,4B,Write Transaction,82 01
0,526,0:09.112.007,49.800 us,1 B,,SP,4B,Read Transaction,01*
0,527,0:09.112.059,70.100 us,2 B,,SP,4B,Write Transaction,82 01
0,528,0:09.112.130,325.000 us,11 B,,SP,4B,Read Transaction,01 30 91 96 01 82 0E 66 00 00 00*
0,529,0:09.128.318,70.200 us,2 B,,SP,4B,Write Transaction,82 01
0,530,0:09.128.389,49.800 us,1 B,,SP,4B,Read Transaction,01*
0,531,0:09.128.440,70.200 us,2 B,,SP,4B,Write Transaction,82 01
0,532,0:09.128.511,325.200 us,11 B,,SP,4B,Read Transaction,01 30 91 98 01 7F 0E 66 00 00 00*
0,533,0:09.144.828,70.100 us,2 B,,SP,4B,Write Transaction,82 01
0,534,0:09.144.899,49.800 us,1 B,,SP,4B,Read Transaction,01*
0,535,0:09.144.950,70.100 us,2 B,,SP,4B,Write Transaction,82 01
0,536,0:09.145.021,325.100 us,11 B,,SP,4B,Read Transaction,01 30 91 99 01 7E 0E 66 00 00 00*
0,537,0:09.161.322,70.200 us,2 B,,SP,4B,Write Transaction,82 01
0,538,0:09.161.393,49.800 us,1 B,,SP,4B,Read Transaction,01*
0,539,0:09.161.444,70.100 us,2 B,,SP,4B,Write Transaction,82 01
0,540,0:09.161.516,325.300 us,11 B,,SP,4B,Read Transaction,01 30 91 9B 01 7C 0E 66 00 00 00*
0,541,0:09.177.817,70.200 us,2 B,,SP,4B,Write Transaction,82 01
0,542,0:09.177.888,49.800 us,1 B,,SP,4B,Read Transaction,01*
0,543,0:09.177.939,70.200 us,2 B,,SP,4B,Write Transaction,82 01
0,544,0:09.178.010,325.300 us,11 B,,SP,4B,Read Transaction,01 30 91 9C 01 7A 0E 66 00 00 00*
0,545,0:09.194.977,70.100 us,2 B,,SP,4B,Write Transaction,82 01
0,546,0:09.195.049,49.800 us,1 B,,SP,4B,Read Transaction,01*
0,547,0:09.195.100,70.100 us,2 B,,SP,4B,Write Transaction,82 01
0,548,0:09.195.171,318.500 us,11 B,,SP,4B,Read Transaction,01 29 12 02 06 01 01 16 00 00 00*
0,549,0:09.196.012,70.200 us,2 B,,SP,4B,Write Transaction,82 01
0,550,0:09.196.083,49.800 us,1 B,,SP,4B,Read Transaction,01*
0,551,0:09.196.134,70.100 us,2 B,,SP,4B,Write Transaction,82 01
0,552,0:09.196.205,325.100 us,11 B,,SP,4B,Read Transaction,01 30 91 9D 01 78 0E 66 00 00 00*
0,553,0:09.212.448,70.200 us,2 B,,SP,4B,Write Transaction,82 01
0,554,0:09.212.520,49.800 us,1 B,,SP,4B,Read Transaction,01*
0,555,0:09.212.571,70.200 us,2 B,,SP,4B,Write Transaction,82 01
0,556,0:09.212.642,325.200 us,11 B,,SP,4B,Read Transaction,01 30 91 9F 01 77 0E 66 00 00 00*
0,557,0:09.228.942,70.200 us,2 B,,SP,4B,Write Transaction,82 01
0,558,0:09.229.013,49.700 us,1 B,,SP,4B,Read Transaction,01*
0,559,0:09.229.064,70.200 us,2 B,,SP,4B,Write Transaction,82 01
0,560,0:09.229.136,325.000 us,11 B,,SP,4B,Read Transaction,01 30 91 A1 01 74 0E 66 00 00 00*
0,561,0:09.245.436,70.200 us,2 B,,SP,4B,Write Transaction,82 01
0,562,0:09.245.508,49.800 us,1 B,,SP,4B,Read Transaction,01*
0,563,0:09.245.559,70.200 us,2 B,,SP,4B,Write Transaction,82 01
0,564,0:09.245.630,325.200 us,11 B,,SP,4B,Read Transaction,01 30 91 A3 01 73 0E 66 00 00 00*
0,565,0:09.261.928,70.100 us,2 B,,SP,4B,Write Transaction,82 01
0,566,0:09.262.000,49.800 us,1 B,,SP,4B,Read Transaction,01*
0,567,0:09.262.051,70.100 us,2 B,,SP,4B,Write Transaction,82 01
0,568,0:09.262.122,324.600 us,11 B,,SP,4B,Read Transaction,01 30 91 A5 01 71 0E 66 00 00 00*
0,569,0:09.278.419,70.200 us,2 B,,SP,4B,Write Transaction,82 01
0,570,0:09.278.491,49.800 us,1 B,,SP,4B,Read Transaction,01*
0,571,0:09.278.542,70.200 us,2 B,,SP,4B,Write Transaction,82 01
0,572,0:09.278.613,325.200 us,11 B,,SP,4B,Read Transaction,01 30 91 A8 01 6F 0E 66 00 00 00*
0,573,0:09.295.029,70.200 us,2 B,,SP,4B,Write Transaction,82 01
0,574,0:09.295.100,49.800 us,1 B,,SP,4B,Read Transaction,01*
0,575,0:09.295.152,70.100 us,2 B,,SP,4B,Write Transaction,82 01
0,576,0:09.295.223,325.000 us,11 B,,SP,4B,Read Transaction,01 30 91 AB 01 6C 0E 61 00 00 00*
0,577,0:09.311.387,70.100 us,2 B,,SP,4B,Write Transaction,82 01
0,578,0:09.311.459,49.800 us,1 B,,SP,4B,Read Transaction,01*
0,579,0:09.311.510,70.100 us,2 B,,SP,4B,Write Transaction,82 01
0,580,0:09.311.581,325.100 us,11 B,,SP,4B,Read Transaction,01 30 91 AF 01 68 0E 61 00 00 00*
0,581,0:09.327.881,70.200 us,2 B,,SP,4B,Write Transaction,82 01
0,582,0:09.327.952,49.800 us,1 B,,SP,4B,Read Transaction,01*
0,583,0:09.328.003,70.200 us,2 B,,SP,4B,Write Transaction,82 01
0,584,0:09.328.075,325.100 us,11 B,,SP,4B,Read Transaction,01 30 91 B5 01 64 0E 61 00 00 00*
0,585,0:09.344.350,70.200 us,2 B,,SP,4B,Write Transaction,82 01
0,586,0:09.344.421,49.800 us,1 B,,SP,4B,Read Transaction,01*
0,587,0:09.344.472,70.200 us,2 B,,SP,4B,Write Transaction,82 01
0,588,0:09.344.544,325.500 us,11 B,,SP,4B,Read Transaction,01 30 91 BD 01 5F 0E 61 00 00 00*
0,589,0:09.362.418,70.200 us,2 B,,SP,4B,Write Transaction,82 01
0,590,0:09.362.489,49.700 us,1 B,,SP,4B,Read Transaction,01*
0,591,0:09.362.540,70.200 us,2 B,,SP,4B,Write Transaction,82 01
0,592,0:09.362.612,325.200 us,11 B,,SP,4B,Read Transaction,01 30 91 C4 01 5A 0E 61 00 00 00*
0,593,0:09.378.905,70.100 us,2 B,,SP,4B,Write Transaction,82 01
0,594,0:09.378.976,49.800 us,1 B,,SP,4B,Read Transaction,01*
0,595,0:09.379.028,70.100 us,2 B,,SP,4B,Write Transaction,82 01
0,596,0:09.379.099,325.200 us,11 B,,SP,4B,Read Transaction,01 30 91 CC 01 54 0E 61 00 00 00*
0,597,0:09.395.400,70.100 us,2 B,,SP,4B,Write Transaction,82 01
0,598,0:09.395.472,49.800 us,1 B,,SP,4B,Read Transaction,01*
0,599,0:09.395.523,70.100 us,2 B,,SP,4B,Write Transaction,82 01
0,600,0:09.395.594,325.400 us,11 B,,SP,4B,Read Transaction,01 30 91 D3 01 4F 0E 61 00 00 00*
0,601,0:09.411.891,70.100 us,2 B,,SP,4B,Write Transaction,82 01
0,602,0:09.411.963,49.800 us,1 B,,SP,4B,Read Transaction,01*
0,603,0:09.412.014,70.100 us,2 B,,SP,4B,Write Transaction,82 01
0,604,0:09.412.085,325.300 us,11 B,,SP,4B,Read Transaction,01 30 91 DA 01 49 0E 61 00 00 00*
0,605,0:09.428.361,70.100 us,2 B,,SP,4B,Write Transaction,82 01
0,606,0:09.428.432,49.800 us,1 B,,SP,4B,Read Transaction,01*
0,607,0:09.428.484,70.100 us,2 B,,SP,4B,Write Transaction,82 01
0,608,0:09.428.555,324.800 us,11 B,,SP,4B,Read Transaction,01 30 91 E1 01 43 0E 66 00 00 00*
0,609,0:09.444.857,70.100 us,2 B,,SP,4B,Write Transaction,82 01
0,610,0:09.444.929,49.800 us,1 B,,SP,4B,Read Transaction,01*
0,611,0:09.444.980,70.100 us,2 B,,SP,4B,Write Transaction,82 01
0,612,0:09.445.051,325.100 us,11 B,,SP,4B,Read Transaction,01 30 91 E8 01 3E 0E 66 00 00 00*
0,613,0:09.461.353,70.100 us,2 B,,SP,4B,Write Transaction,82 01
0,614,0:09.461.425,49.800 us,1 B,,SP,4B,Read Transaction,01*
0,615,0:09.461.476,70.100 us,2 B,,SP,4B,Write Transaction,82 01
0,616,0:09.461.547,325.200 us,11 B,,SP,4B,Read Transaction,01 30 91 ED 01 39 0E 66 00 00 00*
0,617,0:09.477.850,70.100 us,2 B,,SP,4B,Write Transaction,82 01
0,618,0:09.477.922,49.800 us,1 B,,SP,4B,Read Transaction,01*
0,619,0:09.477.973,70.100 us,2 B,,SP,4B,Write Transaction,82 01
0,620,0:09.478.044,325.100 us,11 B,,SP,4B,Read Transaction,01 30 91 F3 01 34 0E 66 00 00 00*
0,621,0:09.494.438,70.100 us,2 B,,SP,4B,Write Transaction,82 01
0,622,0:09.494.509,49.800 us,1 B,,SP,4B,Read Transaction,01*
0,623,0:09.494.560,70.100 us,2 B,,SP,4B,Write Transaction,82 01
0,624,0:09.494.632,325.200 us,11 B,,SP,4B,Read Transaction,01 30 91 F7 01 2F 0E 66 00 00 00*
0,625,0:09.510.847,70.100 us,2 B,,SP,4B,Write Transaction,82 01
0,626,0:09.510.919,49.800 us,1 B,,SP,4B,Read Transaction,01*
0,627,0:09.510.970,70.100 us,2 B,,SP,4B,Write Transaction,82 01
0,628,0:09.511.041,325.100 us,11 B,,SP,4B,Read Transaction,01 30 91 FB 01 2C 0E 66 00 00 00*
0,629,0:09.528.910,70.100 us,2 B,,SP,4B,Write Transaction,82 01
0,630,0:09.528.981,49.800 us,1 B,,SP,4B,Read Transaction,01*
0,631,0:09.529.032,70.100 us,2 B,,SP,4B,Write Transaction,82 01
0,632,0:09.529.104,325.100 us,11 B,,SP,4B,Read Transaction,01 30 91 FF 01 28 0E 66 00 00 00*
0,633,0:09.545.406,70.100 us,2 B,,SP,4B,Write Transaction,82 01
0,634,0:09.545.478,49.800 us,1 B,,SP,4B,Read Transaction,01*
0,635,0:09.545.529,70.100 us,2 B,,SP,4B,Write Transaction,82 01
0,636,0:09.545.600,325.500 us,11 B,,SP,4B,Read Transaction,01 30 91 02 02 25 0E 66 00 00 00*
0,637,0:09.561.904,70.200 us,2 B,,SP,4B,Write Transaction,82 01
0,638,0:09.561.975,49.700 us,1 B,,SP,4B,Read Transaction,01*
0,639,0:09.562.026,70.200 us,2 B,,SP,4B,Write Transaction,82 01
0,640,0:09.562.098,325.100 us,11 B,,SP,4B,Read Transaction,01 30 91 05 02 22 0E 66 00 00 00*
0,641,0:09.578.398,70.100 us,2 B,,SP,4B,Write Transaction,82 01
0,642,0:09.578.469,49.800 us,1 B,,SP,4B,Read Transaction,01*
0,643,0:09.578.520,70.100 us,2 B,,SP,4B,Write Transaction,82 01
0,644,0:09.578.592,325.500 us,11 B,,SP,4B,Read Transaction,01 30 91 08 02 1F 0E 66 00 00 00*
0,645,0:09.594.866,70.100 us,2 B,,SP,4B,Write Transaction,82 01
0,646,0:09.594.937,49.800 us,1 B,,SP,4B,Read Transaction,01*
0,647,0:09.594.988,70.100 us,2 B,,SP,4B,Write Transaction,82 01
0,648,0:09.595.059,325.100 us,11 B,,SP,4B,Read Transaction,01 30 91 0B 02 1C 0E 66 00 00 00*
0,649,0:09.611.341,70.100 us,2 B,,SP,4B,Write Transaction,82 01
0,650,0:09.611.412,49.800 us,1 B,,SP,4B,Read Transaction,01*
0,651,0:09.611.463,70.100 us,2 B,,SP,4B,Write Transaction,82 01
0,652,0:09.611.535,325.200 us,11 B,,SP,4B,Read Transaction,01 30 91 0D 02 1A 0E 66 00 00 00*
0,653,0:09.627.837,70.100 us,2 B,,SP,4B,Write Transaction,82 01
0,654,0:09.627.908,49.800 us,1 B,,SP,4B,Read Transaction,01*
0,655,0:09.627.959,70.100 us,2 B,,SP,4B,Write Transaction,82 01
0,656,0:09.628.031,325.400 us,11 B,,SP,4B,Read Transaction,01 30 91 10 02 17 0E 66 00 00 00*
0,657,0:09.644.326,70.200 us,2 B,,SP,4B,Write Transaction,82 01
0,658,0:09.644.398,49.700 us,1 B,,SP,4B,Read Transaction,01*
0,659,0:09.644.449,70.200 us,2 B,,SP,4B,Write Transaction,82 01
0,660,0:09.644.520,325.200 us,11 B,,SP,4B,Read Transaction,01 30 91 13 02 14 0E 66 00 00 00*
0,661,0:09.660.812,70.200 us,2 B,,SP,4B,Write Transaction,82 01
0,662,0:09.660.884,49.800 us,1 B,,SP,4B,Read Transaction,01*
0,663,0:09.660.935,70.100 us,2 B,,SP,4B,Write Transaction,82 01
0,664,0:09.661.006,325.200 us,11 B,,SP,4B,Read Transaction,01 30 91 15 02 12 0E 66 00 00 00*
0,665,0:09.677.305,70.200 us,2 B,,SP,4B,Write Transaction,82 01
0,666,0:09.677.376,49.800 us,1 B,,SP,4B,Read Transaction,01*
0,667,0:09.677.427,70.200 us,2 B,,SP,4B,Write Transaction,82 01
0,668,0:09.677.499,325.300 us,11 B,,SP,4B,Read Transaction,01 30 91 18 02 0F 0E 66 00 00 00*
0,669,0:09.695.496,70.100 us,2 B,,SP,4B,Write Transaction,82 01
0,670,0:09.695.567,49.800 us,1 B,,SP,4B,Read Transaction,01*
0,671,0:09.695.618,70.100 us,2 B,,SP,4B,Write Transaction,82 01
0,672,0:09.695.689,324.800 us,11 B,,SP,4B,Read Transaction,01 30 91 1B 02 0D 0E 66 00 00 00*
0,673,0:09.711.925,70.100 us,2 B,,SP,4B,Write Transaction,82 01
0,674,0:09.711.997,49.800 us,1 B,,SP,4B,Read Transaction,01*
0,675,0:09.712.048,70.100 us,2 B,,SP,4B,Write Transaction,82 01
0,676,0:09.712.119,325.000 us,11 B,,SP,4B,Read Transaction,01 30 91 1F 02 0A 0E 66 00 00 00*
0,677,0:09.728.415,70.100 us,2 B,,SP,4B,Write Transaction,82 01
0,678,0:09.728.486,49.700 us,1 B,,SP,4B,Read Transaction,01*
0,679,0:09.728.537,70.200 us,2 B,,SP,4B,Write Transaction,82 01
0,680,0:09.728.609,325.300 us,11 B,,SP,4B,Read Transaction,01 30 91 22 02 07 0E 66 00 00 00*
0,681,0:09.744.909,70.100 us,2 B,,SP,4B,Write Transaction,82 01
0,682,0:09.744.981,49.800 us,1 B,,SP,4B,Read Transaction,01*
0,683,0:09.745.032,70.100 us,2 B,,SP,4B,Write Transaction,82 01
0,684,0:09.745.103,325.400 us,11 B,,SP,4B,Read Transaction,01 30 91 26 02 03 0E 66 00 00 00*
0,685,0:09.761.404,70.100 us,2 B,,SP,4B,Write Transaction,82 01
0,686,0:09.761.476,49.800 us,1 B,,SP,4B,Read Transaction,01*
0,687,0:09.761.527,70.100 us,2 B,,SP,4B,Write Transaction,82 01
0,688,0:09.761.598,325.000 us,11 B,,SP,4B,Read Transaction,01 30 91 2B 02 00 0E 66 00 00 00*
0,689,0:09.777.898,70.100 us,2 B,,SP,4B,Write Transaction,82 01
0,690,0:09.777.969,49.800 us,1 B,,SP,4B,Read Transaction,01*
0,691,0:09.778.020,70.100 us,2 B,,SP,4B,Write Transaction,82 01
0,692,0:09.778.092,325.300 us,11 B,,SP,4B,Read Transaction,01 30 91 2F 02 FC 0D 66 00 00 00*
0,693,0:09.794.396,70.100 us,2 B,,SP,4B,Write Transaction,82 01
0,694,0:09.794.468,49.800 us,1 B,,SP,4B,Read Transaction,01*
0,695,0:09.794.519,70.100 us,2 B,,SP,4B,Write Transaction,82 01
0,696,0:09.794.590,325.000 us,11 B,,SP,4B,Read Transaction,01 30 91 34 02 F9 0D 66 00 00 00*
0,697,0:09.810.884,70.100 us,2 B,,SP,4B,Write Transaction,82 01
0,698,0:09.810.955,49.700 us,1 B,,SP,4B,Read Transaction,01*
0,699,0:09.811.006,70.200 us,2 B,,SP,4B,Write Transaction,82 01
0,700,0:09.811.078,325.300 us,11 B,,SP,4B,Read Transaction,01 30 91 39 02 F5 0D 66 00 00 00*
0,701,0:09.827.373,70.100 us,2 B,,SP,4B,Write Transaction,82 01
0,702,0:09.827.444,49.800 us,1 B,,SP,4B,Read Transaction,01*
0,703,0:09.827.495,70.100 us,2 B,,SP,4B,Write Transaction,82 01
0,704,0:09.827.566,324.900 us,11 B,,SP,4B,Read Transaction,01 30 91 3E 02 F2 0D 66 00 00 00*
0,705,0:09.843.867,70.100 us,2 B,,SP,4B,Write Transaction,82 01
0,706,0:09.843.938,49.800 us,1 B,,SP,4B,Read Transaction,01*
0,707,0:09.843.989,70.100 us,2 B,,SP,4B,Write Transaction,82 01
0,708,0:09.844.061,325.100 us,11 B,,SP,4B,Read Transaction,01 30 91 42 02 EE 0D 66 00 00 00*
0,709,0:09.862.025,70.100 us,2 B,,SP,4B,Write Transaction,82 01
0,710,0:09.862.096,49.700 us,1 B,,SP,4B,Read Transaction,01*
0,711,0:09.862.147,70.200 us,2 B,,SP,4B,Write Transaction,82 01
0,712,0:09.862.218,325.000 us,11 B,,SP,4B,Read Transaction,01 30 91 46 02 EB 0D 6B 00 00 00*
0,713,0:09.878.550,70.100 us,2 B,,SP,4B,Write Transaction,82 01
0,714,0:09.878.622,49.800 us,1 B,,SP,4B,Read Transaction,01*
0,715,0:09.878.673,70.100 us,2 B,,SP,4B,Write Transaction,82 01
0,716,0:09.878.744,325.200 us,11 B,,SP,4B,Read Transaction,01 30 91 4A 02 E8 0D 6B 00 00 00*
0,717,0:09.895.129,70.100 us,2 B,,SP,4B,Write Transaction,82 01
0,718,0:09.895.201,49.800 us,1 B,,SP,4B,Read Transaction,01*
0,719,0:09.895.252,70.100 us,2 B,,SP,4B,Write Transaction,82 01
0,720,0:09.895.323,324.800 us,11 B,,SP,4B,Read Transaction,01 30 91 4D 02 E5 0D 6B 00 00 00*
0,721,0:09.911.536,70.100 us,2 B,,SP,4B,Write Transaction,82 01
0,722,0:09.911.607,49.800 us,1 B,,SP,4B,Read Transaction,01*
0,723,0:09.911.658,70.100 us,2 B,,SP,4B,Write Transaction,82 01
0,724,0:09.911.729,325.300 us,11 B,,SP,4B,Read Transaction,01 30 91 51 02 E2 0D 6B 00 00 00*
0,725,0:09.928.005,70.200 us,2 B,,SP,4B,Write Transaction,82 01
0,726,0:09.928.076,49.800 us,1 B,,SP,4B,Read Transaction,01*
0,727,0:09.928.127,70.200 us,2 B,,SP,4B,Write Transaction,82 01
0,728,0:09.928.199,325.200 us,11 B,,SP,4B,Read Transaction,01 30 91 54 02 DF 0D 6B 00 00 00*
0,729,0:09.944.473,70.100 us,2 B,,SP,4B,Write Transaction,82 01
0,730,0:09.944.545,49.800 us,1 B,,SP,4B,Read Transaction,01*
0,731,0:09.944.596,70.100 us,2 B,,SP,4B,Write Transaction,82 01
0,732,0:09.944.667,325.200 us,11 B,,SP,4B,Read Transaction,01 30 91 57 02 DC 0D 6B 00 00 00*
0,733,0:09.960.941,70.200 us,2 B,,SP,4B,Write Transaction,82 01
0,734,0:09.961.012,49.800 us,1 B,,SP,4B,Read Transaction,01*
0,735,0:09.961.063,70.200 us,2 B,,SP,4B,Write Transaction,82 01
0,736,0:09.961.135,325.300 us,11 B,,SP,4B,Read Transaction,01 30 91 5B 02 D9 0D 6B 00 00 00*
0,737,0:09.977.430,70.100 us,2 B,,SP,4B,Write Transaction,82 01
0,738,0:09.977.501,49.800 us,1 B,,SP,4B,Read Transaction,01*
0,739,0:09.977.552,70.100 us,2 B,,SP,4B,Write Transaction,82 01
0,740,0:09.977.624,325.400 us,11 B,,SP,4B,Read Transaction,01 30 91 5D 02 D6 0D 6B 00 00 00*
0,741,0:09.993.927,70.100 us,2 B,,SP,4B,Write Transaction,82 01
0,742,0:09.993.998,49.800 us,1 B,,SP,4B,Read Transaction,01*
0,743,0:09.994.049,70.100 us,2 B,,SP,4B,Write Transaction,82 01
0,744,0:09.994.120,325.300 us,11 B,,SP,4B,Read Transaction,01 30 91 61 02 D2 0D 6B 00 00 00*
0,745,0:10.010.448,70.200 us,2 B,,SP,4B,Write Transaction,82 01
0,746,0:10.010.519,49.800 us,1 B,,SP,4B,Read Transaction,01*
0,747,0:10.010.571,70.100 us,2 B,,SP,4B,Write Transaction,82 01
0,748,0:10.010.642,325.300 us,11 B,,SP,4B,Read Transaction,01 30 91 64 02 CF 0D 6B 00 00 00*
0,749,0:10.028.516,70.200 us,2 B,,SP,4B,Write Transaction,82 01
0,750,0:10.028.587,49.800 us,1 B,,SP,4B,Read Transaction,01*
0,751,0:10.028.638,70.200 us,2 B,,SP,4B,Write Transaction,82 01
0,752,0:10.028.710,325.300 us,11 B,,SP,4B,Read Transaction,01 30 91 67 02 CC 0D 6B 00 00 00*
0,753,0:10.045.041,70.100 us,2 B,,SP,4B,Write Transaction,82 01
0,754,0:10.045.112,49.800 us,1 B,,SP,4B,Read Transaction,01*
0,755,0:10.045.163,70.100 us,2 B,,SP,4B,Write Transaction,82 01
0,756,0:10.045.235,325.200 us,11 B,,SP,4B,Read Transaction,01 30 91 6B 02 C8 0D 6B 00 00 00*
0,757,0:10.061.535,70.100 us,2 B,,SP,4B,Write Transaction,82 01
0,758,0:10.061.606,49.800 us,1 B,,SP,4B,Read Transaction,01*
0,759,0:10.061.658,70.100 us,2 B,,SP,4B,Write Transaction,82 01
0,760,0:10.061.729,325.100 us,11 B,,SP,4B,Read Transaction,01 30 91 6E 02 C4 0D 6B 00 00 00*
0,761,0:10.078.127,70.100 us,2 B,,SP,4B,Write Transaction,82 01
0,762,0:10.078.199,49.800 us,1 B,,SP,4B,Read Transaction,01*
0,763,0:10.078.250,70.100 us,2 B,,SP,4B,Write Transaction,82 01
0,764,0:10.078.321,325.100 us,11 B,,SP,4B,Read Transaction,01 30 91 72 02 C0 0D 6B 00 00 00*
0,765,0:10.094.519,70.100 us,2 B,,SP,4B,Write Transaction,82 01
0,766,0:10.094.591,49.800 us,1 B,,SP,4B,Read Transaction,01*
0,767,0:10.094.642,70.100 us,2 B,,SP,4B,Write Transaction,82 01
0,768,0:10.094.713,325.100 us,11 B,,SP,4B,Read Transaction,01 30 91 74 02 BC 0D 6B 00 00 00*
0,769,0:10.111.006,70.100 us,2 B,,SP,4B,Write Transaction,82 01
0,770,0:10.111.078,49.700 us,1 B,,SP,4B,Read Transaction,01*
0,771,0:10.111.129,70.100 us,2 B,,SP,4B,Write Transaction,82 01
0,772,0:10.111.200,325.200 us,11 B,,SP,4B,Read Transaction,01 30 91 77 02 BA 0D 6B 00 00 00*
0,773,0:10.127.495,70.100 us,2 B,,SP,4B,Write Transaction,82 01
0,774,0:10.127.566,49.800 us,1 B,,SP,4B,Read Transaction,01*
0,775,0:10.127.618,70.100 us,2 B,,SP,4B,Write Transaction,82 01
0,776,0:10.127.689,325.000 us,11 B,,SP,4B,Read Transaction,01 30 91 7A 02 B7 0D 6B 00 00 00*
0,777,0:10.143.961,70.200 us,2 B,,SP,4B,Write Transaction,82 01
0,778,0:10.144.033,49.700 us,1 B,,SP,4B,Read Transaction,01*
0,779,0:10.144.084,70.100 us,2 B,,SP,4B,Write Transaction,82 01
0,780,0:10.144.155,325.300 us,11 B,,SP,4B,Read Transaction,01 30 91 7C 02 B5 0D 6B 00 00 00*
0,781,0:10.160.458,70.100 us,2 B,,SP,4B,Write Transaction,82 01
0,782,0:10.160.529,49.800 us,1 B,,SP,4B,Read Transaction,01*
0,783,0:10.160.580,70.200 us,2 B,,SP,4B,Write Transaction,82 01
0,784,0:10.160.651,325.100 us,11 B,,SP,4B,Read Transaction,01 30 91 7D 02 B3 0D 6B 00 00 00*
0,785,0:10.176.948,70.100 us,2 B,,SP,4B,Write Transaction,82 01
0,786,0:10.177.019,49.800 us,1 B,,SP,4B,Read Transaction,01*
0,787,0:10.177.070,70.100 us,2 B,,SP,4B,Write Transaction,82 01
0,788,0:10.177.142,325.200 us,11 B,,SP,4B,Read Transaction,01 30 91 7F 02 B2 0D 6B 00 00 00*
0,789,0:10.195.017,70.100 us,2 B,,SP,4B,Write Transaction,82 01
0,790,0:10.195.088,49.800 us,1 B,,SP,4B,Read Transaction,01*
0,791,0:10.195.139,70.100 us,2 B,,SP,4B,Write Transaction,82 01
0,792,0:10.195.211,325.300 us,11 B,,SP,4B,Read Transaction,01 30 91 81 02 B0 0D 6B 00 00 00*
0,793,0:10.211.544,70.100 us,2 B,,SP,4B,Write Transaction,82 01
0,794,0:10.211.615,49.800 us,1 B,,SP,4B,Read Transaction,01*
0,795,0:10.211.666,70.100 us,2 B,,SP,4B,Write Transaction,82 01
0,796,0:10.211.738,325.300 us,11 B,,SP,4B,Read Transaction,01 30 91 82 02 AF 0D 6B 00 00 00*
0,797,0:10.228.035,70.100 us,2 B,,SP,4B,Write Transaction,82 01
0,798,0:10.228.106,49.800 us,1 B,,SP,4B,Read Transaction,01*
0,799,0:10.228.157,70.100 us,2 B,,SP,4B,Write Transaction,82 01
0,800,0:10.228.229,325.300 us,11 B,,SP,4B,Read Transaction,01 30 91 83 02 AE 0D 6B 00 00 00*
0,801,0:10.244.526,70.200 us,2 B,,SP,4B,Write Transaction,82 01
0,802,0:10.244.597,49.700 us,1 B,,SP,4B,Read Transaction,01*
0,803,0:10.244.648,70.200 us,2 B,,SP,4B,Write Transaction,82 01
0,804,0:10.244.720,325.000 us,11 B,,SP,4B,Read Transaction,01 30 91 84 02 AC 0D 6B 00 00 00*
0,805,0:10.261.019,70.100 us,2 B,,SP,4B,Write Transaction,82 01
0,806,0:10.261.091,49.800 us,1 B,,SP,4B,Read Transaction,01*
0,807,0:10.261.142,70.100 us,2 B,,SP,4B,Write Transaction,82 01
0,808,0:10.261.213,325.400 us,11 B,,SP,4B,Read Transaction,01 30 91 85 02 AC 0D 6B 00 00 00*
0,809,0:10.277.617,70.100 us,2 B,,SP,4B,Write Transaction,82 01
0,810,0:10.277.688,49.800 us,1 B,,SP,4B,Read Transaction,01*
0,811,0:10.277.739,70.100 us,2 B,,SP,4B,Write Transaction,82 01
0,812,0:10.277.811,324.900 us,11 B,,SP,4B,Read Transaction,01 30 91 86 02 AB 0D 6B 00 00 00*
0,813,0:10.294.008,70.200 us,2 B,,SP,4B,Write Transaction,82 01
0,814,0:10.294.080,49.700 us,1 B,,SP,4B,Read Transaction,01*
0,815,0:10.294.131,70.200 us,2 B,,SP,4B,Write Transaction,82 01
0,816,0:10.294.202,325.100 us,11 B,,SP,4B,Read Transaction,01 30 91 86 02 AA 0D 6B 00 00 00*
0,817,0:10.310.501,70.100 us,2 B,,SP,4B,Write Transaction,82 01
0,818,0:10.310.572,49.800 us,1 B,,SP,4B,Read Transaction,01*
0,819,0:10.310.623,70.100 us,2 B,,SP,4B,Write Transaction,82 01
0,820,0:10.310.695,325.300 us,11 B,,SP,4B,Read Transaction,01 30 91 87 02 AA 0D 6B 00 00 00*
0,821,0:10.326.994,70.100 us,2 B,,SP,4B,Write Transaction,82 01
0,822,0:10.327.065,49.800 us,1 B,,SP,4B,Read Transaction,01*
0,823,0:10.327.116,70.100 us,2 B,,SP,4B,Write Transaction,82 01
0,824,0:10.327.188,325.300 us,11 B,,SP,4B,Read Transaction,01 30 91 88 02 A9 0D 6B 00 00 00*
0,825,0:10.343.490,70.100 us,2 B,,SP,4B,Write Transaction,82 01
0,826,0:10.343.562,49.800 us,1 B,,SP,4B,Read Transaction,01*
0,827,0:10.343.613,70.200 us,2 B,,SP,4B,Write Transaction,82 01
0,828,0:10.343.684,325.200 us,11 B,,SP,4B,Read Transaction,01 30 91 88 02 A8 0D 6B 00 00 00*
0,829,0:10.361.559,70.100 us,2 B,,SP,4B,Write Transaction,82 01
0,830,0:10.361.630,49.800 us,1 B,,SP,4B,Read Transaction,01*
0,831,0:10.361.682,70.100 us,2 B,,SP,4B,Write Transaction,82 01
0,832,0:10.361.753,325.300 us,11 B,,SP,4B,Read Transaction,01 30 91 88 02 A7 0D 6B 00 00 00*
0,833,0:10.378.086,70.100 us,2 B,,SP,4B,Write Transaction,82 01
0,834,0:10.378.157,49.800 us,1 B,,SP,4B,Read Transaction,01*
0,835,0:10.378.208,70.100 us,2 B,,SP,4B,Write Transaction,82 01
0,836,0:10.378.280,325.100 us,11 B,,SP,4B,Read Transaction,01 30 91 89 02 A7 0D 6B 00 00 00*
0,837,0:10.394.579,70.100 us,2 B,,SP,4B,Write Transaction,82 01
0,838,0:10.394.650,49.800 us,1 B,,SP,4B,Read Transaction,01*
0,839,0:10.394.701,70.100 us,2 B,,SP,4B,Write Transaction,82 01
0,840,0:10.394.773,325.100 us,11 B,,SP,4B,Read Transaction,01 30 91 8A 02 A6 0D 6B 00 00 00*
0,841,0:10.411.067,70.100 us,2 B,,SP,4B,Write Transaction,82 01
0,842,0:10.411.139,49.800 us,1 B,,SP,4B,Read Transaction,01*
0,843,0:10.411.190,70.100 us,2 B,,SP,4B,Write Transaction,82 01
0,844,0:10.411.261,325.400 us,11 B,,SP,4B,Read Transaction,01 30 91 8B 02 A5 0D 66 00 00 00*
0,845,0:10.427.559,70.100 us,2 B,,SP,4B,Write Transaction,82 01
0,846,0:10.427.631,49.800 us,1 B,,SP,4B,Read Transaction,01*
0,847,0:10.427.682,70.100 us,2 B,,SP,4B,Write Transaction,82 01
0,848,0:10.427.753,325.200 us,11 B,,SP,4B,Read Transaction,01 30 91 8C 02 A4 0D 66 00 00 00*
0,849,0:10.444.050,70.100 us,2 B,,SP,4B,Write Transaction,82 01
0,850,0:10.444.122,49.800 us,1 B,,SP,4B,Read Transaction,01*
0,851,0:10.444.173,70.100 us,2 B,,SP,4B,Write Transaction,82 01
0,852,0:10.444.244,325.000 us,11 B,,SP,4B,Read Transaction,01 30 91 8D 02 A3 0D 66 00 00 00*
0,853,0:10.460.548,70.200 us,2 B,,SP,4B,Write Transaction,82 01
0,854,0:10.460.620,49.700 us,1 B,,SP,4B,Read Transaction,01*
0,855,0:10.460.671,70.200 us,2 B,,SP,4B,Write Transaction,82 01
0,856,0:10.460.742,325.200 us,11 B,,SP,4B,Read Transaction,01 30 91 8F 02 A2 0D 66 00 00 00*
0,857,0:10.477.158,70.100 us,2 B,,SP,4B,Write Transaction,82 01
0,858,0:10.477.229,49.800 us,1 B,,SP,4B,Read Transaction,01*
0,859,0:10.477.280,70.100 us,2 B,,SP,4B,Write Transaction,82 01
0,860,0:10.477.352,325.300 us,11 B,,SP,4B,Read Transaction,01 30 91 91 02 9F 0D 66 00 00 00*
0,861,0:10.493.538,70.100 us,2 B,,SP,4B,Write Transaction,82 01
0,862,0:10.493.610,49.800 us,1 B,,SP,4B,Read Transaction,01*
0,863,0:10.493.661,70.100 us,2 B,,SP,4B,Write Transaction,82 01
0,864,0:10.493.732,325.400 us,11 B,,SP,4B,Read Transaction,01 30 91 94 02 9D 0D 66 00 00 00*
0,865,0:10.510.036,70.100 us,2 B,,SP,4B,Write Transaction,82 01
0,866,0:10.510.107,49.800 us,1 B,,SP,4B,Read Transaction,01*
0,867,0:10.510.158,70.100 us,2 B,,SP,4B,Write Transaction,82 01
0,868,0:10.510.230,325.500 us,11 B,,SP,4B,Read Transaction,01 30 91 98 02 9A 0D 66 00 00 00*
0,869,0:10.528.126,70.200 us,2 B,,SP,4B,Write Transaction,82 01
0,870,0:10.528.197,49.700 us,1 B,,SP,4B,Read Transaction,01*
0,871,0:10.528.248,70.100 us,2 B,,SP,4B,Write Transaction,82 01
0,872,0:10.528.320,325.300 us,11 B,,SP,4B,Read Transaction,01 30 91 9D 02 96 0D 66 00 00 00*
0,873,0:10.544.649,70.100 us,2 B,,SP,4B,Write Transaction,82 01
0,874,0:10.544.720,49.800 us,1 B,,SP,4B,Read Transaction,01*
0,875,0:10.544.771,70.100 us,2 B,,SP,4B,Write Transaction,82 01
0,876,0:10.544.843,325.100 us,11 B,,SP,4B,Read Transaction,01 30 91 A1 02 92 0D 66 00 00 00*
0,877,0:10.561.144,70.100 us,2 B,,SP,4B,Write Transaction,82 01
0,878,0:10.561.215,49.800 us,1 B,,SP,4B,Read Transaction,01*
0,879,0:10.561.266,70.100 us,2 B,,SP,4B,Write Transaction,82 01
0,880,0:10.561.338,325.300 us,11 B,,SP,4B,Read Transaction,01 30 91 A4 02 8F 0D 66 00 00 00*
0,881,0:10.577.640,70.200 us,2 B,,SP,4B,Write Transaction,82 01
0,882,0:10.577.711,49.700 us,1 B,,SP,4B,Read Transaction,01*
0,883,0:10.577.762,70.200 us,2 B,,SP,4B,Write Transaction,82 01
0,884,0:10.577.834,325.100 us,11 B,,SP,4B,Read Transaction,01 30 91 A7 02 8D 0D 66 00 00 00*
0,885,0:10.594.131,70.200 us,2 B,,SP,4B,Write Transaction,82 01
0,886,0:10.594.202,49.800 us,1 B,,SP,4B,Read Transaction,01*
0,887,0:10.594.254,70.100 us,2 B,,SP,4B,Write Transaction,82 01
0,888,0:10.594.325,325.200 us,11 B,,SP,4B,Read Transaction,01 30 91 AA 02 8A 0D 66 00 00 00*
0,889,0:10.610.625,70.200 us,2 B,,SP,4B,Write Transaction,82 01
0,890,0:10.610.697,49.700 us,1 B,,SP,4B,Read Transaction,01*
0,891,0:10.610.748,70.200 us,2 B,,SP,4B,Write Transaction,82 01
0,892,0:10.610.819,325.200 us,11 B,,SP,4B,Read Transaction,01 30 91 AD 02 87 0D 66 00 00 00*
0,893,0:10.627.087,70.100 us,2 B,,SP,4B,Write Transaction,82 01
0,894,0:10.627.159,49.800 us,1 B,,SP,4B,Read Transaction,01*
0,895,0:10.627.210,70.100 us,2 B,,SP,4B,Write Transaction,82 01
0,896,0:10.627.281,325.200 us,11 B,,SP,4B,Read Transaction,01 30 91 B0 02 84 0D 66 00 00 00*
0,897,0:10.643.554,70.100 us,2 B,,SP,4B,Write Transaction,82 01
0,898,0:10.643.626,49.800 us,1 B,,SP,4B,Read Transaction,01*
0,899,0:10.643.677,70.100 us,2 B,,SP,4B,Write Transaction,82 01
0,900,0:10.643.748,325.000 us,11 B,,SP,4B,Read Transaction,01 30 91 B4 02 81 0D 66 00 00 00*
0,901,0:10.660.051,70.100 us,2 B,,SP,4B,Write Transaction,82 01
0,902,0:10.660.122,49.800 us,1 B,,SP,4B,Read Transaction,01*
0,903,0:10.660.173,70.200 us,2 B,,SP,4B,Write Transaction,82 01
0,904,0:10.660.245,325.100 us,11 B,,SP,4B,Read Transaction,01 30 91 B7 02 7D 0D 66 00 00 00*
0,905,0:10.676.632,70.100 us,2 B,,SP,4B,Write Transaction,82 01
0,906,0:10.676.704,49.800 us,1 B,,SP,4B,Read Transaction,01*
0,907,0:10.676.755,70.100 us,2 B,,SP,4B,Write Transaction,82 01
0,908,0:10.676.826,325.200 us,11 B,,SP,4B,Read Transaction,01 30 91 BB 02 7A 0D 66 00 00 00*
0,909,0:10.694.694,70.200 us,2 B,,SP,4B,Write Transaction,82 01
0,910,0:10.694.766,49.800 us,1 B,,SP,4B,Read Transaction,01*
0,911,0:10.694.817,70.200 us,2 B,,SP,4B,Write Transaction,82 01
0,912,0:10.694.888,325.300 us,11 B,,SP,4B,Read Transaction,01 30 91 BE 02 77 0D 66 00 00 00*
0,913,0:10.711.221,70.100 us,2 B,,SP,4B,Write Transaction,82 01
0,914,0:10.711.293,49.800 us,1 B,,SP,4B,Read Transaction,01*
0,915,0:10.711.344,70.100 us,2 B,,SP,4B,Write Transaction,82 01
0,916,0:10.711.415,325.300 us,11 B,,SP,4B,Read Transaction,01 30 91 C1 02 73 0D 66 00 00 00*
0,917,0:10.727.716,70.100 us,2 B,,SP,4B,Write Transaction,82 01
0,918,0:10.727.787,49.800 us,1 B,,SP,4B,Read Transaction,01*
0,919,0:10.727.838,70.100 us,2 B,,SP,4B,Write Transaction,82 01
0,920,0:10.727.910,325.200 us,11 B,,SP,4B,Read Transaction,01 30 91 C4 02 70 0D 66 00 00 00*
0,921,0:10.744.184,70.200 us,2 B,,SP,4B,Write Transaction,82 01
0,922,0:10.744.255,49.700 us,1 B,,SP,4B,Read Transaction,01*
0,923,0:10.744.306,70.100 us,2 B,,SP,4B,Write Transaction,82 01
0,924,0:10.744.378,325.100 us,11 B,,SP,4B,Read Transaction,01 30 91 C7 02 6D 0D 66 00 00 00*
0,925,0:10.760.655,70.200 us,2 B,,SP,4B,Write Transaction,82 01
0,926,0:10.760.726,49.700 us,1 B,,SP,4B,Read Transaction,01*
0,927,0:10.760.777,70.200 us,2 B,,SP,4B,Write Transaction,82 01
0,928,0:10.760.849,325.300 us,11 B,,SP,4B,Read Transaction,01 30 91 CA 02 6A 0D 66 00 00 00*
0,929,0:10.777.119,70.200 us,2 B,,SP,4B,Write Transaction,82 01
0,930,0:10.777.191,49.900 us,1 B,,SP,4B,Read Transaction,01*
0,931,0:10.777.242,70.100 us,2 B,,SP,4B,Write Transaction,82 01
0,932,0:10.777.313,325.000 us,11 B,,SP,4B,Read Transaction,01 30 91 CD 02 67 0D 66 00 00 00*
0,933,0:10.793.596,70.100 us,2 B,,SP,4B,Write Transaction,82 01
0,934,0:10.793.668,49.800 us,1 B,,SP,4B,Read Transaction,01*
0,935,0:10.793.719,70.100 us,2 B,,SP,4B,Write Transaction,82 01
0,936,0:10.793.790,325.200 us,11 B,,SP,4B,Read Transaction,01 30 91 D0 02 64 0D 66 00 00 00*
0,937,0:10.810.047,70.100 us,2 B,,SP,4B,Write Transaction,82 01
0,938,0:10.810.118,49.800 us,1 B,,SP,4B,Read Transaction,01*
0,939,0:10.810.170,70.100 us,2 B,,SP,4B,Write Transaction,82 01
0,940,0:10.810.241,325.100 us,11 B,,SP,4B,Read Transaction,01 30 91 D3 02 61 0D 66 00 00 00*
0,941,0:10.826.512,70.100 us,2 B,,SP,4B,Write Transaction,82 01
0,942,0:10.826.583,49.700 us,1 B,,SP,4B,Read Transaction,01*
0,943,0:10.826.634,70.200 us,2 B,,SP,4B,Write Transaction,82 01
0,944,0:10.826.706,325.200 us,11 B,,SP,4B,Read Transaction,01 30 91 D6 02 5D 0D 66 00 00 00*
0,945,0:10.842.985,70.100 us,2 B,,SP,4B,Write Transaction,82 01
0,946,0:10.843.056,49.800 us,1 B,,SP,4B,Read Transaction,01*
0,947,0:10.843.108,70.100 us,2 B,,SP,4B,Write Transaction,82 01
0,948,0:10.843.179,325.300 us,11 B,,SP,4B,Read Transaction,01 30 91 DA 02 5A 0D 66 00 00 00*
0,949,0:10.861.025,70.200 us,2 B,,SP,4B,Write Transaction,82 01
0,950,0:10.861.096,49.700 us,1 B,,SP,4B,Read Transaction,01*
0,951,0:10.861.147,70.200 us,2 B,,SP,4B,Write Transaction,82 01
0,952,0:10.861.218,324.900 us,11 B,,SP,4B,Read Transaction,01 30 91 DD 02 55 0D 66 00 00 00*
0,953,0:10.877.647,70.100 us,2 B,,SP,4B,Write Transaction,82 01
0,954,0:10.877.719,49.800 us,1 B,,SP,4B,Read Transaction,01*
0,955,0:10.877.770,70.100 us,2 B,,SP,4B,Write Transaction,82 01
0,956,0:10.877.841,325.200 us,11 B,,SP,4B,Read Transaction,01 30 91 E0 02 52 0D 66 00 00 00*
0,957,0:10.894.040,70.100 us,2 B,,SP,4B,Write Transaction,82 01
0,958,0:10.894.112,49.800 us,1 B,,SP,4B,Read Transaction,01*
0,959,0:10.894.163,70.100 us,2 B,,SP,4B,Write Transaction,82 01
0,960,0:10.894.234,325.200 us,11 B,,SP,4B,Read Transaction,01 30 91 E3 02 4F 0D 66 00 00 00*
0,961,0:10.910.530,70.100 us,2 B,,SP,4B,Write Transaction,82 01
0,962,0:10.910.602,49.700 us,1 B,,SP,4B,Read Transaction,01*
0,963,0:10.910.653,70.200 us,2 B,,SP,4B,Write Transaction,82 01
0,964,0:10.910.724,325.100 us,11 B,,SP,4B,Read Transaction,01 30 91 E6 02 4C 0D 66 00 00 00*
0,965,0:10.927.022,70.200 us,2 B,,SP,4B,Write Transaction,82 01
0,966,0:10.927.093,49.800 us,1 B,,SP,4B,Read Transaction,01*
0,967,0:10.927.144,70.100 us,2 B,,SP,4B,Write Transaction,82 01
0,968,0:10.927.216,325.400 us,11 B,,SP,4B,Read Transaction,01 30 91 E9 02 48 0D 66 00 00 00*
0,969,0:10.943.519,70.100 us,2 B,,SP,4B,Write Transaction,82 01
0,970,0:10.943.590,49.800 us,1 B,,SP,4B,Read Transaction,01*
0,971,0:10.943.641,70.100 us,2 B,,SP,4B,Write Transaction,82 01
0,972,0:10.943.713,325.100 us,11 B,,SP,4B,Read Transaction,01 30 91 EC 02 44 0D 66 00 00 00*
0,973,0:10.960.011,70.100 us,2 B,,SP,4B,Write Transaction,82 01
0,974,0:10.960.082,49.800 us,1 B,,SP,4B,Read Transaction,01*
0,975,0:10.960.133,70.100 us,2 B,,SP,4B,Write Transaction,82 01
0,976,0:10.960.205,325.100 us,11 B,,SP,4B,Read Transaction,01 30 91 EF 02 41 0D 66 00 00 00*
0,977,0:10.976.506,70.100 us,2 B,,SP,4B,Write Transaction,82 01
0,978,0:10.976.577,49.700 us,1 B,,SP,4B,Read Transaction,01*
0,979,0:10.976.628,70.200 us,2 B,,SP,4B,Write Transaction,82 01
0,980,0:10.976.700,325.400 us,11 B,,SP,4B,Read Transaction,01 30 91 F4 02 3C 0D 66 00 00 00*
0,981,0:10.992.999,70.200 us,2 B,,SP,4B,Write Transaction,82 01
0,982,0:10.993.071,49.800 us,1 B,,SP,4B,Read Transaction,01*
0,983,0:10.993.122,70.200 us,2 B,,SP,4B,Write Transaction,82 01
0,984,0:10.993.193,325.400 us,11 B,,SP,4B,Read Transaction,01 30 91 F8 02 37 0D 66 00 00 00*
0,985,0:11.009.491,70.100 us,2 B,,SP,4B,Write Transaction,82 01
0,986,0:11.009.563,49.800 us,1 B,,SP,4B,Read Transaction,01*
0,987,0:11.009.614,70.100 us,2 B,,SP,4B,Write Transaction,82 01
0,988,0:11.009.685,325.100 us,11 B,,SP,4B,Read Transaction,01 30 91 FD 02 32 0D 66 00 00 00*
0,989,0:11.027.560,70.100 us,2 B,,SP,4B,Write Transaction,82 01
0,990,0:11.027.632,49.800 us,1 B,,SP,4B,Read Transaction,01*
0,991,0:11.027.683,70.100 us,2 B,,SP,4B,Write Transaction,82 01
0,992,0:11.027.754,325.100 us,11 B,,SP,4B,Read Transaction,01 30 91 01 03 2E 0D 66 00 00 00*
0,993,0:11.044.105,70.100 us,2 B,,SP,4B,Write Transaction,82 01
0,994,0:11.044.176,49.800 us,1 B,,SP,4B,Read Transaction,01*
0,995,0:11.044.227,70.100 us,2 B,,SP,4B,Write Transaction,82 01
0,996,0:11.044.299,325.300 us,11 B,,SP,4B,Read Transaction,01 30 91 05 03 2A 0D 6B 00 00 00*
0,997,0:11.060.708,70.100 us,2 B,,SP,4B,Write Transaction,82 01
0,998,0:11.060.779,49.800 us,1 B,,SP,4B,Read Transaction,01*
0,999,0:11.060.830,70.100 us,2 B,,SP,4B,Write Transaction,82 01
0,1000,0:11.060.902,325.400 us,11 B,,SP,4B,Read Transaction,01 30 91 09 03 25 0D 6B 00 00 00*
0,1001,0:11.077.100,70.100 us,2 B,,SP,4B,Write Transaction,82 01
0,1002,0:11.077.171,49.800 us,1 B,,SP,4B,Read Transaction,01*
0,1003,0:11.077.222,70.100 us,2 B,,SP,4B,Write Transaction,82 01
0,1004,0:11.077.294,325.000 us,11 B,,SP,4B,Read Transaction,01 30 91 0C 03 22 0D 6B 00 00 00*
0,1005,0:11.093.596,70.100 us,2 B,,SP,4B,Write Transaction,82 01
0,1006,0:11.093.667,49.800 us,1 B,,SP,4B,Read Transaction,01*
0,1007,0:11.093.718,70.100 us,2 B,,SP,4B,Write Transaction,82 01
0,1008,0:11.093.790,325.500 us,11 B,,SP,4B,Read Transaction,01 30 91 10 03 1D 0D 6B 00 00 00*
0,1009,0:11.110.081,70.100 us,2 B,,SP,4B,Write Transaction,82 01
0,1010,0:11.110.152,49.800 us,1 B,,SP,4B,Read Transaction,01*
0,1011,0:11.110.203,70.100 us,2 B,,SP,4B,Write Transaction,82 01
0,1012,0:11.110.275,324.900 us,11 B,,SP,4B,Read Transaction,01 30 91 14 03 18 0D 6B 00 00 00*
0,1013,0:11.126.572,70.100 us,2 B,,SP,4B,Write Transaction,82 01
0,1014,0:11.126.644,49.800 us,1 B,,SP,4B,Read Transaction,01*
0,1015,0:11.126.695,70.100 us,2 B,,SP,4B,Write Transaction,82 01
0,1016,0:11.126.766,325.300 us,11 B,,SP,4B,Read Transaction,01 30 91 17 03 14 0D 6B 00 00 00*
0,1017,0:11.142.186,70.200 us,2 B,,SP,4B,Write Transaction,82 01
0,1018,0:11.142.257,49.800 us,1 B,,SP,4B,Read Transaction,01*
0,1019,0:11.142.308,70.100 us,2 B,,SP,4B,Write Transaction,82 01
0,1020,0:11.142.380,318.300 us,11 B,,SP,4B,Read Transaction,01 29 12 02 06 01 00 16 00 00 00*
0,1021,0:11.143.222,70.200 us,2 B,,SP,4B,Write Transaction,82 01
0,1022,0:11.143.293,49.800 us,1 B,,SP,4B,Read Transaction,01*
0,1023,0:11.143.344,70.100 us,2 B,,SP,4B,Write Transaction,82 01
0,1024,0:11.143.416,325.300 us,11 B,,SP,4B,Read Transaction,01 30 91 1B 03 0F 0D 6B 00 00 00*
0,1025,0:11.159.621,70.100 us,2 B,,SP,4B,Write Transaction,82 01
0,1026,0:11.159.693,49.800 us,1 B,,SP,4B,Read Transaction,01*
0,1027,0:11.159.744,70.100 us,2 B,,SP,4B,Write Transaction,82 01
0,1028,0:11.159.815,325.200 us,11 B,,SP,4B,Read Transaction,01 30 91 1D 03 0B 0D 6B 00 00 00*
0,1029,0:11.176.115,70.100 us,2 B,,SP,4B,Write Transaction,82 01
0,1030,0:11.176.186,49.800 us,1 B,,SP,4B,Read Transaction,01*
0,1031,0:11.176.237,70.100 us,2 B,,SP,4B,Write Transaction,82 01
0,1032,0:11.176.308,325.400 us,11 B,,SP,4B,Read Transaction,01 30 91 20 03 07 0D 6B 00 00 00*
0,1033,0:11.194.207,70.200 us,2 B,,SP,4B,Write Transaction,82 01
0,1034,0:11.194.279,49.800 us,1 B,,SP,4B,Read Transaction,01*
0,1035,0:11.194.330,70.200 us,2 B,,SP,4B,Write Transaction,82 01
0,1036,0:11.194.401,325.200 us,11 B,,SP,4B,Read Transaction,01 30 91 22 03 04 0D 6B 00 00 00*
0,1037,0:11.210.732,70.200 us,2 B,,SP,4B,Write Transaction,82 01
0,1038,0:11.210.803,49.800 us,1 B,,SP,4B,Read Transaction,01*
0,1039,0:11.210.854,70.200 us,2 B,,SP,4B,Write Transaction,82 01
0,1040,0:11.210.926,325.400 us,11 B,,SP,4B,Read Transaction,01 30 91 25 03 01 0D 6B 00 00 00*
0,1041,0:11.227.201,70.100 us,2 B,,SP,4B,Write Transaction,82 01
0,1042,0:11.227.272,49.700 us,1 B,,SP,4B,Read Transaction,01*
0,1043,0:11.227.323,70.100 us,2 B,,SP,4B,Write Transaction,82 01
0,1044,0:11.227.394,325.200 us,11 B,,SP,4B,Read Transaction,01 30 91 27 03 FD 0C 6B 00 00 00*
0,1045,0:11.243.666,70.200 us,2 B,,SP,4B,Write Transaction,82 01
0,1046,0:11.243.738,49.800 us,1 B,,SP,4B,Read Transaction,01*
0,1047,0:11.243.789,70.200 us,2 B,,SP,4B,Write Transaction,82 01
0,1048,0:11.243.860,324.900 us,11 B,,SP,4B,Read Transaction,01 30 91 29 03 FA 0C 6B 00 00 00*
0,1049,0:11.260.261,70.200 us,2 B,,SP,4B,Write Transaction,82 01
0,1050,0:11.260.333,49.800 us,1 B,,SP,4B,Read Transaction,01*
0,1051,0:11.260.384,70.100 us,2 B,,SP,4B,Write Transaction,82 01
0,1052,0:11.260.455,325.300 us,11 B,,SP,4B,Read Transaction,01 30 91 2C 03 F7 0C 6B 00 00 00*
0,1053,0:11.276.653,70.200 us,2 B,,SP,4B,Write Transaction,82 01
0,1054,0:11.276.724,49.800 us,1 B,,SP,4B,Read Transaction,01*
0,1055,0:11.276.776,70.200 us,2 B,,SP,4B,Write Transaction,82 01
0,1056,0:11.276.847,325.200 us,11 B,,SP,4B,Read Transaction,01 30 91 2E 03 F4 0C 6B 00 00 00*
0,1057,0:11.293.145,70.100 us,2 B,,SP,4B,Write Transaction,82 01
0,1058,0:11.293.217,49.700 us,1 B,,SP,4B,Read Transaction,01*
0,1059,0:11.293.268,70.200 us,2 B,,SP,4B,Write Transaction,82 01
0,1060,0:11.293.339,325.200 us,11 B,,SP,4B,Read Transaction,01 30 91 30 03 F2 0C 6B 00 00 00*
0,1061,0:11.309.612,70.200 us,2 B,,SP,4B,Write Transaction,82 01
0,1062,0:11.309.683,49.700 us,1 B,,SP,4B,Read Transaction,01*
0,1063,0:11.309.734,70.200 us,2 B,,SP,4B,Write Transaction,82 01
0,1064,0:11.309.806,325.000 us,11 B,,SP,4B,Read Transaction,01 30 91 32 03 EF 0C 6B 00 00 00*
0,1065,0:11.326.078,70.200 us,2 B,,SP,4B,Write Transaction,82 01
0,1066,0:11.326.149,49.800 us,1 B,,SP,4B,Read Transaction,01*
0,1067,0:11.326.200,70.200 us,2 B,,SP,4B,Write Transaction,82 01
0,1068,0:11.326.272,325.100 us,11 B,,SP,4B,Read Transaction,01 30 91 33 03 EC 0C 6B 00 00 00*
0,1069,0:11.342.576,70.100 us,2 B,,SP,4B,Write Transaction,82 01
0,1070,0:11.342.648,49.800 us,1 B,,SP,4B,Read Transaction,01*
0,1071,0:11.342.699,70.100 us,2 B,,SP,4B,Write Transaction,82 01
0,1072,0:11.342.770,325.100 us,11 B,,SP,4B,Read Transaction,01 30 91 35 03 EB 0C 6B 00 00 00*
0,1073,0:11.360.672,70.100 us,2 B,,SP,4B,Write Transaction,82 01
0,1074,0:11.360.743,49.800 us,1 B,,SP,4B,Read Transaction,01*
0,1075,0:11.360.794,70.100 us,2 B,,SP,4B,Write Transaction,82 01
0,1076,0:11.360.865,325.300 us,11 B,,SP,4B,Read Transaction,01 30 91 36 03 E9 0C 6B 00 00 00*
0,1077,0:11.377.190,70.100 us,2 B,,SP,4B,Write Transaction,82 01
0,1078,0:11.377.262,49.800 us,1 B,,SP,4B,Read Transaction,01*
0,1079,0:11.377.313,70.100 us,2 B,,SP,4B,Write Transaction,82 01
0,1080,0:11.377.384,325.400 us,11 B,,SP,4B,Read Transaction,01 30 91 38 03 E6 0C 6B 00 00 00*
0,1081,0:11.393.681,70.100 us,2 B,,SP,4B,Write Transaction,82 01
0,1082,0:11.393.752,49.800 us,1 B,,SP,4B,Read Transaction,01*
0,1083,0:11.393.803,70.100 us,2 B,,SP,4B,Write Transaction,82 01
0,1084,0:11.393.875,325.200 us,11 B,,SP,4B,Read Transaction,01 30 91 3A 03 E3 0C 6B 00 00 00*
0,1085,0:11.410.177,70.200 us,2 B,,SP,4B,Write Transaction,82 01
0,1086,0:11.410.248,49.800 us,1 B,,SP,4B,Read Transaction,01*
0,1087,0:11.410.299,70.100 us,2 B,,SP,4B,Write Transaction,82 01
0,1088,0:11.410.371,325.100 us,11 B,,SP,4B,Read Transaction,01 30 91 3C 03 E1 0C 6B 00 00 00*
0,1089,0:11.426.648,70.100 us,2 B,,SP,4B,Write Transaction,82 01
0,1090,0:11.426.719,49.800 us,1 B,,SP,4B,Read Transaction,01*
0,1091,0:11.426.770,70.200 us,2 B,,SP,4B,Write Transaction,82 01
0,1092,0:11.426.841,325.200 us,11 B,,SP,4B,Read Transaction,01 30 91 3D 03 DE 0C 6B 00 00 00*
0,1093,0:11.443.144,70.200 us,2 B,,SP,4B,Write Transaction,82 01
0,1094,0:11.443.216,49.900 us,1 B,,SP,4B,Read Transaction,01*
0,1095,0:11.443.267,70.100 us,2 B,,SP,4B,Write Transaction,82 01
0,1096,0:11.443.338,325.100 us,11 B,,SP,4B,Read Transaction,01 30 91 3F 03 DB 0C 6B 00 00 00*
0,1097,0:11.459.751,70.100 us,2 B,,SP,4B,Write Transaction,82 01
0,1098,0:11.459.822,49.800 us,1 B,,SP,4B,Read Transaction,01*
0,1099,0:11.459.873,70.100 us,2 B,,SP,4B,Write Transaction,82 01
0,1100,0:11.459.945,325.300 us,11 B,,SP,4B,Read Transaction,01 30 91 41 03 D9 0C 6B 00 00 00*
0,1101,0:11.476.126,70.100 us,2 B,,SP,4B,Write Transaction,82 01
0,1102,0:11.476.198,49.800 us,1 B,,SP,4B,Read Transaction,01*
0,1103,0:11.476.249,70.100 us,2 B,,SP,4B,Write Transaction,82 01
0,1104,0:11.476.320,325.100 us,11 B,,SP,4B,Read Transaction,01 30 91 43 03 D5 0C 6B 00 00 00*
0,1105,0:11.492.595,70.100 us,2 B,,SP,4B,Write Transaction,82 01
0,1106,0:11.492.667,49.800 us,1 B,,SP,4B,Read Transaction,01*
0,1107,0:11.492.718,70.100 us,2 B,,SP,4B,Write Transaction,82 01
0,1108,0:11.492.789,325.000 us,11 B,,SP,4B,Read Transaction,01 30 91 45 03 D2 0C 6B 00 00 00*
0,1109,0:11.509.063,70.100 us,2 B,,SP,4B,Write Transaction,82 01
0,1110,0:11.509.135,49.800 us,1 B,,SP,4B,Read Transaction,01*
0,1111,0:11.509.186,70.100 us,2 B,,SP,4B,Write Transaction,82 01
0,1112,0:11.509.257,325.000 us,11 B,,SP,4B,Read Transaction,01 30 91 48 03 CC 0C 6B 00 00 00*
0,1113,0:11.527.189,70.100 us,2 B,,SP,4B,Write Transaction,82 01
0,1114,0:11.527.260,49.800 us,1 B,,SP,4B,Read Transaction,01*
0,1115,0:11.527.311,70.100 us,2 B,,SP,4B,Write Transaction,82 01
0,1116,0:11.527.383,325.200 us,11 B,,SP,4B,Read Transaction,01 30 91 4B 03 C6 0C 6B 00 00 00*
0,1117,0:11.543.714,70.100 us,2 B,,SP,4B,Write Transaction,82 01
0,1118,0:11.543.785,49.800 us,1 B,,SP,4B,Read Transaction,01*
0,1119,0:11.543.836,70.100 us,2 B,,SP,4B,Write Transaction,82 01
0,1120,0:11.543.907,325.200 us,11 B,,SP,4B,Read Transaction,01 30 91 4F 03 C0 0C 6B 00 00 00*
0,1121,0:11.560.207,70.100 us,2 B,,SP,4B,Write Transaction,82 01
0,1122,0:11.560.278,49.800 us,1 B,,SP,4B,Read Transaction,01*
0,1123,0:11.560.329,70.200 us,2 B,,SP,4B,Write Transaction,82 01
0,1124,0:11.560.400,325.300 us,11 B,,SP,4B,Read Transaction,01 30 91 53 03 BA 0C 6B 00 00 00*
0,1125,0:11.576.698,70.100 us,2 B,,SP,4B,Write Transaction,82 01
0,1126,0:11.576.770,49.800 us,1 B,,SP,4B,Read Transaction,01*
0,1127,0:11.576.821,70.100 us,2 B,,SP,4B,Write Transaction,82 01
0,1128,0:11.576.892,325.100 us,11 B,,SP,4B,Read Transaction,01 30 91 56 03 B3 0C 6B 00 00 00*
0,1129,0:11.593.184,70.100 us,2 B,,SP,4B,Write Transaction,82 01
0,1130,0:11.593.255,49.800 us,1 B,,SP,4B,Read Transaction,01*
0,1131,0:11.593.306,70.100 us,2 B,,SP,4B,Write Transaction,82 01
0,1132,0:11.593.378,325.000 us,11 B,,SP,4B,Read Transaction,01 30 91 5A 03 AD 0C 6B 00 00 00*
0,1133,0:11.609.675,70.100 us,2 B,,SP,4B,Write Transaction,82 01
0,1134,0:11.609.746,49.800 us,1 B,,SP,4B,Read Transaction,01*
0,1135,0:11.609.797,70.100 us,2 B,,SP,4B,Write Transaction,82 01
0,1136,0:11.609.868,325.100 us,11 B,,SP,4B,Read Transaction,01 30 91 5E 03 A8 0C 6B 00 00 00*
0,1137,0:11.626.153,70.100 us,2 B,,SP,4B,Write Transaction,82 01
0,1138,0:11.626.224,49.800 us,1 B,,SP,4B,Read Transaction,01*
0,1139,0:11.626.275,70.100 us,2 B,,SP,4B,Write Transaction,82 01
0,1140,0:11.626.346,324.900 us,11 B,,SP,4B,Read Transaction,01 30 91 62 03 A2 0C 6B 00 00 00*
0,1141,0:11.642.645,70.200 us,2 B,,SP,4B,Write Transaction,82 01
0,1142,0:11.642.717,49.800 us,1 B,,SP,4B,Read Transaction,01*
0,1143,0:11.642.768,70.200 us,2 B,,SP,4B,Write Transaction,82 01
0,1144,0:11.642.839,325.000 us,11 B,,SP,4B,Read Transaction,01 30 91 66 03 9C 0C 6B 00 00 00*
0,1145,0:11.659.234,70.200 us,2 B,,SP,4B,Write Transaction,82 01
0,1146,0:11.659.306,49.700 us,1 B,,SP,4B,Read Transaction,01*
0,1147,0:11.659.357,70.200 us,2 B,,SP,4B,Write Transaction,82 01
0,1148,0:11.659.428,325.100 us,11 B,,SP,4B,Read Transaction,01 30 91 6B 03 97 0C 6B 00 00 00*
0,1149,0:11.675.624,70.200 us,2 B,,SP,4B,Write Transaction,82 01
0,1150,0:11.675.696,49.800 us,1 B,,SP,4B,Read Transaction,01*
0,1151,0:11.675.747,70.200 us,2 B,,SP,4B,Write Transaction,82 01
0,1152,0:11.675.818,324.600 us,11 B,,SP,4B,Read Transaction,01 30 91 6F 03 92 0C 6B 00 00 00*
0,1153,0:11.693.685,70.100 us,2 B,,SP,4B,Write Transaction,82 01
0,1154,0:11.693.756,49.800 us,1 B,,SP,4B,Read Transaction,01*
0,1155,0:11.693.807,70.100 us,2 B,,SP,4B,Write Transaction,82 01
0,1156,0:11.693.879,325.100 us,11 B,,SP,4B,Read Transaction,01 30 91 73 03 8C 0C 6B 00 00 00*
0,1157,0:11.710.208,70.100 us,2 B,,SP,4B,Write Transaction,82 01
0,1158,0:11.710.279,49.800 us,1 B,,SP,4B,Read Transaction,01*
0,1159,0:11.710.330,70.100 us,2 B,,SP,4B,Write Transaction,82 01
0,1160,0:11.710.402,325.600 us,11 B,,SP,4B,Read Transaction,01 30 91 77 03 88 0C 6B 00 00 00*
0,1161,0:11.726.705,70.200 us,2 B,,SP,4B,Write Transaction,82 01
0,1162,0:11.726.776,49.700 us,1 B,,SP,4B,Read Transaction,01*
0,1163,0:11.726.827,70.200 us,2 B,,SP,4B,Write Transaction,82 01
0,1164,0:11.726.899,325.200 us,11 B,,SP,4B,Read Transaction,01 30 91 7B 03 84 0C 70 00 00 00*
0,1165,0:11.743.193,70.200 us,2 B,,SP,4B,Write Transaction,82 01
0,1166,0:11.743.264,49.800 us,1 B,,SP,4B,Read Transaction,01*
0,1167,0:11.743.316,70.200 us,2 B,,SP,4B,Write Transaction,82 01
0,1168,0:11.743.387,325.100 us,11 B,,SP,4B,Read Transaction,01 30 91 7E 03 81 0C 70 00 00 00*
0,1169,0:11.759.687,70.100 us,2 B,,SP,4B,Write Transaction,82 01
0,1170,0:11.759.759,49.800 us,1 B,,SP,4B,Read Transaction,01*
0,1171,0:11.759.810,70.100 us,2 B,,SP,4B,Write Transaction,82 01
0,1172,0:11.759.881,325.200 us,11 B,,SP,4B,Read Transaction,01 30 91 82 03 7C 0C 70 00 00 00*
0,1173,0:11.776.178,70.100 us,2 B,,SP,4B,Write Transaction,82 01
0,1174,0:11.776.249,49.800 us,1 B,,SP,4B,Read Transaction,01*
0,1175,0:11.776.300,70.100 us,2 B,,SP,4B,Write Transaction,82 01
0,1176,0:11.776.372,325.200 us,11 B,,SP,4B,Read Transaction,01 30 91 86 03 79 0C 70 00 00 00*
0,1177,0:11.792.669,70.100 us,2 B,,SP,4B,Write Transaction,82 01
0,1178,0:11.792.741,49.800 us,1 B,,SP,4B,Read Transaction,01*
0,1179,0:11.792.792,70.100 us,2 B,,SP,4B,Write Transaction,82 01
0,1180,0:11.792.863,325.500 us,11 B,,SP,4B,Read Transaction,01 30 91 8B 03 74 0C 70 00 00 00*
0,1181,0:11.809.163,70.100 us,2 B,,SP,4B,Write Transaction,82 01
0,1182,0:11.809.235,49.700 us,1 B,,SP,4B,Read Transaction,01*
0,1183,0:11.809.286,70.200 us,2 B,,SP,4B,Write Transaction,82 01
0,1184,0:11.809.357,324.900 us,11 B,,SP,4B,Read Transaction,01 30 91 8E 03 6F 0C 70 00 00 00*
0,1185,0:11.825.630,70.100 us,2 B,,SP,4B,Write Transaction,82 01
0,1186,0:11.825.701,49.800 us,1 B,,SP,4B,Read Transaction,01*
0,1187,0:11.825.752,70.100 us,2 B,,SP,4B,Write Transaction,82 01
0,1188,0:11.825.824,325.100 us,11 B,,SP,4B,Read Transaction,01 30 91 92 03 6B 0C 70 00 00 00*
0,1189,0:11.842.210,70.100 us,2 B,,SP,4B,Write Transaction,82 01
0,1190,0:11.842.282,49.800 us,1 B,,SP,4B,Read Transaction,01*
0,1191,0:11.842.333,70.100 us,2 B,,SP,4B,Write Transaction,82 01
0,1192,0:11.842.404,325.200 us,11 B,,SP,4B,Read Transaction,01 30 91 96 03 67 0C 70 00 00 00*
0,1193,0:11.860.214,70.100 us,2 B,,SP,4B,Write Transaction,82 01
0,1194,0:11.860.285,49.800 us,1 B,,SP,4B,Read Transaction,01*
0,1195,0:11.860.336,70.100 us,2 B,,SP,4B,Write Transaction,82 01
0,1196,0:11.860.408,325.400 us,11 B,,SP,4B,Read Transaction,01 30 91 99 03 63 0C 70 00 00 00*
0,1197,0:11.876.742,70.100 us,2 B,,SP,4B,Write Transaction,82 01
0,1198,0:11.876.813,49.800 us,1 B,,SP,4B,Read Transaction,01*
0,1199,0:11.876.864,70.100 us,2 B,,SP,4B,Write Transaction,82 01
0,1200,0:11.876.935,325.700 us,11 B,,SP,4B,Read Transaction,01 30 91 9C 03 5F 0C 70 00 00 00*
0,1201,0:11.893.243,70.100 us,2 B,,SP,4B,Write Transaction,82 01
0,1202,0:11.893.315,49.800 us,1 B,,SP,4B,Read Transaction,01*
0,1203,0:11.893.366,70.100 us,2 B,,SP,4B,Write Transaction,82 01
0,1204,0:11.893.437,325.300 us,11 B,,SP,4B,Read Transaction,01 30 91 9F 03 5B 0C 70 00 00 00*
0,1205,0:11.909.716,70.100 us,2 B,,SP,4B,Write Transaction,82 01
0,1206,0:11.909.787,49.800 us,1 B,,SP,4B,Read Transaction,01*
0,1207,0:11.909.838,70.100 us,2 B,,SP,4B,Write Transaction,82 01
0,1208,0:11.909.910,325.000 us,11 B,,SP,4B,Read Transaction,01 30 91 A3 03 57 0C 70 00 00 00*
0,1209,0:11.926.209,70.200 us,2 B,,SP,4B,Write Transaction,82 01
0,1210,0:11.926.281,49.800 us,1 B,,SP,4B,Read Transaction,01*
0,1211,0:11.926.332,70.200 us,2 B,,SP,4B,Write Transaction,82 01
0,1212,0:11.926.403,325.200 us,11 B,,SP,4B,Read Transaction,01 30 91 A6 03 52 0C 70 00 00 00*
0,1213,0:11.942.720,70.200 us,2 B,,SP,4B,Write Transaction,82 01
0,1214,0:11.942.791,49.800 us,1 B,,SP,4B,Read Transaction,01*
0,1215,0:11.942.843,70.200 us,2 B,,SP,4B,Write Transaction,82 01
0,1216,0:11.942.914,325.200 us,11 B,,SP,4B,Read Transaction,01 30 91 A9 03 4E 0C 70 00 00 00*
0,1217,0:11.959.199,70.100 us,2 B,,SP,4B,Write Transaction,82 01
0,1218,0:11.959.271,49.800 us,1 B,,SP,4B,Read Transaction,01*
0,1219,0:11.959.322,70.100 us,2 B,,SP,4B,Write Transaction,82 01
0,1220,0:11.959.393,325.200 us,11 B,,SP,4B,Read Transaction,01 30 91 AC 03 4A 0C 70 00 00 00*
0,1221,0:11.975.710,70.100 us,2 B,,SP,4B,Write Transaction,82 01
0,1222,0:11.975.781,49.800 us,1 B,,SP,4B,Read Transaction,01*
0,1223,0:11.975.833,70.100 us,2 B,,SP,4B,Write Transaction,82 01
0,1224,0:11.975.904,325.100 us,11 B,,SP,4B,Read Transaction,01 30 91 AF 03 47 0C 70 00 00 00*
0,1225,0:11.992.193,70.100 us,2 B,,SP,4B,Write Transaction,82 01
0,1226,0:11.992.265,49.800 us,1 B,,SP,4B,Read Transaction,01*
0,1227,0:11.992.316,70.100 us,2 B,,SP,4B,Write Transaction,82 01
0,1228,0:11.992.387,325.200 us,11 B,,SP,4B,Read Transaction,01 30 91 B1 03 44 0C 70 00 00 00*
0,1229,0:12.008.690,70.100 us,2 B,,SP,4B,Write Transaction,82 01
0,1230,0:12.008.761,49.800 us,1 B,,SP,4B,Read Transaction,01*
0,1231,0:12.008.812,70.100 us,2 B,,SP,4B,Write Transaction,82 01
0,1232,0:12.008.884,325.600 us,11 B,,SP,4B,Read Transaction,01 30 91 B3 03 42 0C 70 00 00 00*
0,1233,0:12.026.760,70.200 us,2 B,,SP,4B,Write Transaction,82 01
0,1234,0:12.026.831,49.800 us,1 B,,SP,4B,Read Transaction,01*
0,1235,0:12.026.882,70.200 us,2 B,,SP,4B,Write Transaction,82 01
0,1236,0:12.026.953,325.100 us,11 B,,SP,4B,Read Transaction,01 30 91 B5 03 3F 0C 70 00 00 00*
0,1237,0:12.043.392,70.100 us,2 B,,SP,4B,Write Transaction,82 01
0,1238,0:12.043.464,49.800 us,1 B,,SP,4B,Read Transaction,01*
0,1239,0:12.043.515,70.200 us,2 B,,SP,4B,Write Transaction,82 01
0,1240,0:12.043.586,324.900 us,11 B,,SP,4B,Read Transaction,01 30 91 B7 03 3C 0C 70 00 00 00*
0,1241,0:12.059.755,70.100 us,2 B,,SP,4B,Write Transaction,82 01
0,1242,0:12.059.826,49.800 us,1 B,,SP,4B,Read Transaction,01*
0,1243,0:12.059.877,70.100 us,2 B,,SP,4B,Write Transaction,82 01
0,1244,0:12.059.949,325.500 us,11 B,,SP,4B,Read Transaction,01 30 91 B8 03 3A 0C 70 00 00 00*
0,1245,0:12.076.251,70.200 us,2 B,,SP,4B,Write Transaction,82 01
0,1246,0:12.076.323,49.800 us,1 B,,SP,4B,Read Transaction,01*
0,1247,0:12.076.374,70.100 us,2 B,,SP,4B,Write Transaction,82 01
0,1248,0:12.076.445,325.100 us,11 B,,SP,4B,Read Transaction,01 30 91 BB 03 38 0C 70 00 00 00*
0,1249,0:12.092.748,70.100 us,2 B,,SP,4B,Write Transaction,82 01
0,1250,0:12.092.819,49.800 us,1 B,,SP,4B,Read Transaction,01*
0,1251,0:12.092.871,70.100 us,2 B,,SP,4B,Write Transaction,82 01
0,1252,0:12.092.942,325.400 us,11 B,,SP,4B,Read Transaction,01 30 91 BD 03 36 0C 70 00 00 00*
0,1253,0:12.109.240,70.100 us,2 B,,SP,4B,Write Transaction,82 01
0,1254,0:12.109.312,49.800 us,1 B,,SP,4B,Read Transaction,01*
0,1255,0:12.109.363,70.100 us,2 B,,SP,4B,Write Transaction,82 01
0,1256,0:12.109.434,325.100 us,11 B,,SP,4B,Read Transaction,01 30 91 BF 03 34 0C 6B 00 00 00*
0,1257,0:12.125.738,70.100 us,2 B,,SP,4B,Write Transaction,82 01
0,1258,0:12.125.809,49.800 us,1 B,,SP,4B,Read Transaction,01*
0,1259,0:12.125.861,70.100 us,2 B,,SP,4B,Write Transaction,82 01
0,1260,0:12.125.932,325.100 us,11 B,,SP,4B,Read Transaction,01 30 91 C1 03 31 0C 6B 00 00 00*
0,1261,0:12.142.235,70.100 us,2 B,,SP,4B,Write Transaction,82 01
0,1262,0:12.142.307,49.800 us,1 B,,SP,4B,Read Transaction,01*
0,1263,0:12.142.358,70.100 us,2 B,,SP,4B,Write Transaction,82 01
0,1264,0:12.142.429,325.300 us,11 B,,SP,4B,Read Transaction,01 30 91 C4 03 2E 0C 6B 00 00 00*
0,1265,0:12.158.734,70.200 us,2 B,,SP,4B,Write Transaction,82 01
0,1266,0:12.158.806,49.800 us,1 B,,SP,4B,Read Transaction,01*
0,1267,0:12.158.857,70.100 us,2 B,,SP,4B,Write Transaction,82 01
0,1268,0:12.158.928,325.500 us,11 B,,SP,4B,Read Transaction,01 30 91 C8 03 2B 0C 6B 00 00 00*
0,1269,0:12.175.228,70.100 us,2 B,,SP,4B,Write Transaction,82 01
0,1270,0:12.175.299,49.800 us,1 B,,SP,4B,Read Transaction,01*
0,1271,0:12.175.350,70.100 us,2 B,,SP,4B,Write Transaction,82 01
0,1272,0:12.175.422,325.200 us,11 B,,SP,4B,Read Transaction,01 30 91 CB 03 27 0C 6B 00 00 00*
0,1273,0:12.193.330,70.100 us,2 B,,SP,4B,Write Transaction,82 01
0,1274,0:12.193.402,49.800 us,1 B,,SP,4B,Read Transaction,01*
0,1275,0:12.193.453,70.200 us,2 B,,SP,4B,Write Transaction,82 01
0,1276,0:12.193.524,325.200 us,11 B,,SP,4B,Read Transaction,01 30 91 CF 03 24 0C 6B 00 00 00*
0,1277,0:12.209.829,70.200 us,2 B,,SP,4B,Write Transaction,82 01
0,1278,0:12.209.901,49.700 us,1 B,,SP,4B,Read Transaction,01*
0,1279,0:12.209.952,70.200 us,2 B,,SP,4B,Write Transaction,82 01
0,1280,0:12.210.023,325.200 us,11 B,,SP,4B,Read Transaction,01 30 91 D4 03 20 0C 6B 00 00 00*
0,1281,0:12.226.326,70.200 us,2 B,,SP,4B,Write Transaction,82 01
0,1282,0:12.226.397,49.800 us,1 B,,SP,4B,Read Transaction,01*
0,1283,0:12.226.448,70.200 us,2 B,,SP,4B,Write Transaction,82 01
0,1284,0:12.226.520,325.100 us,11 B,,SP,4B,Read Transaction,01 30 91 DA 03 1C 0C 6B 00 00 00*
0,1285,0:12.242.926,70.200 us,2 B,,SP,4B,Write Transaction,82 01
0,1286,0:12.242.997,49.800 us,1 B,,SP,4B,Read Transaction,01*
0,1287,0:12.243.049,70.200 us,2 B,,SP,4B,Write Transaction,82 01
0,1288,0:12.243.120,325.100 us,11 B,,SP,4B,Read Transaction,01 30 91 DF 03 17 0C 6B 00 00 00*
0,1289,0:12.259.303,70.100 us,2 B,,SP,4B,Write Transaction,82 01
0,1290,0:12.259.375,49.700 us,1 B,,SP,4B,Read Transaction,01*
0,1291,0:12.259.426,70.100 us,2 B,,SP,4B,Write Transaction,82 01
0,1292,0:12.259.497,325.300 us,11 B,,SP,4B,Read Transaction,01 30 91 E4 03 13 0C 6B 00 00 00*
0,1293,0:12.275.798,70.100 us,2 B,,SP,4B,Write Transaction,82 01
0,1294,0:12.275.870,49.800 us,1 B,,SP,4B,Read Transaction,01*
0,1295,0:12.275.921,70.200 us,2 B,,SP,4B,Write Transaction,82 01
0,1296,0:12.275.992,325.300 us,11 B,,SP,4B,Read Transaction,01 30 91 E9 03 0F 0C 6B 00 00 00*
0,1297,0:12.292.267,70.200 us,2 B,,SP,4B,Write Transaction,82 01
0,1298,0:12.292.338,49.800 us,1 B,,SP,4B,Read Transaction,01*
0,1299,0:12.292.389,70.100 us,2 B,,SP,4B,Write Transaction,82 01
0,1300,0:12.292.461,325.200 us,11 B,,SP,4B,Read Transaction,01 30 91 EF 03 0A 0C 70 00 00 00*
0,1301,0:12.308.761,70.200 us,2 B,,SP,4B,Write Transaction,82 01
0,1302,0:12.308.832,49.800 us,1 B,,SP,4B,Read Transaction,01*
0,1303,0:12.308.883,70.200 us,2 B,,SP,4B,Write Transaction,82 01
0,1304,0:12.308.955,325.000 us,11 B,,SP,4B,Read Transaction,01 30 91 F4 03 04 0C 70 00 00 00*
0,1305,0:12.325.254,70.100 us,2 B,,SP,4B,Write Transaction,82 01
0,1306,0:12.325.325,49.800 us,1 B,,SP,4B,Read Transaction,01*
0,1307,0:12.325.376,70.100 us,2 B,,SP,4B,Write Transaction,82 01
0,1308,0:12.325.448,325.200 us,11 B,,SP,4B,Read Transaction,01 30 91 F9 03 00 0C 70 00 00 00*
0,1309,0:12.341.755,70.100 us,2 B,,SP,4B,Write Transaction,82 01
0,1310,0:12.341.826,49.800 us,1 B,,SP,4B,Read Transaction,01*
0,1311,0:12.341.877,70.100 us,2 B,,SP,4B,Write Transaction,82 01
0,1312,0:12.341.949,325.200 us,11 B,,SP,4B,Read Transaction,01 30 91 FE 03 FC 0B 70 00 00 00*
0,1313,0:12.359.911,70.100 us,2 B,,SP,4B,Write Transaction,82 01
0,1314,0:12.359.982,49.800 us,1 B,,SP,4B,Read Transaction,01*
0,1315,0:12.360.033,70.100 us,2 B,,SP,4B,Write Transaction,82 01
0,1316,0:12.360.105,325.200 us,11 B,,SP,4B,Read Transaction,01 30 91 02 04 F7 0B 70 00 00 00*
0,1317,0:12.376.437,70.100 us,2 B,,SP,4B,Write Transaction,82 01
0,1318,0:12.376.508,49.800 us,1 B,,SP,4B,Read Transaction,01*
0,1319,0:12.376.559,70.100 us,2 B,,SP,4B,Write Transaction,82 01
0,1320,0:12.376.630,325.200 us,11 B,,SP,4B,Read Transaction,01 30 91 07 04 F2 0B 70 00 00 00*
0,1321,0:12.392.932,70.100 us,2 B,,SP,4B,Write Transaction,82 01
0,1322,0:12.393.004,49.800 us,1 B,,SP,4B,Read Transaction,01*
0,1323,0:12.393.055,70.100 us,2 B,,SP,4B,Write Transaction,82 01
0,1324,0:12.393.126,325.300 us,11 B,,SP,4B,Read Transaction,01 30 91 0C 04 ED 0B 70 00 00 00*
0,1325,0:12.409.380,70.100 us,2 B,,SP,4B,Write Transaction,82 01
0,1326,0:12.409.452,49.800 us,1 B,,SP,4B,Read Transaction,01*
0,1327,0:12.409.503,70.100 us,2 B,,SP,4B,Write Transaction,82 01
0,1328,0:12.409.574,325.200 us,11 B,,SP,4B,Read Transaction,01 30 91 11 04 E8 0B 70 00 00 00*
0,1329,0:12.425.871,70.100 us,2 B,,SP,4B,Write Transaction,82 01
0,1330,0:12.425.943,49.800 us,1 B,,SP,4B,Read Transaction,01*
0,1331,0:12.425.994,70.100 us,2 B,,SP,4B,Write Transaction,82 01
0,1332,0:12.426.065,325.200 us,11 B,,SP,4B,Read Transaction,01 30 91 17 04 E3 0B 70 00 00 00*
0,1333,0:12.442.465,70.100 us,2 B,,SP,4B,Write Transaction,82 01
0,1334,0:12.442.536,49.800 us,1 B,,SP,4B,Read Transaction,01*
0,1335,0:12.442.588,70.100 us,2 B,,SP,4B,Write Transaction,82 01
0,1336,0:12.442.659,325.300 us,11 B,,SP,4B,Read Transaction,01 30 91 1C 04 DF 0B 70 00 00 00*
0,1337,0:12.458.851,70.200 us,2 B,,SP,4B,Write Transaction,82 01
0,1338,0:12.458.923,49.800 us,1 B,,SP,4B,Read Transaction,01*
0,1339,0:12.458.974,70.200 us,2 B,,SP,4B,Write Transaction,82 01
0,1340,0:12.459.045,325.300 us,11 B,,SP,4B,Read Transaction,01 30 91 20 04 DB 0B 70 00 00 00*
0,1341,0:12.475.344,70.100 us,2 B,,SP,4B,Write Transaction,82 01
0,1342,0:12.475.415,49.800 us,1 B,,SP,4B,Read Transaction,01*
0,1343,0:12.475.466,70.100 us,2 B,,SP,4B,Write Transaction,82 01
0,1344,0:12.475.538,325.200 us,11 B,,SP,4B,Read Transaction,01 30 91 25 04 D7 0B 70 00 00 00*
0,1345,0:12.491.837,70.200 us,2 B,,SP,4B,Write Transaction,82 01
0,1346,0:12.491.908,49.800 us,1 B,,SP,4B,Read Transaction,01*
0,1347,0:12.491.959,70.200 us,2 B,,SP,4B,Write Transaction,82 01
0,1348,0:12.492.031,325.200 us,11 B,,SP,4B,Read Transaction,01 30 91 29 04 D4 0B 70 00 00 00*
0,1349,0:12.508.303,70.200 us,2 B,,SP,4B,Write Transaction,82 01
0,1350,0:12.508.375,49.800 us,1 B,,SP,4B,Read Transaction,01*
0,1351,0:12.508.426,70.200 us,2 B,,SP,4B,Write Transaction,82 01
0,1352,0:12.508.497,325.300 us,11 B,,SP,4B,Read Transaction,01 30 91 2E 04 D0 0B 70 00 00 00*
0,1353,0:12.526.368,70.100 us,2 B,,SP,4B,Write Transaction,82 01
0,1354,0:12.526.440,49.800 us,1 B,,SP,4B,Read Transaction,01*
0,1355,0:12.526.491,70.100 us,2 B,,SP,4B,Write Transaction,82 01
0,1356,0:12.526.562,325.200 us,11 B,,SP,4B,Read Transaction,01 30 91 32 04 CC 0B 70 00 00 00*
0,1357,0:12.542.888,70.200 us,2 B,,SP,4B,Write Transaction,82 01
0,1358,0:12.542.959,49.800 us,1 B,,SP,4B,Read Transaction,01*
0,1359,0:12.543.010,70.100 us,2 B,,SP,4B,Write Transaction,82 01
0,1360,0:12.543.082,325.000 us,11 B,,SP,4B,Read Transaction,01 30 91 37 04 CA 0B 70 00 00 00*
0,1361,0:12.559.356,70.100 us,2 B,,SP,4B,Write Transaction,82 01
0,1362,0:12.559.427,49.800 us,1 B,,SP,4B,Read Transaction,01*
0,1363,0:12.559.478,70.100 us,2 B,,SP,4B,Write Transaction,82 01
0,1364,0:12.559.550,325.200 us,11 B,,SP,4B,Read Transaction,01 30 91 3A 04 C7 0B 70 00 00 00*
0,1365,0:12.575.847,70.100 us,2 B,,SP,4B,Write Transaction,82 01
0,1366,0:12.575.918,49.800 us,1 B,,SP,4B,Read Transaction,01*
0,1367,0:12.575.969,70.100 us,2 B,,SP,4B,Write Transaction,82 01
0,1368,0:12.576.041,325.200 us,11 B,,SP,4B,Read Transaction,01 30 91 3F 04 C4 0B 70 00 00 00*
0,1369,0:12.592.341,70.100 us,2 B,,SP,4B,Write Transaction,82 01
0,1370,0:12.592.412,49.800 us,1 B,,SP,4B,Read Transaction,01*
0,1371,0:12.592.463,70.100 us,2 B,,SP,4B,Write Transaction,82 01
0,1372,0:12.592.534,325.100 us,11 B,,SP,4B,Read Transaction,01 30 91 43 04 C2 0B 70 00 00 00*
0,1373,0:12.608.835,70.100 us,2 B,,SP,4B,Write Transaction,82 01
0,1374,0:12.608.907,49.800 us,1 B,,SP,4B,Read Transaction,01*
0,1375,0:12.608.958,70.100 us,2 B,,SP,4B,Write Transaction,82 01
0,1376,0:12.609.029,325.300 us,11 B,,SP,4B,Read Transaction,01 30 91 47 04 BF 0B 70 00 00 00*
0,1377,0:12.625.424,70.100 us,2 B,,SP,4B,Write Transaction,82 01
0,1378,0:12.625.496,49.700 us,1 B,,SP,4B,Read Transaction,01*
0,1379,0:12.625.547,70.200 us,2 B,,SP,4B,Write Transaction,82 01
0,1380,0:12.625.618,325.400 us,11 B,,SP,4B,Read Transaction,01 30 91 4A 04 BC 0B 75 00 00 00*
0,1381,0:12.641.824,70.200 us,2 B,,SP,4B,Write Transaction,82 01
0,1382,0:12.641.895,49.800 us,1 B,,SP,4B,Read Transaction,01*
0,1383,0:12.641.946,70.200 us,2 B,,SP,4B,Write Transaction,82 01
0,1384,0:12.642.018,325.200 us,11 B,,SP,4B,Read Transaction,01 30 91 4F 04 BA 0B 75 00 00 00*
0,1385,0:12.658.307,70.200 us,2 B,,SP,4B,Write Transaction,82 01
0,1386,0:12.658.379,49.800 us,1 B,,SP,4B,Read Transaction,01*
0,1387,0:12.658.430,70.200 us,2 B,,SP,4B,Write Transaction,82 01
0,1388,0:12.658.501,325.300 us,11 B,,SP,4B,Read Transaction,01 30 91 52 04 B7 0B 75 00 00 00*
0,1389,0:12.674.800,70.100 us,2 B,,SP,4B,Write Transaction,82 01
0,1390,0:12.674.872,49.800 us,1 B,,SP,4B,Read Transaction,01*
0,1391,0:12.674.923,70.100 us,2 B,,SP,4B,Write Transaction,82 01
0,1392,0:12.674.994,325.100 us,11 B,,SP,4B,Read Transaction,01 30 91 56 04 B4 0B 75 00 00 00*
0,1393,0:12.692.866,70.100 us,2 B,,SP,4B,Write Transaction,82 01
0,1394,0:12.692.937,49.800 us,1 B,,SP,4B,Read Transaction,01*
0,1395,0:12.692.989,70.100 us,2 B,,SP,4B,Write Transaction,82 01
0,1396,0:12.693.060,324.800 us,11 B,,SP,4B,Read Transaction,01 30 91 5A 04 B2 0B 75 00 00 00*
0,1397,0:12.709.390,70.100 us,2 B,,SP,4B,Write Transaction,82 01
0,1398,0:12.709.462,49.700 us,1 B,,SP,4B,Read Transaction,01*
0,1399,0:12.709.513,70.100 us,2 B,,SP,4B,Write Transaction,82 01
0,1400,0:12.709.584,325.400 us,11 B,,SP,4B,Read Transaction,01 30 91 5E 04 AF 0B 75 00 00 00*
0,1401,0:12.725.905,70.100 us,2 B,,SP,4B,Write Transaction,82 01
0,1402,0:12.725.977,49.800 us,1 B,,SP,4B,Read Transaction,01*
0,1403,0:12.726.028,70.100 us,2 B,,SP,4B,Write Transaction,82 01
0,1404,0:12.726.099,325.100 us,11 B,,SP,4B,Read Transaction,01 30 91 62 04 AB 0B 75 00 00 00*
0,1405,0:12.742.371,70.100 us,2 B,,SP,4B,Write Transaction,82 01
0,1406,0:12.742.442,49.800 us,1 B,,SP,4B,Read Transaction,01*
0,1407,0:12.742.493,70.100 us,2 B,,SP,4B,Write Transaction,82 01
0,1408,0:12.742.565,325.300 us,11 B,,SP,4B,Read Transaction,01 30 91 66 04 A8 0B 75 00 00 00*
0,1409,0:12.758.867,70.200 us,2 B,,SP,4B,Write Transaction,82 01
0,1410,0:12.758.938,49.800 us,1 B,,SP,4B,Read Transaction,01*
0,1411,0:12.758.989,70.200 us,2 B,,SP,4B,Write Transaction,82 01
0,1412,0:12.759.061,325.200 us,11 B,,SP,4B,Read Transaction,01 30 91 6A 04 A4 0B 75 00 00 00*
0,1413,0:12.775.333,70.100 us,2 B,,SP,4B,Write Transaction,82 01
0,1414,0:12.775.404,49.800 us,1 B,,SP,4B,Read Transaction,01*
0,1415,0:12.775.455,70.100 us,2 B,,SP,4B,Write Transaction,82 01
0,1416,0:12.775.527,325.200 us,11 B,,SP,4B,Read Transaction,01 30 91 6F 04 A1 0B 75 00 00 00*
0,1417,0:12.791.823,70.100 us,2 B,,SP,4B,Write Transaction,82 01
0,1418,0:12.791.894,49.800 us,1 B,,SP,4B,Read Transaction,01*
0,1419,0:12.791.945,70.100 us,2 B,,SP,4B,Write Transaction,82 01
0,1420,0:12.792.017,325.200 us,11 B,,SP,4B,Read Transaction,01 30 91 73 04 9C 0B 75 00 00 00*
0,1421,0:12.808.319,70.200 us,2 B,,SP,4B,Write Transaction,82 01
0,1422,0:12.808.390,49.800 us,1 B,,SP,4B,Read Transaction,01*
0,1423,0:12.808.441,70.200 us,2 B,,SP,4B,Write Transaction,82 01
0,1424,0:12.808.513,325.000 us,11 B,,SP,4B,Read Transaction,01 30 91 78 04 99 0B 75 00 00 00*
0,1425,0:12.824.913,70.200 us,2 B,,SP,4B,Write Transaction,82 01
0,1426,0:12.824.985,49.800 us,1 B,,SP,4B,Read Transaction,01*
0,1427,0:12.825.036,70.100 us,2 B,,SP,4B,Write Transaction,82 01
0,1428,0:12.825.107,325.200 us,11 B,,SP,4B,Read Transaction,01 30 91 7C 04 95 0B 75 00 00 00*
0,1429,0:12.841.307,70.100 us,2 B,,SP,4B,Write Transaction,82 01
0,1430,0:12.841.378,49.800 us,1 B,,SP,4B,Read Transaction,01*
0,1431,0:12.841.429,70.100 us,2 B,,SP,4B,Write Transaction,82 01
0,1432,0:12.841.501,325.100 us,11 B,,SP,4B,Read Transaction,01 30 91 80 04 92 0B 75 00 00 00*
0,1433,0:12.859.376,70.200 us,2 B,,SP,4B,Write Transaction,82 01
0,1434,0:12.859.447,49.800 us,1 B,,SP,4B,Read Transaction,01*
0,1435,0:12.859.498,70.100 us,2 B,,SP,4B,Write Transaction,82 01
0,1436,0:12.859.570,325.200 us,11 B,,SP,4B,Read Transaction,01 30 91 84 04 8F 0B 70 00 00 00*
0,1437,0:12.875.901,70.200 us,2 B,,SP,4B,Write Transaction,82 01
0,1438,0:12.875.972,49.800 us,1 B,,SP,4B,Read Transaction,01*
0,1439,0:12.876.023,70.200 us,2 B,,SP,4B,Write Transaction,82 01
0,1440,0:12.876.095,325.200 us,11 B,,SP,4B,Read Transaction,01 30 91 88 04 8B 0B 70 00 00 00*
0,1441,0:12.892.394,70.100 us,2 B,,SP,4B,Write Transaction,82 01
0,1442,0:12.892.466,49.800 us,1 B,,SP,4B,Read Transaction,01*
0,1443,0:12.892.517,70.100 us,2 B,,SP,4B,Write Transaction,82 01
0,1444,0:12.892.588,325.300 us,11 B,,SP,4B,Read Transaction,01 30 91 8C 04 88 0B 70 00 00 00*
0,1445,0:12.908.890,70.200 us,2 B,,SP,4B,Write Transaction,82 01
0,1446,0:12.908.962,49.800 us,1 B,,SP,4B,Read Transaction,01*
0,1447,0:12.909.013,70.200 us,2 B,,SP,4B,Write Transaction,82 01
0,1448,0:12.909.084,325.100 us,11 B,,SP,4B,Read Transaction,01 30 91 90 04 85 0B 70 00 00 00*
0,1449,0:12.925.386,70.100 us,2 B,,SP,4B,Write Transaction,82 01
0,1450,0:12.925.458,49.800 us,1 B,,SP,4B,Read Transaction,01*
0,1451,0:12.925.509,70.100 us,2 B,,SP,4B,Write Transaction,82 01
0,1452,0:12.925.580,325.000 us,11 B,,SP,4B,Read Transaction,01 30 91 94 04 82 0B 70 00 00 00*
0,1453,0:12.941.880,70.100 us,2 B,,SP,4B,Write Transaction,82 01
0,1454,0:12.941.952,49.800 us,1 B,,SP,4B,Read Transaction,01*
0,1455,0:12.942.003,70.100 us,2 B,,SP,4B,Write Transaction,82 01
0,1456,0:12.942.074,325.000 us,11 B,,SP,4B,Read Transaction,01 30 91 97 04 7F 0B 70 00 00 00*
0,1457,0:12.958.347,70.100 us,2 B,,SP,4B,Write Transaction,82 01
0,1458,0:12.958.419,49.800 us,1 B,,SP,4B,Read Transaction,01*
0,1459,0:12.958.470,70.100 us,2 B,,SP,4B,Write Transaction,82 01
0,1460,0:12.958.541,325.000 us,11 B,,SP,4B,Read Transaction,01 30 91 9B 04 7C 0B 70 00 00 00*
0,1461,0:12.974.815,70.100 us,2 B,,SP,4B,Write Transaction,82 01
0,1462,0:12.974.887,49.800 us,1 B,,SP,4B,Read Transaction,01*
0,1463,0:12.974.938,70.100 us,2 B,,SP,4B,Write Transaction,82 01
0,1464,0:12.975.009,324.800 us,11 B,,SP,4B,Read Transaction,01 30 91 9F 04 7A 0B 70 00 00 00*
0,1465,0:12.991.309,70.100 us,2 B,,SP,4B,Write Transaction,82 01
0,1466,0:12.991.380,49.700 us,1 B,,SP,4B,Read Transaction,01*
0,1467,0:12.991.432,70.100 us,2 B,,SP,4B,Write Transaction,82 01
0,1468,0:12.991.503,325.200 us,11 B,,SP,4B,Read Transaction,01 30 91 A3 04 77 0B 70 00 00 00*
0,1469,0:13.007.803,70.200 us,2 B,,SP,4B,Write Transaction,82 01
0,1470,0:13.007.875,49.800 us,1 B,,SP,4B,Read Transaction,01*
0,1471,0:13.007.926,70.200 us,2 B,,SP,4B,Write Transaction,82 01
0,1472,0:13.007.997,325.300 us,11 B,,SP,4B,Read Transaction,01 30 91 A7 04 74 0B 70 00 00 00*
0,1473,0:13.026.008,70.100 us,2 B,,SP,4B,Write Transaction,82 01
0,1474,0:13.026.080,49.800 us,1 B,,SP,4B,Read Transaction,01*
0,1475,0:13.026.131,70.100 us,2 B,,SP,4B,Write Transaction,82 01
0,1476,0:13.026.202,325.400 us,11 B,,SP,4B,Read Transaction,01 30 91 AA 04 72 0B 70 00 00 00*
0,1477,0:13.042.416,70.200 us,2 B,,SP,4B,Write Transaction,82 01
0,1478,0:13.042.488,49.800 us,1 B,,SP,4B,Read Transaction,01*
0,1479,0:13.042.539,70.100 us,2 B,,SP,4B,Write Transaction,82 01
0,1480,0:13.042.610,325.500 us,11 B,,SP,4B,Read Transaction,01 30 91 AD 04 6F 0B 70 00 00 00*
0,1481,0:13.058.904,70.200 us,2 B,,SP,4B,Write Transaction,82 01
0,1482,0:13.058.976,49.800 us,1 B,,SP,4B,Read Transaction,01*
0,1483,0:13.059.027,70.200 us,2 B,,SP,4B,Write Transaction,82 01
0,1484,0:13.059.098,325.100 us,11 B,,SP,4B,Read Transaction,01 30 91 B0 04 6C 0B 70 00 00 00*
0,1485,0:13.074.502,70.200 us,2 B,,SP,4B,Write Transaction,82 01
0,1486,0:13.074.573,49.800 us,1 B,,SP,4B,Read Transaction,01*
0,1487,0:13.074.625,70.100 us,2 B,,SP,4B,Write Transaction,82 01
0,1488,0:13.074.696,318.500 us,11 B,,SP,4B,Read Transaction,01 29 12 02 06 01 01 16 00 00 00*
0,1489,0:13.075.548,70.100 us,2 B,,SP,4B,Write Transaction,82 01
0,1490,0:13.075.620,49.800 us,1 B,,SP,4B,Read Transaction,01*
0,1491,0:13.075.671,70.100 us,2 B,,SP,4B,Write Transaction,82 01
0,1492,0:13.075.742,325.100 us,11 B,,SP,4B,Read Transaction,01 30 91 B3 04 6A 0B 70 00 00 00*
0,1493,0:13.091.950,70.200 us,2 B,,SP,4B,Write Transaction,82 01
0,1494,0:13.092.021,49.800 us,1 B,,SP,4B,Read Transaction,01*
0,1495,0:13.092.072,70.200 us,2 B,,SP,4B,Write Transaction,82 01
0,1496,0:13.092.144,325.200 us,11 B,,SP,4B,Read Transaction,01 30 91 B6 04 68 0B 70 00 00 00*
0,1497,0:13.108.440,70.100 us,2 B,,SP,4B,Write Transaction,82 01
0,1498,0:13.108.512,49.800 us,1 B,,SP,4B,Read Transaction,01*
0,1499,0:13.108.563,70.100 us,2 B,,SP,4B,Write Transaction,82 01
0,1500,0:13.108.634,325.300 us,11 B,,SP,4B,Read Transaction,01 30 91 B8 04 66 0B 70 00 00 00*
0,1501,0:13.124.934,70.100 us,2 B,,SP,4B,Write Transaction,82 01
0,1502,0:13.125.005,49.800 us,1 B,,SP,4B,Read Transaction,01*
0,1503,0:13.125.056,70.100 us,2 B,,SP,4B,Write Transaction,82 01
0,1504,0:13.125.128,325.300 us,11 B,,SP,4B,Read Transaction,01 30 91 BB 04 64 0B 70 00 00 00*
0,1505,0:13.141.421,70.100 us,2 B,,SP,4B,Write Transaction,82 01
0,1506,0:13.141.492,49.800 us,1 B,,SP,4B,Read Transaction,01*
0,1507,0:13.141.543,70.100 us,2 B,,SP,4B,Write Transaction,82 01
0,1508,0:13.141.615,325.400 us,11 B,,SP,4B,Read Transaction,01 30 91 BE 04 62 0B 70 00 00 00*
0,1509,0:13.157.911,70.100 us,2 B,,SP,4B,Write Transaction,82 01
0,1510,0:13.157.983,49.800 us,1 B,,SP,4B,Read Transaction,01*
0,1511,0:13.158.034,70.100 us,2 B,,SP,4B,Write Transaction,82 01
0,1512,0:13.158.105,325.100 us,11 B,,SP,4B,Read Transaction,01 30 91 C1 04 5F 0B 70 00 00 00*
0,1513,0:13.174.405,70.100 us,2 B,,SP,4B,Write Transaction,82 01
0,1514,0:13.174.476,49.800 us,1 B,,SP,4B,Read Transaction,01*
0,1515,0:13.174.527,70.100 us,2 B,,SP,4B,Write Transaction,82 01
0,1516,0:13.174.599,325.400 us,11 B,,SP,4B,Read Transaction,01 30 91 C4 04 5D 0B 70 00 00 00*
0,1517,0:13.192.551,70.200 us,2 B,,SP,4B,Write Transaction,82 01
0,1518,0:13.192.622,49.700 us,1 B,,SP,4B,Read Transaction,01*
0,1519,0:13.192.673,70.200 us,2 B,,SP,4B,Write Transaction,82 01
0,1520,0:13.192.745,325.100 us,11 B,,SP,4B,Read Transaction,01 30 91 C6 04 5A 0B 70 00 00 00*
0,1521,0:13.209.047,70.100 us,2 B,,SP,4B,Write Transaction,82 01
0,1522,0:13.209.118,49.800 us,1 B,,SP,4B,Read Transaction,01*
0,1523,0:13.209.169,70.100 us,2 B,,SP,4B,Write Transaction,82 01
0,1524,0:13.209.241,325.400 us,11 B,,SP,4B,Read Transaction,01 30 91 C8 04 58 0B 70 00 00 00*
0,1525,0:13.225.645,70.200 us,2 B,,SP,4B,Write Transaction,82 01
0,1526,0:13.225.716,49.800 us,1 B,,SP,4B,Read Transaction,01*
0,1527,0:13.225.767,70.200 us,2 B,,SP,4B,Write Transaction,82 01
0,1528,0:13.225.839,325.300 us,11 B,,SP,4B,Read Transaction,01 30 91 CB 04 56 0B 70 00 00 00*
0,1529,0:13.242.008,70.100 us,2 B,,SP,4B,Write Transaction,82 01
0,1530,0:13.242.079,49.800 us,1 B,,SP,4B,Read Transaction,01*
0,1531,0:13.242.130,70.100 us,2 B,,SP,4B,Write Transaction,82 01
0,1532,0:13.242.202,325.200 us,11 B,,SP,4B,Read Transaction,01 30 91 CE 04 53 0B 70 00 00 00*
0,1533,0:13.258.502,70.100 us,2 B,,SP,4B,Write Transaction,82 01
0,1534,0:13.258.573,49.800 us,1 B,,SP,4B,Read Transaction,01*
0,1535,0:13.258.624,70.100 us,2 B,,SP,4B,Write Transaction,82 01
0,1536,0:13.258.695,325.000 us,11 B,,SP,4B,Read Transaction,01 30 91 D1 04 4F 0B 70 00 00 00*
0,1537,0:13.274.995,70.100 us,2 B,,SP,4B,Write Transaction,82 01
0,1538,0:13.275.066,49.800 us,1 B,,SP,4B,Read Transaction,01*
0,1539,0:13.275.117,70.200 us,2 B,,SP,4B,Write Transaction,82 01
0,1540,0:13.275.189,325.100 us,11 B,,SP,4B,Read Transaction,01 30 91 D4 04 4C 0B 70 00 00 00*
0,1541,0:13.291.490,70.100 us,2 B,,SP,4B,Write Transaction,82 01
0,1542,0:13.291.562,49.800 us,1 B,,SP,4B,Read Transaction,01*
0,1543,0:13.291.613,70.100 us,2 B,,SP,4B,Write Transaction,82 01
0,1544,0:13.291.684,325.300 us,11 B,,SP,4B,Read Transaction,01 30 91 D7 04 49 0B 70 00 00 00*
0,1545,0:13.307.983,70.100 us,2 B,,SP,4B,Write Transaction,82 01
0,1546,0:13.308.054,49.800 us,1 B,,SP,4B,Read Transaction,01*
0,1547,0:13.308.105,70.100 us,2 B,,SP,4B,Write Transaction,82 01
0,1548,0:13.308.177,325.400 us,11 B,,SP,4B,Read Transaction,01 30 91 DA 04 46 0B 70 00 00 00*
0,1549,0:13.324.478,70.100 us,2 B,,SP,4B,Write Transaction,82 01
0,1550,0:13.324.549,49.800 us,1 B,,SP,4B,Read Transaction,01*
0,1551,0:13.324.600,70.100 us,2 B,,SP,4B,Write Transaction,82 01
0,1552,0:13.324.672,325.300 us,11 B,,SP,4B,Read Transaction,01 30 91 DC 04 43 0B 70 00 00 00*
0,1553,0:13.340.979,70.100 us,2 B,,SP,4B,Write Transaction,82 01
0,1554,0:13.341.050,49.800 us,1 B,,SP,4B,Read Transaction,01*
0,1555,0:13.341.101,70.200 us,2 B,,SP,4B,Write Transaction,82 01
0,1556,0:13.341.173,325.600 us,11 B,,SP,4B,Read Transaction,01 30 91 DF 04 40 0B 70 00 00 00*
0,1557,0:13.359.047,70.100 us,2 B,,SP,4B,Write Transaction,82 01
0,1558,0:13.359.118,49.700 us,1 B,,SP,4B,Read Transaction,01*
0,1559,0:13.359.169,70.200 us,2 B,,SP,4B,Write Transaction,82 01
0,1560,0:13.359.241,325.200 us,11 B,,SP,4B,Read Transaction,01 30 91 E1 04 3D 0B 76 00 00 00*
0,1561,0:13.375.575,70.100 us,2 B,,SP,4B,Write Transaction,82 01
0,1562,0:13.375.647,49.800 us,1 B,,SP,4B,Read Transaction,01*
0,1563,0:13.375.698,70.100 us,2 B,,SP,4B,Write Transaction,82 01
0,1564,0:13.375.769,325.100 us,11 B,,SP,4B,Read Transaction,01 30 91 E3 04 3B 0B 76 00 00 00*
0,1565,0:13.392.042,70.100 us,2 B,,SP,4B,Write Transaction,82 01
0,1566,0:13.392.113,49.800 us,1 B,,SP,4B,Read Transaction,01*
0,1567,0:13.392.164,70.100 us,2 B,,SP,4B,Write Transaction,82 01
0,1568,0:13.392.235,325.100 us,11 B,,SP,4B,Read Transaction,01 30 91 E5 04 38 0B 76 00 00 00*
0,1569,0:13.408.530,70.200 us,2 B,,SP,4B,Write Transaction,82 01
0,1570,0:13.408.601,49.900 us,1 B,,SP,4B,Read Transaction,01*
0,1571,0:13.408.652,70.100 us,2 B,,SP,4B,Write Transaction,82 01
0,1572,0:13.408.724,325.500 us,11 B,,SP,4B,Read Transaction,01 30 91 E7 04 36 0B 76 00 00 00*
0,1573,0:13.425.142,70.200 us,2 B,,SP,4B,Write Transaction,82 01
0,1574,0:13.425.213,49.800 us,1 B,,SP,4B,Read Transaction,01*
0,1575,0:13.425.264,70.100 us,2 B,,SP,4B,Write Transaction,82 01
0,1576,0:13.425.336,325.200 us,11 B,,SP,4B,Read Transaction,01 30 91 E9 04 34 0B 76 00 00 00*
0,1577,0:13.441.519,70.100 us,2 B,,SP,4B,Write Transaction,82 01
0,1578,0:13.441.590,49.800 us,1 B,,SP,4B,Read Transaction,01*
0,1579,0:13.441.642,70.100 us,2 B,,SP,4B,Write Transaction,82 01
0,1580,0:13.441.713,325.500 us,11 B,,SP,4B,Read Transaction,01 30 91 EB 04 32 0B 76 00 00 00*
0,1581,0:13.458.015,70.100 us,2 B,,SP,4B,Write Transaction,82 01
0,1582,0:13.458.087,49.800 us,1 B,,SP,4B,Read Transaction,01*
0,1583,0:13.458.138,70.100 us,2 B,,SP,4B,Write Transaction,82 01
0,1584,0:13.458.209,325.100 us,11 B,,SP,4B,Read Transaction,01 30 91 ED 04 2F 0B 76 00 00 00*
0,1585,0:13.474.511,70.100 us,2 B,,SP,4B,Write Transaction,82 01
0,1586,0:13.474.582,49.800 us,1 B,,SP,4B,Read Transaction,01*
0,1587,0:13.474.633,70.100 us,2 B,,SP,4B,Write Transaction,82 01
0,1588,0:13.474.705,325.300 us,11 B,,SP,4B,Read Transaction,01 30 91 EF 04 2E 0B 76 00 00 00*
0,1589,0:13.491.004,70.100 us,2 B,,SP,4B,Write Transaction,82 01
0,1590,0:13.491.076,49.800 us,1 B,,SP,4B,Read Transaction,01*
0,1591,0:13.491.127,70.100 us,2 B,,SP,4B,Write Transaction,82 01
0,1592,0:13.491.198,325.400 us,11 B,,SP,4B,Read Transaction,01 30 91 F1 04 2C 0B 76 00 00 00*
0,1593,0:13.507.498,70.100 us,2 B,,SP,4B,Write Transaction,82 01
0,1594,0:13.507.570,49.800 us,1 B,,SP,4B,Read Transaction,01*
0,1595,0:13.507.621,70.100 us,2 B,,SP,4B,Write Transaction,82 01
0,1596,0:13.507.692,325.100 us,11 B,,SP,4B,Read Transaction,01 30 91 F2 04 2A 0B 76 00 00 00*
0,1597,0:13.525.562,70.100 us,2 B,,SP,4B,Write Transaction,82 01
0,1598,0:13.525.633,49.700 us,1 B,,SP,4B,Read Transaction,01*
0,1599,0:13.525.684,70.100 us,2 B,,SP,4B,Write Transaction,82 01
0,1600,0:13.525.755,325.100 us,11 B,,SP,4B,Read Transaction,01 30 91 F4 04 27 0B 76 00 00 00*
0,1601,0:13.542.038,70.100 us,2 B,,SP,4B,Write Transaction,82 01
0,1602,0:13.542.110,49.800 us,1 B,,SP,4B,Read Transaction,01*
0,1603,0:13.542.161,70.100 us,2 B,,SP,4B,Write Transaction,82 01
0,1604,0:13.542.232,325.300 us,11 B,,SP,4B,Read Transaction,01 30 91 F6 04 24 0B 71 00 00 00*
0,1605,0:13.558.532,70.100 us,2 B,,SP,4B,Write Transaction,82 01
0,1606,0:13.558.604,49.800 us,1 B,,SP,4B,Read Transaction,01*
0,1607,0:13.558.655,70.100 us,2 B,,SP,4B,Write Transaction,82 01
0,1608,0:13.558.726,325.400 us,11 B,,SP,4B,Read Transaction,01 30 91 F9 04 22 0B 71 00 00 00*
0,1609,0:13.575.028,70.100 us,2 B,,SP,4B,Write Transaction,82 01
0,1610,0:13.575.099,49.800 us,1 B,,SP,4B,Read Transaction,01*
0,1611,0:13.575.151,70.200 us,2 B,,SP,4B,Write Transaction,82 01
0,1612,0:13.575.222,325.300 us,11 B,,SP,4B,Read Transaction,01 30 91 FC 04 1F 0B 71 00 00 00*
0,1613,0:13.591.522,70.200 us,2 B,,SP,4B,Write Transaction,82 01
0,1614,0:13.591.593,49.800 us,1 B,,SP,4B,Read Transaction,01*
0,1615,0:13.591.644,70.200 us,2 B,,SP,4B,Write Transaction,82 01
0,1616,0:13.591.716,325.400 us,11 B,,SP,4B,Read Transaction,01 30 91 FF 04 1C 0B 71 00 00 00*
0,1617,0:13.608.111,70.100 us,2 B,,SP,4B,Write Transaction,82 01
0,1618,0:13.608.182,49.800 us,1 B,,SP,4B,Read Transaction,01*
0,1619,0:13.608.234,70.100 us,2 B,,SP,4B,Write Transaction,82 01
0,1620,0:13.608.305,325.300 us,11 B,,SP,4B,Read Transaction,01 30 91 03 05 19 0B 71 00 00 00*
0,1621,0:13.624.505,70.100 us,2 B,,SP,4B,Write Transaction,82 01
0,1622,0:13.624.576,49.800 us,1 B,,SP,4B,Read Transaction,01*
0,1623,0:13.624.628,70.100 us,2 B,,SP,4B,Write Transaction,82 01
0,1624,0:13.624.699,324.900 us,11 B,,SP,4B,Read Transaction,01 30 91 08 05 16 0B 71 00 00 00*
0,1625,0:13.640.998,70.200 us,2 B,,SP,4B,Write Transaction,82 01
0,1626,0:13.641.070,49.800 us,1 B,,SP,4B,Read Transaction,01*
0,1627,0:13.641.121,70.200 us,2 B,,SP,4B,Write Transaction,82 01
0,1628,0:13.641.192,325.100 us,11 B,,SP,4B,Read Transaction,01 30 91 0D 05 12 0B 71 00 00 00*
0,1629,0:13.657.492,70.100 us,2 B,,SP,4B,Write Transaction,82 01
0,1630,0:13.657.564,49.800 us,1 B,,SP,4B,Read Transaction,01*
0,1631,0:13.657.615,70.100 us,2 B,,SP,4B,Write Transaction,82 01
0,1632,0:13.657.686,325.200 us,11 B,,SP,4B,Read Transaction,01 30 91 13 05 0E 0B 71 00 00 00*
0,1633,0:13.673.979,70.100 us,2 B,,SP,4B,Write Transaction,82 01
0,1634,0:13.674.051,49.800 us,1 B,,SP,4B,Read Transaction,01*
0,1635,0:13.674.102,70.100 us,2 B,,SP,4B,Write Transaction,82 01
0,1636,0:13.674.173,325.200 us,11 B,,SP,4B,Read Transaction,01 30 91 18 05 0A 0B 71 00 00 00*
0,1637,0:13.692.045,70.200 us,2 B,,SP,4B,Write Transaction,82 01
0,1638,0:13.692.116,49.800 us,1 B,,SP,4B,Read Transaction,01*
0,1639,0:13.692.167,70.200 us,2 B,,SP,4B,Write Transaction,82 01
0,1640,0:13.692.238,325.400 us,11 B,,SP,4B,Read Transaction,01 30 91 1F 05 05 0B 71 00 00 00*
0,1641,0:13.708.566,70.100 us,2 B,,SP,4B,Write Transaction,82 01
0,1642,0:13.708.637,49.800 us,1 B,,SP,4B,Read Transaction,01*
0,1643,0:13.708.688,70.100 us,2 B,,SP,4B,Write Transaction,82 01
0,1644,0:13.708.760,325.200 us,11 B,,SP,4B,Read Transaction,01 30 91 25 05 00 0B 71 00 00 00*
0,1645,0:13.725.074,70.100 us,2 B,,SP,4B,Write Transaction,82 01
0,1646,0:13.725.145,49.800 us,1 B,,SP,4B,Read Transaction,01*
0,1647,0:13.725.196,70.100 us,2 B,,SP,4B,Write Transaction,82 01
0,1648,0:13.725.268,325.200 us,11 B,,SP,4B,Read Transaction,01 30 91 2C 05 FA 0A 71 00 00 00*
0,1649,0:13.741.575,70.100 us,2 B,,SP,4B,Write Transaction,82 01
0,1650,0:13.741.647,49.800 us,1 B,,SP,4B,Read Transaction,01*
0,1651,0:13.741.698,70.100 us,2 B,,SP,4B,Write Transaction,82 01
0,1652,0:13.741.769,325.000 us,11 B,,SP,4B,Read Transaction,01 30 91 32 05 F5 0A 71 00 00 00*
0,1653,0:13.758.041,70.100 us,2 B,,SP,4B,Write Transaction,82 01
0,1654,0:13.758.112,49.800 us,1 B,,SP,4B,Read Transaction,01*
0,1655,0:13.758.163,70.100 us,2 B,,SP,4B,Write Transaction,82 01
0,1656,0:13.758.235,325.200 us,11 B,,SP,4B,Read Transaction,01 30 91 38 05 EF 0A 71 00 00 00*
0,1657,0:13.774.529,70.200 us,2 B,,SP,4B,Write Transaction,82 01
0,1658,0:13.774.601,49.800 us,1 B,,SP,4B,Read Transaction,01*
0,1659,0:13.774.652,70.200 us,2 B,,SP,4B,Write Transaction,82 01
0,1660,0:13.774.723,325.400 us,11 B,,SP,4B,Read Transaction,01 30 91 3E 05 EA 0A 71 00 00 00*
0,1661,0:13.791.022,70.100 us,2 B,,SP,4B,Write Transaction,82 01
0,1662,0:13.791.093,49.800 us,1 B,,SP,4B,Read Transaction,01*
0,1663,0:13.791.144,70.200 us,2 B,,SP,4B,Write Transaction,82 01
0,1664,0:13.791.216,325.200 us,11 B,,SP,4B,Read Transaction,01 30 91 43 05 E5 0A 71 00 00 00*
0,1665,0:13.807.619,70.100 us,2 B,,SP,4B,Write Transaction,82 01
0,1666,0:13.807.691,49.700 us,1 B,,SP,4B,Read Transaction,01*
0,1667,0:13.807.742,70.200 us,2 B,,SP,4B,Write Transaction,82 01
0,1668,0:13.807.813,324.900 us,11 B,,SP,4B,Read Transaction,01 30 91 49 05 E0 0A 71 00 00 00*
0,1669,0:13.824.007,70.100 us,2 B,,SP,4B,Write Transaction,82 01
0,1670,0:13.824.078,49.800 us,1 B,,SP,4B,Read Transaction,01*
0,1671,0:13.824.129,70.100 us,2 B,,SP,4B,Write Transaction,82 01
0,1672,0:13.824.201,325.200 us,11 B,,SP,4B,Read Transaction,01 30 91 4E 05 DC 0A 71 00 00 00*
0,1673,0:13.840.473,70.100 us,2 B,,SP,4B,Write Transaction,82 01
0,1674,0:13.840.545,49.800 us,1 B,,SP,4B,Read Transaction,01*
0,1675,0:13.840.596,70.100 us,2 B,,SP,4B,Write Transaction,82 01
0,1676,0:13.840.667,325.300 us,11 B,,SP,4B,Read Transaction,01 30 91 53 05 D7 0A 71 00 00 00*
0,1677,0:13.858.573,70.100 us,2 B,,SP,4B,Write Transaction,82 01
0,1678,0:13.858.644,49.800 us,1 B,,SP,4B,Read Transaction,01*
0,1679,0:13.858.695,70.100 us,2 B,,SP,4B,Write Transaction,82 01
0,1680,0:13.858.767,325.400 us,11 B,,SP,4B,Read Transaction,01 30 91 59 05 D2 0A 6C 00 00 00*
0,1681,0:13.875.099,70.100 us,2 B,,SP,4B,Write Transaction,82 01
0,1682,0:13.875.171,49.800 us,1 B,,SP,4B,Read Transaction,01*
0,1683,0:13.875.222,70.100 us,2 B,,SP,4B,Write Transaction,82 01
0,1684,0:13.875.293,325.200 us,11 B,,SP,4B,Read Transaction,01 30 91 5E 05 CE 0A 6C 00 00 00*
0,1685,0:13.891.594,70.100 us,2 B,,SP,4B,Write Transaction,82 01
0,1686,0:13.891.666,49.800 us,1 B,,SP,4B,Read Transaction,01*
0,1687,0:13.891.717,70.100 us,2 B,,SP,4B,Write Transaction,82 01
0,1688,0:13.891.788,324.900 us,11 B,,SP,4B,Read Transaction,01 30 91 63 05 CA 0A 6C 00 00 00*
0,1689,0:13.908.090,70.100 us,2 B,,SP,4B,Write Transaction,82 01
0,1690,0:13.908.161,49.700 us,1 B,,SP,4B,Read Transaction,01*
0,1691,0:13.908.212,70.100 us,2 B,,SP,4B,Write Transaction,82 01
0,1692,0:13.908.284,325.000 us,11 B,,SP,4B,Read Transaction,01 30 91 67 05 C6 0A 6C 00 00 00*
0,1693,0:13.924.582,70.100 us,2 B,,SP,4B,Write Transaction,82 01
0,1694,0:13.924.654,49.800 us,1 B,,SP,4B,Read Transaction,01*
0,1695,0:13.924.705,70.100 us,2 B,,SP,4B,Write Transaction,82 01
0,1696,0:13.924.776,325.200 us,11 B,,SP,4B,Read Transaction,01 30 91 6C 05 C2 0A 6C 00 00 00*
0,1697,0:13.941.074,70.100 us,2 B,,SP,4B,Write Transaction,82 01
0,1698,0:13.941.145,49.800 us,1 B,,SP,4B,Read Transaction,01*
0,1699,0:13.941.196,70.100 us,2 B,,SP,4B,Write Transaction,82 01
0,1700,0:13.941.268,325.200 us,11 B,,SP,4B,Read Transaction,01 30 91 6F 05 BF 0A 6C 00 00 00*
0,1701,0:13.957.540,70.200 us,2 B,,SP,4B,Write Transaction,82 01
0,1702,0:13.957.611,49.700 us,1 B,,SP,4B,Read Transaction,01*
0,1703,0:13.957.662,70.100 us,2 B,,SP,4B,Write Transaction,82 01
0,1704,0:13.957.734,325.300 us,11 B,,SP,4B,Read Transaction,01 30 91 73 05 BC 0A 6C 00 00 00*
0,1705,0:13.974.038,70.200 us,2 B,,SP,4B,Write Transaction,82 01
0,1706,0:13.974.109,49.700 us,1 B,,SP,4B,Read Transaction,01*
0,1707,0:13.974.160,70.100 us,2 B,,SP,4B,Write Transaction,82 01
0,1708,0:13.974.232,325.400 us,11 B,,SP,4B,Read Transaction,01 30 91 77 05 BA 0A 6C 00 00 00*
0,1709,0:13.990.534,70.100 us,2 B,,SP,4B,Write Transaction,82 01
0,1710,0:13.990.605,49.800 us,1 B,,SP,4B,Read Transaction,01*
0,1711,0:13.990.656,70.100 us,2 B,,SP,4B,Write Transaction,82 01
0,1712,0:13.990.728,325.400 us,11 B,,SP,4B,Read Transaction,01 30 91 7A 05 B7 0A 6C 00 00 00*
0,1713,0:14.007.129,70.100 us,2 B,,SP,4B,Write Transaction,82 01
0,1714,0:14.007.201,49.800 us,1 B,,SP,4B,Read Transaction,01*
0,1715,0:14.007.252,70.100 us,2 B,,SP,4B,Write Transaction,82 01
0,1716,0:14.007.323,325.300 us,11 B,,SP,4B,Read Transaction,01 30 91 7E 05 B4 0A 6C 00 00 00*
0,1717,0:14.025.179,70.100 us,2 B,,SP,4B,Write Transaction,82 01
0,1718,0:14.025.250,49.800 us,1 B,,SP,4B,Read Transaction,01*
0,1719,0:14.025.301,70.100 us,2 B,,SP,4B,Write Transaction,82 01
0,1720,0:14.025.373,325.300 us,11 B,,SP,4B,Read Transaction,01 30 91 82 05 B1 0A 6C 00 00 00*
0,1721,0:14.041.691,70.100 us,2 B,,SP,4B,Write Transaction,82 01
0,1722,0:14.041.762,49.800 us,1 B,,SP,4B,Read Transaction,01*
0,1723,0:14.041.813,70.100 us,2 B,,SP,4B,Write Transaction,82 01
0,1724,0:14.041.884,325.200 us,11 B,,SP,4B,Read Transaction,01 30 91 86 05 AE 0A 6C 00 00 00*
0,1725,0:14.058.182,70.100 us,2 B,,SP,4B,Write Transaction,82 01
0,1726,0:14.058.253,49.800 us,1 B,,SP,4B,Read Transaction,01*
0,1727,0:14.058.304,70.100 us,2 B,,SP,4B,Write Transaction,82 01
0,1728,0:14.058.376,325.100 us,11 B,,SP,4B,Read Transaction,01 30 91 8A 05 AB 0A 6C 00 00 00*
0,1729,0:14.074.666,70.200 us,2 B,,SP,4B,Write Transaction,82 01
0,1730,0:14.074.738,49.800 us,1 B,,SP,4B,Read Transaction,01*
0,1731,0:14.074.789,70.100 us,2 B,,SP,4B,Write Transaction,82 01
0,1732,0:14.074.860,325.100 us,11 B,,SP,4B,Read Transaction,01 30 91 8F 05 A7 0A 6C 00 00 00*
0,1733,0:14.091.157,70.100 us,2 B,,SP,4B,Write Transaction,82 01
0,1734,0:14.091.229,49.800 us,1 B,,SP,4B,Read Transaction,01*
0,1735,0:14.091.280,70.100 us,2 B,,SP,4B,Write Transaction,82 01
0,1736,0:14.091.351,325.200 us,11 B,,SP,4B,Read Transaction,01 30 91 93 05 A4 0A 6C 00 00 00*
0,1737,0:14.107.646,70.100 us,2 B,,SP,4B,Write Transaction,82 01
0,1738,0:14.107.717,49.800 us,1 B,,SP,4B,Read Transaction,01*
0,1739,0:14.107.768,70.100 us,2 B,,SP,4B,Write Transaction,82 01
0,1740,0:14.107.840,325.300 us,11 B,,SP,4B,Read Transaction,01 30 91 98 05 A1 0A 6C 00 00 00*
0,1741,0:14.124.132,70.100 us,2 B,,SP,4B,Write Transaction,82 01
0,1742,0:14.124.204,49.800 us,1 B,,SP,4B,Read Transaction,01*
0,1743,0:14.124.255,70.100 us,2 B,,SP,4B,Write Transaction,82 01
0,1744,0:14.124.326,325.200 us,11 B,,SP,4B,Read Transaction,01 30 91 9C 05 9D 0A 6C 00 00 00*
0,1745,0:14.140.626,70.100 us,2 B,,SP,4B,Write Transaction,82 01
0,1746,0:14.140.697,49.800 us,1 B,,SP,4B,Read Transaction,01*
0,1747,0:14.140.748,70.200 us,2 B,,SP,4B,Write Transaction,82 01
0,1748,0:14.140.820,325.200 us,11 B,,SP,4B,Read Transaction,01 30 91 A0 05 9A 0A 6C 00 00 00*
0,1749,0:14.157.110,70.100 us,2 B,,SP,4B,Write Transaction,82 01
0,1750,0:14.157.182,49.800 us,1 B,,SP,4B,Read Transaction,01*
0,1751,0:14.157.233,70.100 us,2 B,,SP,4B,Write Transaction,82 01
0,1752,0:14.157.304,325.100 us,11 B,,SP,4B,Read Transaction,01 30 91 A5 05 96 0A 6C 00 00 00*
0,1753,0:14.173.604,70.100 us,2 B,,SP,4B,Write Transaction,82 01
0,1754,0:14.173.675,49.800 us,1 B,,SP,4B,Read Transaction,01*
0,1755,0:14.173.726,70.100 us,2 B,,SP,4B,Write Transaction,82 01
0,1756,0:14.173.798,325.200 us,11 B,,SP,4B,Read Transaction,01 30 91 A9 05 92 0A 6C 00 00 00*
0,1757,0:14.191.678,70.100 us,2 B,,SP,4B,Write Transaction,82 01
0,1758,0:14.191.749,49.800 us,1 B,,SP,4B,Read Transaction,01*
0,1759,0:14.191.800,70.100 us,2 B,,SP,4B,Write Transaction,82 01
0,1760,0:14.191.871,325.400 us,11 B,,SP,4B,Read Transaction,01 30 91 AD 05 8F 0A 6C 00 00 00*
0,1761,0:14.208.317,70.100 us,2 B,,SP,4B,Write Transaction,82 01
0,1762,0:14.208.389,49.800 us,1 B,,SP,4B,Read Transaction,01*
0,1763,0:14.208.440,70.100 us,2 B,,SP,4B,Write Transaction,82 01
0,1764,0:14.208.511,325.200 us,11 B,,SP,4B,Read Transaction,01 30 91 B1 05 8B 0A 6C 00 00 00*
0,1765,0:14.224.693,70.100 us,2 B,,SP,4B,Write Transaction,82 01
0,1766,0:14.224.764,49.800 us,1 B,,SP,4B,Read Transaction,01*
0,1767,0:14.224.816,70.100 us,2 B,,SP,4B,Write Transaction,82 01
0,1768,0:14.224.887,325.100 us,11 B,,SP,4B,Read Transaction,01 30 91 B4 05 88 0A 6C 00 00 00*
0,1769,0:14.241.184,70.100 us,2 B,,SP,4B,Write Transaction,82 01
0,1770,0:14.241.255,49.800 us,1 B,,SP,4B,Read Transaction,01*
0,1771,0:14.241.307,70.100 us,2 B,,SP,4B,Write Transaction,82 01
0,1772,0:14.241.378,325.300 us,11 B,,SP,4B,Read Transaction,01 30 91 B8 05 84 0A 6C 00 00 00*
0,1773,0:14.257.651,70.100 us,2 B,,SP,4B,Write Transaction,82 01
0,1774,0:14.257.722,49.800 us,1 B,,SP,4B,Read Transaction,01*
0,1775,0:14.257.773,70.100 us,2 B,,SP,4B,Write Transaction,82 01
0,1776,0:14.257.845,325.400 us,11 B,,SP,4B,Read Transaction,01 30 91 BC 05 82 0A 6C 00 00 00*
0,1777,0:14.274.145,70.100 us,2 B,,SP,4B,Write Transaction,82 01
0,1778,0:14.274.216,49.800 us,1 B,,SP,4B,Read Transaction,01*
0,1779,0:14.274.267,70.100 us,2 B,,SP,4B,Write Transaction,82 01
0,1780,0:14.274.339,325.400 us,11 B,,SP,4B,Read Transaction,01 30 91 BF 05 7F 0A 6C 00 00 00*
0,1781,0:14.290.639,70.100 us,2 B,,SP,4B,Write Transaction,82 01
0,1782,0:14.290.711,49.800 us,1 B,,SP,4B,Read Transaction,01*
0,1783,0:14.290.762,70.100 us,2 B,,SP,4B,Write Transaction,82 01
0,1784,0:14.290.833,324.900 us,11 B,,SP,4B,Read Transaction,01 30 91 C2 05 7C 0A 6C 00 00 00*
0,1785,0:14.307.135,70.100 us,2 B,,SP,4B,Write Transaction,82 01
0,1786,0:14.307.207,49.800 us,1 B,,SP,4B,Read Transaction,01*
0,1787,0:14.307.258,70.100 us,2 B,,SP,4B,Write Transaction,82 01
0,1788,0:14.307.329,325.200 us,11 B,,SP,4B,Read Transaction,01 30 91 C5 05 7A 0A 6C 00 00 00*
0,1789,0:14.323.602,70.100 us,2 B,,SP,4B,Write Transaction,82 01
0,1790,0:14.323.673,49.800 us,1 B,,SP,4B,Read Transaction,01*
0,1791,0:14.323.725,70.100 us,2 B,,SP,4B,Write Transaction,82 01
0,1792,0:14.323.796,325.200 us,11 B,,SP,4B,Read Transaction,01 30 91 C8 05 77 0A 6C 00 00 00*
0,1793,0:14.340.101,70.100 us,2 B,,SP,4B,Write Transaction,82 01
0,1794,0:14.340.172,49.800 us,1 B,,SP,4B,Read Transaction,01*
0,1795,0:14.340.223,70.100 us,2 B,,SP,4B,Write Transaction,82 01
0,1796,0:14.340.295,325.400 us,11 B,,SP,4B,Read Transaction,01 30 91 CC 05 74 0A 6C 00 00 00*
0,1797,0:14.358.170,70.200 us,2 B,,SP,4B,Write Transaction,82 01
0,1798,0:14.358.241,49.800 us,1 B,,SP,4B,Read Transaction,01*
0,1799,0:14.358.292,70.200 us,2 B,,SP,4B,Write Transaction,82 01
0,1800,0:14.358.363,325.200 us,11 B,,SP,4B,Read Transaction,01 30 91 D0 05 71 0A 6C 00 00 00*
0,1801,0:14.374.693,70.200 us,2 B,,SP,4B,Write Transaction,82 01
0,1802,0:14.374.764,49.800 us,1 B,,SP,4B,Read Transaction,01*
0,1803,0:14.374.815,70.200 us,2 B,,SP,4B,Write Transaction,82 01
0,1804,0:14.374.887,325.200 us,11 B,,SP,4B,Read Transaction,01 30 91 D4 05 6E 0A 6C 00 00 00*
0,1805,0:14.391.289,70.200 us,2 B,,SP,4B,Write Transaction,82 01
0,1806,0:14.391.360,49.700 us,1 B,,SP,4B,Read Transaction,01*
0,1807,0:14.391.411,70.200 us,2 B,,SP,4B,Write Transaction,82 01
0,1808,0:14.391.482,325.300 us,11 B,,SP,4B,Read Transaction,01 30 91 D9 05 6B 0A 6C 00 00 00*
0,1809,0:14.407.685,70.100 us,2 B,,SP,4B,Write Transaction,82 01
0,1810,0:14.407.756,49.800 us,1 B,,SP,4B,Read Transaction,01*
0,1811,0:14.407.807,70.100 us,2 B,,SP,4B,Write Transaction,82 01
0,1812,0:14.407.879,325.100 us,11 B,,SP,4B,Read Transaction,01 30 91 DD 05 68 0A 6C 00 00 00*
0,1813,0:14.424.179,70.200 us,2 B,,SP,4B,Write Transaction,82 01
0,1814,0:14.424.250,49.800 us,1 B,,SP,4B,Read Transaction,01*
0,1815,0:14.424.301,70.200 us,2 B,,SP,4B,Write Transaction,82 01
0,1816,0:14.424.373,325.500 us,11 B,,SP,4B,Read Transaction,01 30 91 E1 05 64 0A 6C 00 00 00*
0,1817,0:14.440.672,70.100 us,2 B,,SP,4B,Write Transaction,82 01
0,1818,0:14.440.744,49.700 us,1 B,,SP,4B,Read Transaction,01*
0,1819,0:14.440.795,70.100 us,2 B,,SP,4B,Write Transaction,82 01
0,1820,0:14.440.866,325.300 us,11 B,,SP,4B,Read Transaction,01 30 91 E6 05 62 0A 71 00 00 00*
0,1821,0:14.457.163,70.100 us,2 B,,SP,4B,Write Transaction,82 01
0,1822,0:14.457.235,49.800 us,1 B,,SP,4B,Read Transaction,01*
0,1823,0:14.457.286,70.100 us,2 B,,SP,4B,Write Transaction,82 01
0,1824,0:14.457.357,325.200 us,11 B,,SP,4B,Read Transaction,01 30 91 EA 05 5F 0A 71 00 00 00*
0,1825,0:14.473.655,70.100 us,2 B,,SP,4B,Write Transaction,82 01
0,1826,0:14.473.726,49.800 us,1 B,,SP,4B,Read Transaction,01*
0,1827,0:14.473.777,70.100 us,2 B,,SP,4B,Write Transaction,82 01
0,1828,0:14.473.848,325.400 us,11 B,,SP,4B,Read Transaction,01 30 91 EF 05 5C 0A 71 00 00 00*
0,1829,0:14.490.121,70.100 us,2 B,,SP,4B,Write Transaction,82 01
0,1830,0:14.490.193,49.800 us,1 B,,SP,4B,Read Transaction,01*
0,1831,0:14.490.244,70.100 us,2 B,,SP,4B,Write Transaction,82 01
0,1832,0:14.490.315,325.300 us,11 B,,SP,4B,Read Transaction,01 30 91 F3 05 59 0A 71 00 00 00*
0,1833,0:14.506.615,70.100 us,2 B,,SP,4B,Write Transaction,82 01
0,1834,0:14.506.686,49.800 us,1 B,,SP,4B,Read Transaction,01*
0,1835,0:14.506.737,70.100 us,2 B,,SP,4B,Write Transaction,82 01
0,1836,0:14.506.808,325.400 us,11 B,,SP,4B,Read Transaction,01 30 91 F8 05 55 0A 71 00 00 00*
0,1837,0:14.524.677,70.100 us,2 B,,SP,4B,Write Transaction,82 01
0,1838,0:14.524.748,49.800 us,1 B,,SP,4B,Read Transaction,01*
0,1839,0:14.524.800,70.100 us,2 B,,SP,4B,Write Transaction,82 01
0,1840,0:14.524.871,325.300 us,11 B,,SP,4B,Read Transaction,01 30 91 FD 05 52 0A 71 00 00 00*
0,1841,0:14.541.171,70.100 us,2 B,,SP,4B,Write Transaction,82 01
0,1842,0:14.541.243,49.800 us,1 B,,SP,4B,Read Transaction,01*
0,1843,0:14.541.294,70.100 us,2 B,,SP,4B,Write Transaction,82 01
0,1844,0:14.541.365,324.900 us,11 B,,SP,4B,Read Transaction,01 30 91 02 06 4E 0A 71 00 00 00*
0,1845,0:14.557.638,70.100 us,2 B,,SP,4B,Write Transaction,82 01
0,1846,0:14.557.709,49.800 us,1 B,,SP,4B,Read Transaction,01*
0,1847,0:14.557.760,70.100 us,2 B,,SP,4B,Write Transaction,82 01
0,1848,0:14.557.831,325.200 us,11 B,,SP,4B,Read Transaction,01 30 91 07 06 4A 0A 71 00 00 00*
0,1849,0:14.574.111,70.100 us,2 B,,SP,4B,Write Transaction,82 01
0,1850,0:14.574.182,49.800 us,1 B,,SP,4B,Read Transaction,01*
0,1851,0:14.574.233,70.100 us,2 B,,SP,4B,Write Transaction,82 01
0,1852,0:14.574.305,325.200 us,11 B,,SP,4B,Read Transaction,01 30 91 0C 06 46 0A 71 00 00 00*
0,1853,0:14.590.696,70.100 us,2 B,,SP,4B,Write Transaction,82 01
0,1854,0:14.590.767,49.800 us,1 B,,SP,4B,Read Transaction,01*
0,1855,0:14.590.819,70.100 us,2 B,,SP,4B,Write Transaction,82 01
0,1856,0:14.590.890,325.400 us,11 B,,SP,4B,Read Transaction,01 30 91 11 06 42 0A 71 00 00 00*
0,1857,0:14.607.097,70.100 us,2 B,,SP,4B,Write Transaction,82 01
0,1858,0:14.607.169,49.800 us,1 B,,SP,4B,Read Transaction,01*
0,1859,0:14.607.220,70.200 us,2 B,,SP,4B,Write Transaction,82 01
0,1860,0:14.607.291,325.300 us,11 B,,SP,4B,Read Transaction,01 30 91 16 06 3F 0A 71 00 00 00*
0,1861,0:14.623.606,70.100 us,2 B,,SP,4B,Write Transaction,82 01
0,1862,0:14.623.677,49.800 us,1 B,,SP,4B,Read Transaction,01*
0,1863,0:14.623.728,70.100 us,2 B,,SP,4B,Write Transaction,82 01
0,1864,0:14.623.800,325.200 us,11 B,,SP,4B,Read Transaction,01 30 91 1B 06 3A 0A 71 00 00 00*
0,1865,0:14.640.097,70.100 us,2 B,,SP,4B,Write Transaction,82 01
0,1866,0:14.640.168,49.800 us,1 B,,SP,4B,Read Transaction,01*
0,1867,0:14.640.219,70.100 us,2 B,,SP,4B,Write Transaction,82 01
0,1868,0:14.640.290,325.100 us,11 B,,SP,4B,Read Transaction,01 30 91 21 06 35 0A 71 00 00 00*
0,1869,0:14.656.583,70.100 us,2 B,,SP,4B,Write Transaction,82 01
0,1870,0:14.656.655,49.800 us,1 B,,SP,4B,Read Transaction,01*
0,1871,0:14.656.706,70.100 us,2 B,,SP,4B,Write Transaction,82 01
0,1872,0:14.656.777,325.300 us,11 B,,SP,4B,Read Transaction,01 30 91 28 06 30 0A 6C 00 00 00*
0,1873,0:14.673.072,70.200 us,2 B,,SP,4B,Write Transaction,82 01
0,1874,0:14.673.143,49.800 us,1 B,,SP,4B,Read Transaction,01*
0,1875,0:14.673.194,70.200 us,2 B,,SP,4B,Write Transaction,82 01
0,1876,0:14.673.266,325.100 us,11 B,,SP,4B,Read Transaction,01 30 91 30 06 2A 0A 6C 00 00 00*
0,1877,0:14.691.165,70.200 us,2 B,,SP,4B,Write Transaction,82 01
0,1878,0:14.691.237,49.700 us,1 B,,SP,4B,Read Transaction,01*
0,1879,0:14.691.288,70.200 us,2 B,,SP,4B,Write Transaction,82 01
0,1880,0:14.691.359,325.500 us,11 B,,SP,4B,Read Transaction,01 30 91 39 06 24 0A 6C 00 00 00*
0,1881,0:14.707.667,70.100 us,2 B,,SP,4B,Write Transaction,82 01
0,1882,0:14.707.738,49.800 us,1 B,,SP,4B,Read Transaction,01*
0,1883,0:14.707.789,70.100 us,2 B,,SP,4B,Write Transaction,82 01
0,1884,0:14.707.861,325.100 us,11 B,,SP,4B,Read Transaction,01 30 91 41 06 1F 0A 6C 00 00 00*
0,1885,0:14.724.157,70.100 us,2 B,,SP,4B,Write Transaction,82 01
0,1886,0:14.724.229,49.800 us,1 B,,SP,4B,Read Transaction,01*
0,1887,0:14.724.280,70.100 us,2 B,,SP,4B,Write Transaction,82 01
0,1888,0:14.724.351,325.300 us,11 B,,SP,4B,Read Transaction,01 30 91 4A 06 19 0A 6C 00 00 00*
0,1889,0:14.740.625,70.200 us,2 B,,SP,4B,Write Transaction,82 01
0,1890,0:14.740.697,49.800 us,1 B,,SP,4B,Read Transaction,01*
0,1891,0:14.740.748,70.200 us,2 B,,SP,4B,Write Transaction,82 01
0,1892,0:14.740.819,325.200 us,11 B,,SP,4B,Read Transaction,01 30 91 51 06 14 0A 71 00 00 00*
0,1893,0:14.757.125,70.100 us,2 B,,SP,4B,Write Transaction,82 01
0,1894,0:14.757.197,49.800 us,1 B,,SP,4B,Read Transaction,01*
0,1895,0:14.757.248,70.100 us,2 B,,SP,4B,Write Transaction,82 01
0,1896,0:14.757.319,325.400 us,11 B,,SP,4B,Read Transaction,01 30 91 58 06 0F 0A 71 00 00 00*
0,1897,0:14.773.617,70.100 us,2 B,,SP,4B,Write Transaction,82 01
0,1898,0:14.773.689,49.800 us,1 B,,SP,4B,Read Transaction,01*
0,1899,0:14.773.740,70.100 us,2 B,,SP,4B,Write Transaction,82 01
0,1900,0:14.773.811,325.000 us,11 B,,SP,4B,Read Transaction,01 30 91 5E 06 0A 0A 71 00 00 00*
0,1901,0:14.790.210,70.100 us,2 B,,SP,4B,Write Transaction,82 01
0,1902,0:14.790.281,49.800 us,1 B,,SP,4B,Read Transaction,01*
0,1903,0:14.790.332,70.100 us,2 B,,SP,4B,Write Transaction,82 01
0,1904,0:14.790.404,325.100 us,11 B,,SP,4B,Read Transaction,01 30 91 64 06 06 0A 71 00 00 00*
0,1905,0:14.806.605,70.100 us,2 B,,SP,4B,Write Transaction,82 01
0,1906,0:14.806.677,49.800 us,1 B,,SP,4B,Read Transaction,01*
0,1907,0:14.806.728,70.100 us,2 B,,SP,4B,Write Transaction,82 01
0,1908,0:14.806.799,325.000 us,11 B,,SP,4B,Read Transaction,01 30 91 69 06 02 0A 71 00 00 00*
0,1909,0:14.823.102,70.200 us,2 B,,SP,4B,Write Transaction,82 01
0,1910,0:14.823.173,49.800 us,1 B,,SP,4B,Read Transaction,01*
0,1911,0:14.823.224,70.200 us,2 B,,SP,4B,Write Transaction,82 01
0,1912,0:14.823.296,325.200 us,11 B,,SP,4B,Read Transaction,01 30 91 6E 06 FE 09 71 00 00 00*
0,1913,0:14.839.601,70.100 us,2 B,,SP,4B,Write Transaction,82 01
0,1914,0:14.839.673,49.800 us,1 B,,SP,4B,Read Transaction,01*
0,1915,0:14.839.724,70.100 us,2 B,,SP,4B,Write Transaction,82 01
0,1916,0:14.839.795,325.200 us,11 B,,SP,4B,Read Transaction,01 30 91 72 06 FA 09 71 00 00 00*
0,1917,0:14.857.758,70.100 us,2 B,,SP,4B,Write Transaction,82 01
0,1918,0:14.857.830,49.800 us,1 B,,SP,4B,Read Transaction,01*
0,1919,0:14.857.881,70.100 us,2 B,,SP,4B,Write Transaction,82 01
0,1920,0:14.857.952,325.200 us,11 B,,SP,4B,Read Transaction,01 30 91 76 06 F7 09 71 00 00 00*
0,1921,0:14.874.283,70.100 us,2 B,,SP,4B,Write Transaction,82 01
0,1922,0:14.874.355,49.800 us,1 B,,SP,4B,Read Transaction,01*
0,1923,0:14.874.406,70.100 us,2 B,,SP,4B,Write Transaction,82 01
0,1924,0:14.874.477,325.000 us,11 B,,SP,4B,Read Transaction,01 30 91 79 06 F5 09 71 00 00 00*
0,1925,0:14.890.753,70.100 us,2 B,,SP,4B,Write Transaction,82 01
0,1926,0:14.890.825,49.700 us,1 B,,SP,4B,Read Transaction,01*
0,1927,0:14.890.876,70.100 us,2 B,,SP,4B,Write Transaction,82 01
0,1928,0:14.890.947,325.200 us,11 B,,SP,4B,Read Transaction,01 30 91 7C 06 F2 09 71 00 00 00*
0,1929,0:14.907.226,70.200 us,2 B,,SP,4B,Write Transaction,82 01
0,1930,0:14.907.297,49.800 us,1 B,,SP,4B,Read Transaction,01*
0,1931,0:14.907.349,70.100 us,2 B,,SP,4B,Write Transaction,82 01
0,1932,0:14.907.420,325.300 us,11 B,,SP,4B,Read Transaction,01 30 91 7F 06 EF 09 71 00 00 00*
0,1933,0:14.923.696,70.200 us,2 B,,SP,4B,Write Transaction,82 01
0,1934,0:14.923.767,49.700 us,1 B,,SP,4B,Read Transaction,01*
0,1935,0:14.923.818,70.200 us,2 B,,SP,4B,Write Transaction,82 01
0,1936,0:14.923.890,325.200 us,11 B,,SP,4B,Read Transaction,01 30 91 82 06 ED 09 71 00 00 00*
0,1937,0:14.940.165,70.100 us,2 B,,SP,4B,Write Transaction,82 01
0,1938,0:14.940.237,49.800 us,1 B,,SP,4B,Read Transaction,01*
0,1939,0:14.940.288,70.100 us,2 B,,SP,4B,Write Transaction,82 01
0,1940,0:14.940.359,325.500 us,11 B,,SP,4B,Read Transaction,01 30 91 85 06 EA 09 71 00 00 00*
0,1941,0:14.956.658,70.100 us,2 B,,SP,4B,Write Transaction,82 01
0,1942,0:14.956.730,49.800 us,1 B,,SP,4B,Read Transaction,01*
0,1943,0:14.956.781,70.100 us,2 B,,SP,4B,Write Transaction,82 01
0,1944,0:14.956.852,325.000 us,11 B,,SP,4B,Read Transaction,01 30 91 87 06 E8 09 71 00 00 00*
0,1945,0:14.973.154,70.200 us,2 B,,SP,4B,Write Transaction,82 01
0,1946,0:14.973.226,49.800 us,1 B,,SP,4B,Read Transaction,01*
0,1947,0:14.973.277,70.200 us,2 B,,SP,4B,Write Transaction,82 01
0,1948,0:14.973.348,325.300 us,11 B,,SP,4B,Read Transaction,01 30 91 8A 06 E5 09 71 00 00 00*
0,1949,0:14.989.760,70.100 us,2 B,,SP,4B,Write Transaction,82 01
0,1950,0:14.989.831,49.800 us,1 B,,SP,4B,Read Transaction,01*
0,1951,0:14.989.882,70.100 us,2 B,,SP,4B,Write Transaction,82 01
0,1952,0:14.989.954,325.100 us,11 B,,SP,4B,Read Transaction,01 30 91 8C 06 E3 09 71 00 00 00*
0,1953,0:15.006.112,70.200 us,2 B,,SP,4B,Write Transaction,82 01
0,1954,0:15.006.183,49.700 us,1 B,,SP,4B,Read Transaction,01*
0,1955,0:15.006.234,70.200 us,2 B,,SP,4B,Write Transaction,82 01
0,1956,0:15.006.306,324.900 us,11 B,,SP,4B,Read Transaction,01 30 91 8F 06 E1 09 71 00 00 00*
0,1957,0:15.023.284,70.100 us,2 B,,SP,4B,Write Transaction,82 01
0,1958,0:15.023.355,49.800 us,1 B,,SP,4B,Read Transaction,01*
0,1959,0:15.023.406,70.100 us,2 B,,SP,4B,Write Transaction,82 01
0,1960,0:15.023.478,318.500 us,11 B,,SP,4B,Read Transaction,01 29 12 02 06 01 01 16 00 00 00*
0,1961,0:15.024.333,70.100 us,2 B,,SP,4B,Write Transaction,82 01
0,1962,0:15.024.405,49.700 us,1 B,,SP,4B,Read Transaction,01*
0,1963,0:15.024.456,70.200 us,2 B,,SP,4B,Write Transaction,82 01
0,1964,0:15.024.527,325.100 us,11 B,,SP,4B,Read Transaction,01 30 91 91 06 DF 09 71 00 00 00*
0,1965,0:15.040.760,70.100 us,2 B,,SP,4B,Write Transaction,82 01
0,1966,0:15.040.832,49.800 us,1 B,,SP,4B,Read Transaction,01*
0,1967,0:15.040.883,70.100 us,2 B,,SP,4B,Write Transaction,82 01
0,1968,0:15.040.954,325.300 us,11 B,,SP,4B,Read Transaction,01 30 91 93 06 DD 09 71 00 00 00*
0,1969,0:15.057.230,70.200 us,2 B,,SP,4B,Write Transaction,82 01
0,1970,0:15.057.301,49.800 us,1 B,,SP,4B,Read Transaction,01*
0,1971,0:15.057.353,70.200 us,2 B,,SP,4B,Write Transaction,82 01
0,1972,0:15.057.424,325.400 us,11 B,,SP,4B,Read Transaction,01 30 91 96 06 DA 09 71 00 00 00*
0,1973,0:15.073.725,70.100 us,2 B,,SP,4B,Write Transaction,82 01
0,1974,0:15.073.797,49.800 us,1 B,,SP,4B,Read Transaction,01*
0,1975,0:15.073.848,70.100 us,2 B,,SP,4B,Write Transaction,82 01
0,1976,0:15.073.919,325.300 us,11 B,,SP,4B,Read Transaction,01 30 91 98 06 D7 09 71 00 00 00*
0,1977,0:15.090.218,70.100 us,2 B,,SP,4B,Write Transaction,82 01
0,1978,0:15.090.289,49.800 us,1 B,,SP,4B,Read Transaction,01*
0,1979,0:15.090.340,70.100 us,2 B,,SP,4B,Write Transaction,82 01
0,1980,0:15.090.412,325.200 us,11 B,,SP,4B,Read Transaction,01 30 91 9B 06 D5 09 6C 00 00 00*
0,1981,0:15.106.688,70.200 us,2 B,,SP,4B,Write Transaction,82 01
0,1982,0:15.106.759,49.800 us,1 B,,SP,4B,Read Transaction,01*
0,1983,0:15.106.810,70.100 us,2 B,,SP,4B,Write Transaction,82 01
0,1984,0:15.106.881,325.400 us,11 B,,SP,4B,Read Transaction,01 30 91 9F 06 D2 09 6C 00 00 00*
0,1985,0:15.123.182,70.100 us,2 B,,SP,4B,Write Transaction,82 01
0,1986,0:15.123.253,49.800 us,1 B,,SP,4B,Read Transaction,01*
0,1987,0:15.123.304,70.100 us,2 B,,SP,4B,Write Transaction,82 01
0,1988,0:15.123.376,325.200 us,11 B,,SP,4B,Read Transaction,01 30 91 A2 06 CF 09 6C 00 00 00*
0,1989,0:15.139.672,70.200 us,2 B,,SP,4B,Write Transaction,82 01
0,1990,0:15.139.743,49.800 us,1 B,,SP,4B,Read Transaction,01*
0,1991,0:15.139.794,70.200 us,2 B,,SP,4B,Write Transaction,82 01
0,1992,0:15.139.865,325.100 us,11 B,,SP,4B,Read Transaction,01 30 91 A6 06 CB 09 6C 00 00 00*
0,1993,0:15.156.164,70.100 us,2 B,,SP,4B,Write Transaction,82 01
0,1994,0:15.156.236,49.800 us,1 B,,SP,4B,Read Transaction,01*
0,1995,0:15.156.287,70.200 us,2 B,,SP,4B,Write Transaction,82 01
0,1996,0:15.156.358,325.300 us,11 B,,SP,4B,Read Transaction,01 30 91 AB 06 C7 09 6C 00 00 00*
0,1997,0:15.172.756,70.100 us,2 B,,SP,4B,Write Transaction,82 01
0,1998,0:15.172.827,49.700 us,1 B,,SP,4B,Read Transaction,01*
0,1999,0:15.172.878,70.200 us,2 B,,SP,4B,Write Transaction,82 01
0,2000,0:15.172.950,325.300 us,11 B,,SP,4B,Read Transaction,01 30 91 AF 06 C5 09 6C 00 00 00*
0,2001,0:15.190.722,70.100 us,2 B,,SP,4B,Write Transaction,82 01
0,2002,0:15.190.794,49.800 us,1 B,,SP,4B,Read Transaction,01*
0,2003,0:15.190.845,70.100 us,2 B,,SP,4B,Write Transaction,82 01
0,2004,0:15.190.916,325.300 us,11 B,,SP,4B,Read Transaction,01 30 91 B3 06 C1 09 6C 00 00 00*
0,2005,0:15.207.247,70.100 us,2 B,,SP,4B,Write Transaction,82 01
0,2006,0:15.207.318,49.800 us,1 B,,SP,4B,Read Transaction,01*
0,2007,0:15.207.370,70.200 us,2 B,,SP,4B,Write Transaction,82 01
0,2008,0:15.207.441,325.200 us,11 B,,SP,4B,Read Transaction,01 30 91 B8 06 BE 09 6C 00 00 00*
0,2009,0:15.223.712,70.100 us,2 B,,SP,4B,Write Transaction,82 01
0,2010,0:15.223.784,49.800 us,1 B,,SP,4B,Read Transaction,01*
0,2011,0:15.223.835,70.100 us,2 B,,SP,4B,Write Transaction,82 01
0,2012,0:15.223.906,325.400 us,11 B,,SP,4B,Read Transaction,01 30 91 BC 06 BB 09 71 00 00 00*
0,2013,0:15.240.183,70.100 us,2 B,,SP,4B,Write Transaction,82 01
0,2014,0:15.240.255,49.800 us,1 B,,SP,4B,Read Transaction,01*
0,2015,0:15.240.306,70.100 us,2 B,,SP,4B,Write Transaction,82 01
0,2016,0:15.240.377,325.200 us,11 B,,SP,4B,Read Transaction,01 30 91 C0 06 B8 09 71 00 00 00*
0,2017,0:15.256.680,70.200 us,2 B,,SP,4B,Write Transaction,82 01
0,2018,0:15.256.752,49.800 us,1 B,,SP,4B,Read Transaction,01*
0,2019,0:15.256.803,70.100 us,2 B,,SP,4B,Write Transaction,82 01
0,2020,0:15.256.874,325.300 us,11 B,,SP,4B,Read Transaction,01 30 91 C3 06 B5 09 71 00 00 00*
0,2021,0:15.273.160,70.100 us,2 B,,SP,4B,Write Transaction,82 01
0,2022,0:15.273.231,49.800 us,1 B,,SP,4B,Read Transaction,01*
0,2023,0:15.273.282,70.100 us,2 B,,SP,4B,Write Transaction,82 01
0,2024,0:15.273.354,325.300 us,11 B,,SP,4B,Read Transaction,01 30 91 C8 06 B2 09 71 00 00 00*
0,2025,0:15.289.654,70.100 us,2 B,,SP,4B,Write Transaction,82 01
0,2026,0:15.289.725,49.800 us,1 B,,SP,4B,Read Transaction,01*
0,2027,0:15.289.776,70.100 us,2 B,,SP,4B,Write Transaction,82 01
0,2028,0:15.289.848,325.000 us,11 B,,SP,4B,Read Transaction,01 30 91 CC 06 AF 09 71 00 00 00*
0,2029,0:15.306.099,70.100 us,2 B,,SP,4B,Write Transaction,82 01
0,2030,0:15.306.170,49.800 us,1 B,,SP,4B,Read Transaction,01*
0,2031,0:15.306.221,70.100 us,2 B,,SP,4B,Write Transaction,82 01
0,2032,0:15.306.293,324.900 us,11 B,,SP,4B,Read Transaction,01 30 91 CF 06 AC 09 71 00 00 00*
0,2033,0:15.322.596,70.100 us,2 B,,SP,4B,Write Transaction,82 01
0,2034,0:15.322.667,49.800 us,1 B,,SP,4B,Read Transaction,01*
0,2035,0:15.322.718,70.100 us,2 B,,SP,4B,Write Transaction,82 01
0,2036,0:15.322.789,324.900 us,11 B,,SP,4B,Read Transaction,01 30 91 D3 06 A8 09 71 00 00 00*
0,2037,0:15.339.059,70.100 us,2 B,,SP,4B,Write Transaction,82 01
0,2038,0:15.339.130,49.800 us,1 B,,SP,4B,Read Transaction,01*
0,2039,0:15.339.181,70.100 us,2 B,,SP,4B,Write Transaction,82 01
0,2040,0:15.339.253,324.900 us,11 B,,SP,4B,Read Transaction,01 30 91 D6 06 A5 09 71 00 00 00*
0,2041,0:15.357.128,70.100 us,2 B,,SP,4B,Write Transaction,82 01
0,2042,0:15.357.199,49.800 us,1 B,,SP,4B,Read Transaction,01*
0,2043,0:15.357.250,70.100 us,2 B,,SP,4B,Write Transaction,82 01
0,2044,0:15.357.322,325.000 us,11 B,,SP,4B,Read Transaction,01 30 91 D9 06 A2 09 71 00 00 00*
0,2045,0:15.373.733,70.100 us,2 B,,SP,4B,Write Transaction,82 01
0,2046,0:15.373.805,49.800 us,1 B,,SP,4B,Read Transaction,01*
0,2047,0:15.373.856,70.100 us,2 B,,SP,4B,Write Transaction,82 01
0,2048,0:15.373.927,325.300 us,11 B,,SP,4B,Read Transaction,01 30 91 DC 06 9F 09 71 00 00 00*
0,2049,0:15.390.116,70.100 us,2 B,,SP,4B,Write Transaction,82 01
0,2050,0:15.390.188,49.800 us,1 B,,SP,4B,Read Transaction,01*
0,2051,0:15.390.239,70.100 us,2 B,,SP,4B,Write Transaction,82 01
0,2052,0:15.390.310,325.000 us,11 B,,SP,4B,Read Transaction,01 30 91 DF 06 9C 09 71 00 00 00*
0,2053,0:15.406.609,70.100 us,2 B,,SP,4B,Write Transaction,82 01
0,2054,0:15.406.681,49.800 us,1 B,,SP,4B,Read Transaction,01*
0,2055,0:15.406.732,70.100 us,2 B,,SP,4B,Write Transaction,82 01
0,2056,0:15.406.803,325.400 us,11 B,,SP,4B,Read Transaction,01 30 91 E2 06 99 09 71 00 00 00*
0,2057,0:15.423.101,70.100 us,2 B,,SP,4B,Write Transaction,82 01
0,2058,0:15.423.172,49.800 us,1 B,,SP,4B,Read Transaction,01*
0,2059,0:15.423.223,70.100 us,2 B,,SP,4B,Write Transaction,82 01
0,2060,0:15.423.295,325.400 us,11 B,,SP,4B,Read Transaction,01 30 91 E4 06 96 09 71 00 00 00*
0,2061,0:15.439.594,70.100 us,2 B,,SP,4B,Write Transaction,82 01
0,2062,0:15.439.666,49.800 us,1 B,,SP,4B,Read Transaction,01*
0,2063,0:15.439.717,70.100 us,2 B,,SP,4B,Write Transaction,82 01
0,2064,0:15.439.788,325.400 us,11 B,,SP,4B,Read Transaction,01 30 91 E7 06 94 09 71 00 00 00*
0,2065,0:15.456.085,70.100 us,2 B,,SP,4B,Write Transaction,82 01
0,2066,0:15.456.157,49.700 us,1 B,,SP,4B,Read Transaction,01*
0,2067,0:15.456.208,70.100 us,2 B,,SP,4B,Write Transaction,82 01
0,2068,0:15.456.279,325.400 us,11 B,,SP,4B,Read Transaction,01 30 91 E9 06 92 09 71 00 00 00*
0,2069,0:15.472.575,70.100 us,2 B,,SP,4B,Write Transaction,82 01
0,2070,0:15.472.646,49.700 us,1 B,,SP,4B,Read Transaction,01*
0,2071,0:15.472.697,70.200 us,2 B,,SP,4B,Write Transaction,82 01
0,2072,0:15.472.768,325.400 us,11 B,,SP,4B,Read Transaction,01 30 91 EB 06 8F 09 71 00 00 00*
0,2073,0:15.489.069,70.100 us,2 B,,SP,4B,Write Transaction,82 01
0,2074,0:15.489.140,49.800 us,1 B,,SP,4B,Read Transaction,01*
0,2075,0:15.489.192,70.100 us,2 B,,SP,4B,Write Transaction,82 01
0,2076,0:15.489.263,325.300 us,11 B,,SP,4B,Read Transaction,01 30 91 ED 06 8D 09 71 00 00 00*
0,2077,0:15.505.567,70.200 us,2 B,,SP,4B,Write Transaction,82 01
0,2078,0:15.505.638,49.800 us,1 B,,SP,4B,Read Transaction,01*
0,2079,0:15.505.690,70.200 us,2 B,,SP,4B,Write Transaction,82 01
0,2080,0:15.505.761,325.000 us,11 B,,SP,4B,Read Transaction,01 30 91 EF 06 8B 09 71 00 00 00*
0,2081,0:15.523.669,70.100 us,2 B,,SP,4B,Write Transaction,82 01
0,2082,0:15.523.740,49.700 us,1 B,,SP,4B,Read Transaction,01*
0,2083,0:15.523.791,70.200 us,2 B,,SP,4B,Write Transaction,82 01
0,2084,0:15.523.862,325.300 us,11 B,,SP,4B,Read Transaction,01 30 91 F1 06 89 09 71 00 00 00*
0,2085,0:15.540.166,70.100 us,2 B,,SP,4B,Write Transaction,82 01
0,2086,0:15.540.237,49.800 us,1 B,,SP,4B,Read Transaction,01*
0,2087,0:15.540.288,70.100 us,2 B,,SP,4B,Write Transaction,82 01
0,2088,0:15.540.360,325.400 us,11 B,,SP,4B,Read Transaction,01 30 91 F2 06 87 09 71 00 00 00*
0,2089,0:15.556.663,70.100 us,2 B,,SP,4B,Write Transaction,82 01
0,2090,0:15.556.735,49.800 us,1 B,,SP,4B,Read Transaction,01*
0,2091,0:15.556.786,70.100 us,2 B,,SP,4B,Write Transaction,82 01
0,2092,0:15.556.857,325.300 us,11 B,,SP,4B,Read Transaction,01 30 91 F4 06 85 09 71 00 00 00*
0,2093,0:15.573.249,70.100 us,2 B,,SP,4B,Write Transaction,82 01
0,2094,0:15.573.320,49.800 us,1 B,,SP,4B,Read Transaction,01*
0,2095,0:15.573.371,70.100 us,2 B,,SP,4B,Write Transaction,82 01
0,2096,0:15.573.443,325.100 us,11 B,,SP,4B,Read Transaction,01 30 91 F6 06 83 09 71 00 00 00*
0,2097,0:15.589.621,70.100 us,2 B,,SP,4B,Write Transaction,82 01
0,2098,0:15.589.693,49.800 us,1 B,,SP,4B,Read Transaction,01*
0,2099,0:15.589.744,70.100 us,2 B,,SP,4B,Write Transaction,82 01
0,2100,0:15.589.815,325.300 us,11 B,,SP,4B,Read Transaction,01 30 91 F8 06 81 09 71 00 00 00*
0,2101,0:15.606.116,70.100 us,2 B,,SP,4B,Write Transaction,82 01
0,2102,0:15.606.187,49.800 us,1 B,,SP,4B,Read Transaction,01*
0,2103,0:15.606.238,70.200 us,2 B,,SP,4B,Write Transaction,82 01
0,2104,0:15.606.310,325.500 us,11 B,,SP,4B,Read Transaction,01 30 91 FA 06 7F 09 71 00 00 00*
0,2105,0:15.622.608,70.200 us,2 B,,SP,4B,Write Transaction,82 01
0,2106,0:15.622.680,49.800 us,1 B,,SP,4B,Read Transaction,01*
0,2107,0:15.622.731,70.200 us,2 B,,SP,4B,Write Transaction,82 01
0,2108,0:15.622.802,324.900 us,11 B,,SP,4B,Read Transaction,01 30 91 FC 06 7D 09 71 00 00 00*
0,2109,0:15.639.101,70.100 us,2 B,,SP,4B,Write Transaction,82 01
0,2110,0:15.639.172,49.800 us,1 B,,SP,4B,Read Transaction,01*
0,2111,0:15.639.223,70.100 us,2 B,,SP,4B,Write Transaction,82 01
0,2112,0:15.639.295,325.300 us,11 B,,SP,4B,Read Transaction,01 30 91 FE 06 7A 09 71 00 00 00*
0,2113,0:15.655.617,70.100 us,2 B,,SP,4B,Write Transaction,82 01
0,2114,0:15.655.688,49.800 us,1 B,,SP,4B,Read Transaction,01*
0,2115,0:15.655.740,70.100 us,2 B,,SP,4B,Write Transaction,82 01
0,2116,0:15.655.811,325.100 us,11 B,,SP,4B,Read Transaction,01 30 91 01 07 78 09 71 00 00 00*
0,2117,0:15.672.113,70.100 us,2 B,,SP,4B,Write Transaction,82 01
0,2118,0:15.672.185,49.800 us,1 B,,SP,4B,Read Transaction,01*
0,2119,0:15.672.236,70.100 us,2 B,,SP,4B,Write Transaction,82 01
0,2120,0:15.672.307,325.300 us,11 B,,SP,4B,Read Transaction,01 30 91 03 07 76 09 71 00 00 00*
0,2121,0:15.690.272,70.100 us,2 B,,SP,4B,Write Transaction,82 01
0,2122,0:15.690.343,49.800 us,1 B,,SP,4B,Read Transaction,01*
0,2123,0:15.690.395,70.100 us,2 B,,SP,4B,Write Transaction,82 01
0,2124,0:15.690.466,325.200 us,11 B,,SP,4B,Read Transaction,01 30 91 06 07 73 09 71 00 00 00*
0,2125,0:15.706.797,70.100 us,2 B,,SP,4B,Write Transaction,82 01
0,2126,0:15.706.869,49.800 us,1 B,,SP,4B,Read Transaction,01*
0,2127,0:15.706.920,70.100 us,2 B,,SP,4B,Write Transaction,82 01
0,2128,0:15.706.991,324.900 us,11 B,,SP,4B,Read Transaction,01 30 91 08 07 71 09 71 00 00 00*
0,2129,0:15.723.285,70.100 us,2 B,,SP,4B,Write Transaction,82 01
0,2130,0:15.723.356,49.800 us,1 B,,SP,4B,Read Transaction,01*
0,2131,0:15.723.407,70.100 us,2 B,,SP,4B,Write Transaction,82 01
0,2132,0:15.723.478,325.200 us,11 B,,SP,4B,Read Transaction,01 30 91 0C 07 6E 09 71 00 00 00*
0,2133,0:15.739.775,70.100 us,2 B,,SP,4B,Write Transaction,82 01
0,2134,0:15.739.847,49.800 us,1 B,,SP,4B,Read Transaction,01*
0,2135,0:15.739.898,70.100 us,2 B,,SP,4B,Write Transaction,82 01
0,2136,0:15.739.969,325.300 us,11 B,,SP,4B,Read Transaction,01 30 91 0F 07 6B 09 71 00 00 00*
0,2137,0:15.756.268,70.100 us,2 B,,SP,4B,Write Transaction,82 01
0,2138,0:15.756.340,49.700 us,1 B,,SP,4B,Read Transaction,01*
0,2139,0:15.756.391,70.200 us,2 B,,SP,4B,Write Transaction,82 01
0,2140,0:15.756.462,325.200 us,11 B,,SP,4B,Read Transaction,01 30 91 13 07 68 09 71 00 00 00*
0,2141,0:15.772.880,70.100 us,2 B,,SP,4B,Write Transaction,82 01
0,2142,0:15.772.951,49.800 us,1 B,,SP,4B,Read Transaction,01*
0,2143,0:15.773.002,70.100 us,2 B,,SP,4B,Write Transaction,82 01
0,2144,0:15.773.074,325.300 us,11 B,,SP,4B,Read Transaction,01 30 91 18 07 65 09 71 00 00 00*
0,2145,0:15.789.227,70.100 us,2 B,,SP,4B,Write Transaction,82 01
0,2146,0:15.789.298,49.800 us,1 B,,SP,4B,Read Transaction,01*
0,2147,0:15.789.349,70.100 us,2 B,,SP,4B,Write Transaction,82 01
0,2148,0:15.789.421,325.000 us,11 B,,SP,4B,Read Transaction,01 30 91 1C 07 61 09 71 00 00 00*
0,2149,0:15.805.713,70.100 us,2 B,,SP,4B,Write Transaction,82 01
0,2150,0:15.805.784,49.800 us,1 B,,SP,4B,Read Transaction,01*
0,2151,0:15.805.835,70.100 us,2 B,,SP,4B,Write Transaction,82 01
0,2152,0:15.805.907,325.200 us,11 B,,SP,4B,Read Transaction,01 30 91 22 07 5D 09 71 00 00 00*
0,2153,0:15.822.209,70.100 us,2 B,,SP,4B,Write Transaction,82 01
0,2154,0:15.822.280,49.800 us,1 B,,SP,4B,Read Transaction,01*
0,2155,0:15.822.331,70.100 us,2 B,,SP,4B,Write Transaction,82 01
0,2156,0:15.822.402,325.200 us,11 B,,SP,4B,Read Transaction,01 30 91 27 07 59 09 71 00 00 00*
0,2157,0:15.838.703,70.100 us,2 B,,SP,4B,Write Transaction,82 01
0,2158,0:15.838.774,49.800 us,1 B,,SP,4B,Read Transaction,01*
0,2159,0:15.838.826,70.100 us,2 B,,SP,4B,Write Transaction,82 01
0,2160,0:15.838.897,325.400 us,11 B,,SP,4B,Read Transaction,01 30 91 2C 07 55 09 71 00 00 00*
0,2161,0:15.856.761,70.200 us,2 B,,SP,4B,Write Transaction,82 01
0,2162,0:15.856.832,49.800 us,1 B,,SP,4B,Read Transaction,01*
0,2163,0:15.856.884,70.200 us,2 B,,SP,4B,Write Transaction,82 01
0,2164,0:15.856.955,325.400 us,11 B,,SP,4B,Read Transaction,01 30 91 30 07 51 09 71 00 00 00*
0,2165,0:15.873.285,70.200 us,2 B,,SP,4B,Write Transaction,82 01
0,2166,0:15.873.356,49.800 us,1 B,,SP,4B,Read Transaction,01*
0,2167,0:15.873.408,70.200 us,2 B,,SP,4B,Write Transaction,82 01
0,2168,0:15.873.479,325.100 us,11 B,,SP,4B,Read Transaction,01 30 91 34 07 4D 09 71 00 00 00*
0,2169,0:15.889.753,70.200 us,2 B,,SP,4B,Write Transaction,82 01
0,2170,0:15.889.824,49.800 us,1 B,,SP,4B,Read Transaction,01*
0,2171,0:15.889.875,70.200 us,2 B,,SP,4B,Write Transaction,82 01
0,2172,0:15.889.947,325.200 us,11 B,,SP,4B,Read Transaction,01 30 91 38 07 4A 09 71 00 00 00*
0,2173,0:15.906.220,70.100 us,2 B,,SP,4B,Write Transaction,82 01
0,2174,0:15.906.292,49.700 us,1 B,,SP,4B,Read Transaction,01*
0,2175,0:15.906.343,70.100 us,2 B,,SP,4B,Write Transaction,82 01
0,2176,0:15.906.414,325.400 us,11 B,,SP,4B,Read Transaction,01 30 91 3C 07 45 09 71 00 00 00*
0,2177,0:15.922.707,70.200 us,2 B,,SP,4B,Write Transaction,82 01
0,2178,0:15.922.779,49.800 us,1 B,,SP,4B,Read Transaction,01*
0,2179,0:15.922.830,70.200 us,2 B,,SP,4B,Write Transaction,82 01
0,2180,0:15.922.901,325.100 us,11 B,,SP,4B,Read Transaction,01 30 91 41 07 41 09 71 00 00 00*
0,2181,0:15.939.200,70.100 us,2 B,,SP,4B,Write Transaction,82 01
0,2182,0:15.939.271,49.800 us,1 B,,SP,4B,Read Transaction,01*
0,2183,0:15.939.322,70.100 us,2 B,,SP,4B,Write Transaction,82 01
0,2184,0:15.939.394,325.100 us,11 B,,SP,4B,Read Transaction,01 30 91 44 07 3D 09 71 00 00 00*
0,2185,0:15.955.807,70.100 us,2 B,,SP,4B,Write Transaction,82 01
0,2186,0:15.955.879,49.700 us,1 B,,SP,4B,Read Transaction,01*
0,2187,0:15.955.930,70.200 us,2 B,,SP,4B,Write Transaction,82 01
0,2188,0:15.956.001,325.400 us,11 B,,SP,4B,Read Transaction,01 30 91 47 07 3A 09 71 00 00 00*
0,2189,0:15.972.198,70.100 us,2 B,,SP,4B,Write Transaction,82 01
0,2190,0:15.972.269,49.800 us,1 B,,SP,4B,Read Transaction,01*
0,2191,0:15.972.320,70.100 us,2 B,,SP,4B,Write Transaction,82 01
0,2192,0:15.972.391,325.100 us,11 B,,SP,4B,Read Transaction,01 30 91 4A 07 37 09 71 00 00 00*
0,2193,0:15.988.694,70.100 us,2 B,,SP,4B,Write Transaction,82 01
0,2194,0:15.988.765,49.800 us,1 B,,SP,4B,Read Transaction,01*
0,2195,0:15.988.816,70.100 us,2 B,,SP,4B,Write Transaction,82 01
0,2196,0:15.988.888,325.400 us,11 B,,SP,4B,Read Transaction,01 30 91 4E 07 32 09 71 00 00 00*
0,2197,0:16.005.167,70.100 us,2 B,,SP,4B,Write Transaction,82 01
0,2198,0:16.005.238,49.800 us,1 B,,SP,4B,Read Transaction,01*
0,2199,0:16.005.289,70.100 us,2 B,,SP,4B,Write Transaction,82 01
0,2200,0:16.005.361,325.100 us,11 B,,SP,4B,Read Transaction,01 30 91 51 07 2F 09 71 00 00 00*
0,2201,0:16.023.232,70.100 us,2 B,,SP,4B,Write Transaction,82 01
0,2202,0:16.023.304,49.800 us,1 B,,SP,4B,Read Transaction,01*
0,2203,0:16.023.355,70.100 us,2 B,,SP,4B,Write Transaction,82 01
0,2204,0:16.023.426,325.100 us,11 B,,SP,4B,Read Transaction,01 30 91 54 07 2A 09 71 00 00 00*
0,2205,0:16.039.732,70.100 us,2 B,,SP,4B,Write Transaction,82 01
0,2206,0:16.039.803,49.800 us,1 B,,SP,4B,Read Transaction,01*
0,2207,0:16.039.854,70.100 us,2 B,,SP,4B,Write Transaction,82 01
0,2208,0:16.039.926,325.200 us,11 B,,SP,4B,Read Transaction,01 30 91 58 07 26 09 71 00 00 00*
0,2209,0:16.056.202,70.100 us,2 B,,SP,4B,Write Transaction,82 01
0,2210,0:16.056.273,49.800 us,1 B,,SP,4B,Read Transaction,01*
0,2211,0:16.056.324,70.100 us,2 B,,SP,4B,Write Transaction,82 01
0,2212,0:16.056.396,325.300 us,11 B,,SP,4B,Read Transaction,01 30 91 5C 07 21 09 71 00 00 00*
0,2213,0:16.072.670,70.100 us,2 B,,SP,4B,Write Transaction,82 01
0,2214,0:16.072.741,49.800 us,1 B,,SP,4B,Read Transaction,01*
0,2215,0:16.072.792,70.100 us,2 B,,SP,4B,Write Transaction,82 01
0,2216,0:16.072.863,325.300 us,11 B,,SP,4B,Read Transaction,01 30 91 60 07 1C 09 71 00 00 00*
0,2217,0:16.089.164,70.100 us,2 B,,SP,4B,Write Transaction,82 01
0,2218,0:16.089.235,49.800 us,1 B,,SP,4B,Read Transaction,01*
0,2219,0:16.089.286,70.100 us,2 B,,SP,4B,Write Transaction,82 01
0,2220,0:16.089.358,325.100 us,11 B,,SP,4B,Read Transaction,01 30 91 63 07 17 09 71 00 00 00*
0,2221,0:16.105.657,70.100 us,2 B,,SP,4B,Write Transaction,82 01
0,2222,0:16.105.729,49.800 us,1 B,,SP,4B,Read Transaction,01*
0,2223,0:16.105.780,70.100 us,2 B,,SP,4B,Write Transaction,82 01
0,2224,0:16.105.851,325.300 us,11 B,,SP,4B,Read Transaction,01 30 91 68 07 12 09 71 00 00 00*
0,2225,0:16.122.150,70.100 us,2 B,,SP,4B,Write Transaction,82 01
0,2226,0:16.122.221,49.800 us,1 B,,SP,4B,Read Transaction,01*
0,2227,0:16.122.272,70.100 us,2 B,,SP,4B,Write Transaction,82 01
0,2228,0:16.122.343,325.100 us,11 B,,SP,4B,Read Transaction,01 30 91 6C 07 0D 09 71 00 00 00*
0,2229,0:16.138.636,70.100 us,2 B,,SP,4B,Write Transaction,82 01
0,2230,0:16.138.708,49.800 us,1 B,,SP,4B,Read Transaction,01*
0,2231,0:16.138.759,70.200 us,2 B,,SP,4B,Write Transaction,82 01
0,2232,0:16.138.830,325.300 us,11 B,,SP,4B,Read Transaction,01 30 91 70 07 07 09 71 00 00 00*
0,2233,0:16.155.237,70.200 us,2 B,,SP,4B,Write Transaction,82 01
0,2234,0:16.155.309,49.800 us,1 B,,SP,4B,Read Transaction,01*
0,2235,0:16.155.360,70.200 us,2 B,,SP,4B,Write Transaction,82 01
0,2236,0:16.155.431,325.200 us,11 B,,SP,4B,Read Transaction,01 30 91 75 07 02 09 6C 00 00 00*
0,2237,0:16.171.601,70.200 us,2 B,,SP,4B,Write Transaction,82 01
0,2238,0:16.171.673,49.900 us,1 B,,SP,4B,Read Transaction,01*
0,2239,0:16.171.724,70.100 us,2 B,,SP,4B,Write Transaction,82 01
0,2240,0:16.171.795,325.500 us,11 B,,SP,4B,Read Transaction,01 30 91 7A 07 FD 08 6C 00 00 00*
0,2241,0:16.189.688,70.200 us,2 B,,SP,4B,Write Transaction,82 01
0,2242,0:16.189.759,49.700 us,1 B,,SP,4B,Read Transaction,01*
0,2243,0:16.189.810,70.200 us,2 B,,SP,4B,Write Transaction,82 01
0,2244,0:16.189.882,325.300 us,11 B,,SP,4B,Read Transaction,01 30 91 7F 07 F7 08 71 00 00 00*
0,2245,0:16.206.210,70.100 us,2 B,,SP,4B,Write Transaction,82 01
0,2246,0:16.206.282,49.800 us,1 B,,SP,4B,Read Transaction,01*
0,2247,0:16.206.333,70.100 us,2 B,,SP,4B,Write Transaction,82 01
0,2248,0:16.206.404,324.700 us,11 B,,SP,4B,Read Transaction,01 30 91 84 07 F2 08 71 00 00 00*
0,2249,0:16.222.704,70.100 us,2 B,,SP,4B,Write Transaction,82 01
0,2250,0:16.222.776,49.800 us,1 B,,SP,4B,Read Transaction,01*
0,2251,0:16.222.827,70.100 us,2 B,,SP,4B,Write Transaction,82 01
0,2252,0:16.222.898,325.000 us,11 B,,SP,4B,Read Transaction,01 30 91 89 07 ED 08 71 00 00 00*
0,2253,0:16.239.173,70.100 us,2 B,,SP,4B,Write Transaction,82 01
0,2254,0:16.239.244,49.800 us,1 B,,SP,4B,Read Transaction,01*
0,2255,0:16.239.295,70.100 us,2 B,,SP,4B,Write Transaction,82 01
0,2256,0:16.239.367,324.900 us,11 B,,SP,4B,Read Transaction,01 30 91 8E 07 E8 08 71 00 00 00*
0,2257,0:16.255.641,70.100 us,2 B,,SP,4B,Write Transaction,82 01
0,2258,0:16.255.713,49.800 us,1 B,,SP,4B,Read Transaction,01*
0,2259,0:16.255.764,70.100 us,2 B,,SP,4B,Write Transaction,82 01
0,2260,0:16.255.835,325.100 us,11 B,,SP,4B,Read Transaction,01 30 91 92 07 E4 08 71 00 00 00*
0,2261,0:16.272.104,70.100 us,2 B,,SP,4B,Write Transaction,82 01
0,2262,0:16.272.175,49.800 us,1 B,,SP,4B,Read Transaction,01*
0,2263,0:16.272.226,70.100 us,2 B,,SP,4B,Write Transaction,82 01
0,2264,0:16.272.298,325.300 us,11 B,,SP,4B,Read Transaction,01 30 91 97 07 DF 08 71 00 00 00*
0,2265,0:16.288.598,70.200 us,2 B,,SP,4B,Write Transaction,82 01
0,2266,0:16.288.669,49.700 us,1 B,,SP,4B,Read Transaction,01*
0,2267,0:16.288.720,70.200 us,2 B,,SP,4B,Write Transaction,82 01
0,2268,0:16.288.792,325.500 us,11 B,,SP,4B,Read Transaction,01 30 91 9B 07 DB 08 71 00 00 00*
0,2269,0:16.305.093,70.100 us,2 B,,SP,4B,Write Transaction,82 01
0,2270,0:16.305.164,49.800 us,1 B,,SP,4B,Read Transaction,01*
0,2271,0:16.305.215,70.100 us,2 B,,SP,4B,Write Transaction,82 01
0,2272,0:16.305.287,325.200 us,11 B,,SP,4B,Read Transaction,01 30 91 9F 07 D7 08 71 00 00 00*
0,2273,0:16.321.589,70.200 us,2 B,,SP,4B,Write Transaction,82 01
0,2274,0:16.321.660,49.800 us,1 B,,SP,4B,Read Transaction,01*
0,2275,0:16.321.711,70.200 us,2 B,,SP,4B,Write Transaction,82 01
0,2276,0:16.321.783,325.100 us,11 B,,SP,4B,Read Transaction,01 30 91 A3 07 D3 08 71 00 00 00*
0,2277,0:16.338.084,70.100 us,2 B,,SP,4B,Write Transaction,82 01
0,2278,0:16.338.156,49.800 us,1 B,,SP,4B,Read Transaction,01*
0,2279,0:16.338.207,70.100 us,2 B,,SP,4B,Write Transaction,82 01
0,2280,0:16.338.278,325.100 us,11 B,,SP,4B,Read Transaction,01 30 91 A6 07 CF 08 71 00 00 00*
0,2281,0:16.356.265,70.200 us,2 B,,SP,4B,Write Transaction,82 01
0,2282,0:16.356.337,49.800 us,1 B,,SP,4B,Read Transaction,01*
0,2283,0:16.356.388,70.100 us,2 B,,SP,4B,Write Transaction,82 01
0,2284,0:16.356.459,325.000 us,11 B,,SP,4B,Read Transaction,01 30 91 AA 07 CC 08 71 00 00 00*
0,2285,0:16.372.722,70.100 us,2 B,,SP,4B,Write Transaction,82 01
0,2286,0:16.372.794,49.800 us,1 B,,SP,4B,Read Transaction,01*
0,2287,0:16.372.845,70.100 us,2 B,,SP,4B,Write Transaction,82 01
0,2288,0:16.372.916,325.200 us,11 B,,SP,4B,Read Transaction,01 30 91 AD 07 C7 08 71 00 00 00*
0,2289,0:16.389.218,70.100 us,2 B,,SP,4B,Write Transaction,82 01
0,2290,0:16.389.289,49.800 us,1 B,,SP,4B,Read Transaction,01*
0,2291,0:16.389.340,70.100 us,2 B,,SP,4B,Write Transaction,82 01
0,2292,0:16.389.412,325.400 us,11 B,,SP,4B,Read Transaction,01 30 91 B1 07 C4 08 71 00 00 00*
0,2293,0:16.405.719,70.200 us,2 B,,SP,4B,Write Transaction,82 01
0,2294,0:16.405.791,49.700 us,1 B,,SP,4B,Read Transaction,01*
0,2295,0:16.405.842,70.200 us,2 B,,SP,4B,Write Transaction,82 01
0,2296,0:16.405.913,325.400 us,11 B,,SP,4B,Read Transaction,01 30 91 B5 07 BF 08 71 00 00 00*
0,2297,0:16.422.211,70.100 us,2 B,,SP,4B,Write Transaction,82 01
0,2298,0:16.422.282,49.800 us,1 B,,SP,4B,Read Transaction,01*
0,2299,0:16.422.333,70.100 us,2 B,,SP,4B,Write Transaction,82 01
0,2300,0:16.422.405,325.100 us,11 B,,SP,4B,Read Transaction,01 30 91 BA 07 BA 08 71 00 00 00*
0,2301,0:16.438.707,70.100 us,2 B,,SP,4B,Write Transaction,82 01
0,2302,0:16.438.779,49.800 us,1 B,,SP,4B,Read Transaction,01*
0,2303,0:16.438.830,70.100 us,2 B,,SP,4B,Write Transaction,82 01
0,2304,0:16.438.901,325.000 us,11 B,,SP,4B,Read Transaction,01 30 91 BF 07 B5 08 71 00 00 00*
0,2305,0:16.455.175,70.100 us,2 B,,SP,4B,Write Transaction,82 01
0,2306,0:16.455.246,49.800 us,1 B,,SP,4B,Read Transaction,01*
0,2307,0:16.455.297,70.200 us,2 B,,SP,4B,Write Transaction,82 01
0,2308,0:16.455.369,325.400 us,11 B,,SP,4B,Read Transaction,01 30 91 C4 07 AE 08 71 00 00 00*
0,2309,0:16.471.672,70.100 us,2 B,,SP,4B,Write Transaction,82 01
0,2310,0:16.471.743,49.800 us,1 B,,SP,4B,Read Transaction,01*
0,2311,0:16.471.794,70.100 us,2 B,,SP,4B,Write Transaction,82 01
0,2312,0:16.471.866,325.400 us,11 B,,SP,4B,Read Transaction,01 30 91 CA 07 A8 08 71 00 00 00*
0,2313,0:16.488.167,70.100 us,2 B,,SP,4B,Write Transaction,82 01
0,2314,0:16.488.238,49.800 us,1 B,,SP,4B,Read Transaction,01*
0,2315,0:16.488.289,70.100 us,2 B,,SP,4B,Write Transaction,82 01
0,2316,0:16.488.361,325.500 us,11 B,,SP,4B,Read Transaction,01 30 91 D1 07 A1 08 6C 00 00 00*
0,2317,0:16.504.637,70.100 us,2 B,,SP,4B,Write Transaction,82 01
0,2318,0:16.504.709,49.800 us,1 B,,SP,4B,Read Transaction,01*
0,2319,0:16.504.760,70.100 us,2 B,,SP,4B,Write Transaction,82 01
0,2320,0:16.504.831,325.100 us,11 B,,SP,4B,Read Transaction,01 30 91 D8 07 9A 08 6C 00 00 00*
0,2321,0:16.522.796,70.200 us,2 B,,SP,4B,Write Transaction,82 01
0,2322,0:16.522.867,49.700 us,1 B,,SP,4B,Read Transaction,01*
0,2323,0:16.522.918,70.200 us,2 B,,SP,4B,Write Transaction,82 01
0,2324,0:16.522.990,324.900 us,11 B,,SP,4B,Read Transaction,01 30 91 DF 07 93 08 6C 00 00 00*
0,2325,0:16.539.293,70.100 us,2 B,,SP,4B,Write Transaction,82 01
0,2326,0:16.539.364,49.800 us,1 B,,SP,4B,Read Transaction,01*
0,2327,0:16.539.415,70.100 us,2 B,,SP,4B,Write Transaction,82 01
0,2328,0:16.539.487,325.100 us,11 B,,SP,4B,Read Transaction,01 30 91 E7 07 8C 08 6C 00 00 00*
0,2329,0:16.555.896,70.200 us,2 B,,SP,4B,Write Transaction,82 01
0,2330,0:16.555.967,49.800 us,1 B,,SP,4B,Read Transaction,01*
0,2331,0:16.556.018,70.200 us,2 B,,SP,4B,Write Transaction,82 01
0,2332,0:16.556.090,325.300 us,11 B,,SP,4B,Read Transaction,01 30 91 EF 07 85 08 6C 00 00 00*
0,2333,0:16.572.272,70.200 us,2 B,,SP,4B,Write Transaction,82 01
0,2334,0:16.572.344,49.800 us,1 B,,SP,4B,Read Transaction,01*
0,2335,0:16.572.395,70.200 us,2 B,,SP,4B,Write Transaction,82 01
0,2336,0:16.572.466,324.900 us,11 B,,SP,4B,Read Transaction,01 30 91 F5 07 7E 08 6C 00 00 00*
0,2337,0:16.588.739,70.200 us,2 B,,SP,4B,Write Transaction,82 01
0,2338,0:16.588.810,49.800 us,1 B,,SP,4B,Read Transaction,01*
0,2339,0:16.588.861,70.200 us,2 B,,SP,4B,Write Transaction,82 01
0,2340,0:16.588.932,325.200 us,11 B,,SP,4B,Read Transaction,01 30 91 FC 07 77 08 6C 00 00 00*
0,2341,0:16.605.236,70.100 us,2 B,,SP,4B,Write Transaction,82 01
0,2342,0:16.605.308,49.800 us,1 B,,SP,4B,Read Transaction,01*
0,2343,0:16.605.359,70.100 us,2 B,,SP,4B,Write Transaction,82 01
0,2344,0:16.605.430,325.300 us,11 B,,SP,4B,Read Transaction,01 30 91 02 08 71 08 71 00 00 00*
0,2345,0:16.621.731,70.200 us,2 B,,SP,4B,Write Transaction,82 01
0,2346,0:16.621.803,49.800 us,1 B,,SP,4B,Read Transaction,01*
0,2347,0:16.621.854,70.200 us,2 B,,SP,4B,Write Transaction,82 01
0,2348,0:16.621.925,325.100 us,11 B,,SP,4B,Read Transaction,01 30 91 07 08 6C 08 71 00 00 00*
0,2349,0:16.638.226,70.100 us,2 B,,SP,4B,Write Transaction,82 01
0,2350,0:16.638.297,49.800 us,1 B,,SP,4B,Read Transaction,01*
0,2351,0:16.638.348,70.100 us,2 B,,SP,4B,Write Transaction,82 01
0,2352,0:16.638.420,325.400 us,11 B,,SP,4B,Read Transaction,01 30 91 0C 08 67 08 71 00 00 00*
0,2353,0:16.654.719,70.100 us,2 B,,SP,4B,Write Transaction,82 01
0,2354,0:16.654.791,49.800 us,1 B,,SP,4B,Read Transaction,01*
0,2355,0:16.654.842,70.100 us,2 B,,SP,4B,Write Transaction,82 01
0,2356,0:16.654.913,325.100 us,11 B,,SP,4B,Read Transaction,01 30 91 10 08 62 08 71 00 00 00*
0,2357,0:16.671.207,70.100 us,2 B,,SP,4B,Write Transaction,82 01
0,2358,0:16.671.278,49.800 us,1 B,,SP,4B,Read Transaction,01*
0,2359,0:16.671.329,70.100 us,2 B,,SP,4B,Write Transaction,82 01
0,2360,0:16.671.401,325.300 us,11 B,,SP,4B,Read Transaction,01 30 91 14 08 5E 08 71 00 00 00*
0,2361,0:16.689.250,70.200 us,2 B,,SP,4B,Write Transaction,82 01
0,2362,0:16.689.321,49.800 us,1 B,,SP,4B,Read Transaction,01*
0,2363,0:16.689.372,70.200 us,2 B,,SP,4B,Write Transaction,82 01
0,2364,0:16.689.444,325.400 us,11 B,,SP,4B,Read Transaction,01 30 91 17 08 5A 08 71 00 00 00*
0,2365,0:16.705.774,70.100 us,2 B,,SP,4B,Write Transaction,82 01
0,2366,0:16.705.846,49.800 us,1 B,,SP,4B,Read Transaction,01*
0,2367,0:16.705.897,70.100 us,2 B,,SP,4B,Write Transaction,82 01
0,2368,0:16.705.968,325.300 us,11 B,,SP,4B,Read Transaction,01 30 91 1A 08 57 08 71 00 00 00*
0,2369,0:16.722.270,70.200 us,2 B,,SP,4B,Write Transaction,82 01
0,2370,0:16.722.341,49.800 us,1 B,,SP,4B,Read Transaction,01*
0,2371,0:16.722.392,70.200 us,2 B,,SP,4B,Write Transaction,82 01
0,2372,0:16.722.463,325.200 us,11 B,,SP,4B,Read Transaction,01 30 91 1D 08 53 08 71 00 00 00*
0,2373,0:16.738.741,70.100 us,2 B,,SP,4B,Write Transaction,82 01
0,2374,0:16.738.812,49.800 us,1 B,,SP,4B,Read Transaction,01*
0,2375,0:16.738.863,70.100 us,2 B,,SP,4B,Write Transaction,82 01
0,2376,0:16.738.935,325.300 us,11 B,,SP,4B,Read Transaction,01 30 91 20 08 4F 08 71 00 00 00*
0,2377,0:16.755.328,70.200 us,2 B,,SP,4B,Write Transaction,82 01
0,2378,0:16.755.399,49.700 us,1 B,,SP,4B,Read Transaction,01*
0,2379,0:16.755.450,70.200 us,2 B,,SP,4B,Write Transaction,82 01
0,2380,0:16.755.522,325.400 us,11 B,,SP,4B,Read Transaction,01 30 91 23 08 4D 08 71 00 00 00*
0,2381,0:16.771.733,70.100 us,2 B,,SP,4B,Write Transaction,82 01
0,2382,0:16.771.804,49.800 us,1 B,,SP,4B,Read Transaction,01*
0,2383,0:16.771.855,70.100 us,2 B,,SP,4B,Write Transaction,82 01
0,2384,0:16.771.927,325.300 us,11 B,,SP,4B,Read Transaction,01 30 91 25 08 4A 08 71 00 00 00*
0,2385,0:16.788.222,70.200 us,2 B,,SP,4B,Write Transaction,82 01
0,2386,0:16.788.293,49.800 us,1 B,,SP,4B,Read Transaction,01*
0,2387,0:16.788.344,70.200 us,2 B,,SP,4B,Write Transaction,82 01
0,2388,0:16.788.415,325.200 us,11 B,,SP,4B,Read Transaction,01 30 91 27 08 47 08 71 00 00 00*
0,2389,0:16.804.717,70.200 us,2 B,,SP,4B,Write Transaction,82 01
0,2390,0:16.804.788,49.800 us,1 B,,SP,4B,Read Transaction,01*
0,2391,0:16.804.839,70.100 us,2 B,,SP,4B,Write Transaction,82 01
0,2392,0:16.804.911,325.000 us,11 B,,SP,4B,Read Transaction,01 30 91 29 08 45 08 71 00 00 00*
0,2393,0:16.821.209,70.100 us,2 B,,SP,4B,Write Transaction,82 01
0,2394,0:16.821.280,49.800 us,1 B,,SP,4B,Read Transaction,01*
0,2395,0:16.821.331,70.100 us,2 B,,SP,4B,Write Transaction,82 01
0,2396,0:16.821.403,325.000 us,11 B,,SP,4B,Read Transaction,01 30 91 2B 08 42 08 71 00 00 00*
0,2397,0:16.837.699,70.100 us,2 B,,SP,4B,Write Transaction,82 01
0,2398,0:16.837.770,49.800 us,1 B,,SP,4B,Read Transaction,01*
0,2399,0:16.837.821,70.100 us,2 B,,SP,4B,Write Transaction,82 01
0,2400,0:16.837.893,325.200 us,11 B,,SP,4B,Read Transaction,01 30 91 2D 08 3F 08 71 00 00 00*
0,2401,0:16.855.767,70.200 us,2 B,,SP,4B,Write Transaction,82 01
0,2402,0:16.855.839,49.700 us,1 B,,SP,4B,Read Transaction,01*
0,2403,0:16.855.890,70.200 us,2 B,,SP,4B,Write Transaction,82 01
0,2404,0:16.855.961,325.200 us,11 B,,SP,4B,Read Transaction,01 30 91 2F 08 3D 08 71 00 00 00*
0,2405,0:16.872.270,70.100 us,2 B,,SP,4B,Write Transaction,82 01
0,2406,0:16.872.341,49.800 us,1 B,,SP,4B,Read Transaction,01*
0,2407,0:16.872.392,70.100 us,2 B,,SP,4B,Write Transaction,82 01
0,2408,0:16.872.464,324.800 us,11 B,,SP,4B,Read Transaction,01 30 91 31 08 3A 08 71 00 00 00*
0,2409,0:16.888.718,70.100 us,2 B,,SP,4B,Write Transaction,82 01
0,2410,0:16.888.789,49.800 us,1 B,,SP,4B,Read Transaction,01*
0,2411,0:16.888.840,70.100 us,2 B,,SP,4B,Write Transaction,82 01
0,2412,0:16.888.912,325.100 us,11 B,,SP,4B,Read Transaction,01 30 91 33 08 38 08 71 00 00 00*
0,2413,0:16.905.188,70.200 us,2 B,,SP,4B,Write Transaction,82 01
0,2414,0:16.905.260,49.800 us,1 B,,SP,4B,Read Transaction,01*
0,2415,0:16.905.311,70.100 us,2 B,,SP,4B,Write Transaction,82 01
0,2416,0:16.905.382,325.300 us,11 B,,SP,4B,Read Transaction,01 30 91 35 08 36 08 71 00 00 00*
0,2417,0:16.921.655,70.100 us,2 B,,SP,4B,Write Transaction,82 01
0,2418,0:16.921.726,49.800 us,1 B,,SP,4B,Read Transaction,01*
0,2419,0:16.921.777,70.200 us,2 B,,SP,4B,Write Transaction,82 01
0,2420,0:16.921.849,325.100 us,11 B,,SP,4B,Read Transaction,01 30 91 37 08 34 08 71 00 00 00*
0,2421,0:16.938.249,70.100 us,2 B,,SP,4B,Write Transaction,82 01
0,2422,0:16.938.321,49.700 us,1 B,,SP,4B,Read Transaction,01*
0,2423,0:16.938.372,70.100 us,2 B,,SP,4B,Write Transaction,82 01
0,2424,0:16.938.443,325.100 us,11 B,,SP,4B,Read Transaction,01 30 91 39 08 31 08 71 00 00 00*
0,2425,0:16.953.764,70.100 us,2 B,,SP,4B,Write Transaction,82 01
0,2426,0:16.953.836,49.800 us,1 B,,SP,4B,Read Transaction,01*
0,2427,0:16.953.887,70.100 us,2 B,,SP,4B,Write Transaction,82 01
0,2428,0:16.953.958,318.300 us,11 B,,SP,4B,Read Transaction,01 29 12 02 06 01 01 16 00 00 00*
0,2429,0:16.954.795,70.100 us,2 B,,SP,4B,Write Transaction,82 01
0,2430,0:16.954.866,49.800 us,1 B,,SP,4B,Read Transaction,01*
0,2431,0:16.954.918,70.100 us,2 B,,SP,4B,Write Transaction,82 01
0,2432,0:16.954.989,325.100 us,11 B,,SP,4B,Read Transaction,01 30 91 3C 08 2F 08 71 00 00 00*
0,2433,0:16.971.198,70.100 us,2 B,,SP,4B,Write Transaction,82 01
0,2434,0:16.971.269,49.800 us,1 B,,SP,4B,Read Transaction,01*
0,2435,0:16.971.320,70.100 us,2 B,,SP,4B,Write Transaction,82 01
0,2436,0:16.971.392,325.300 us,11 B,,SP,4B,Read Transaction,01 30 91 3E 08 2C 08 71 00 00 00*
0,2437,0:16.987.696,70.100 us,2 B,,SP,4B,Write Transaction,82 01
0,2438,0:16.987.768,49.800 us,1 B,,SP,4B,Read Transaction,01*
0,2439,0:16.987.819,70.100 us,2 B,,SP,4B,Write Transaction,82 01
0,2440,0:16.987.890,325.100 us,11 B,,SP,4B,Read Transaction,01 30 91 41 08 29 08 71 00 00 00*
0,2441,0:17.004.164,70.100 us,2 B,,SP,4B,Write Transaction,82 01
0,2442,0:17.004.235,49.800 us,1 B,,SP,4B,Read Transaction,01*
0,2443,0:17.004.286,70.100 us,2 B,,SP,4B,Write Transaction,82 01
0,2444,0:17.004.358,325.300 us,11 B,,SP,4B,Read Transaction,01 30 91 45 08 25 08 71 00 00 00*
0,2445,0:17.022.229,70.100 us,2 B,,SP,4B,Write Transaction,82 01
0,2446,0:17.022.300,49.800 us,1 B,,SP,4B,Read Transaction,01*
0,2447,0:17.022.351,70.100 us,2 B,,SP,4B,Write Transaction,82 01
0,2448,0:17.022.423,325.300 us,11 B,,SP,4B,Read Transaction,01 30 91 48 08 22 08 71 00 00 00*
0,2449,0:17.038.755,70.100 us,2 B,,SP,4B,Write Transaction,82 01
0,2450,0:17.038.827,49.800 us,1 B,,SP,4B,Read Transaction,01*
0,2451,0:17.038.878,70.100 us,2 B,,SP,4B,Write Transaction,82 01
0,2452,0:17.038.949,325.300 us,11 B,,SP,4B,Read Transaction,01 30 91 4C 08 1F 08 71 00 00 00*
0,2453,0:17.055.249,70.100 us,2 B,,SP,4B,Write Transaction,82 01
0,2454,0:17.055.320,49.800 us,1 B,,SP,4B,Read Transaction,01*
0,2455,0:17.055.371,70.100 us,2 B,,SP,4B,Write Transaction,82 01
0,2456,0:17.055.443,325.100 us,11 B,,SP,4B,Read Transaction,01 30 91 4F 08 1B 08 71 00 00 00*
0,2457,0:17.071.745,70.100 us,2 B,,SP,4B,Write Transaction,82 01
0,2458,0:17.071.817,49.800 us,1 B,,SP,4B,Read Transaction,01*
0,2459,0:17.071.868,70.100 us,2 B,,SP,4B,Write Transaction,82 01
0,2460,0:17.071.939,325.400 us,11 B,,SP,4B,Read Transaction,01 30 91 53 08 18 08 71 00 00 00*
0,2461,0:17.088.240,70.100 us,2 B,,SP,4B,Write Transaction,82 01
0,2462,0:17.088.312,49.800 us,1 B,,SP,4B,Read Transaction,01*
0,2463,0:17.088.363,70.100 us,2 B,,SP,4B,Write Transaction,82 01
0,2464,0:17.088.434,325.400 us,11 B,,SP,4B,Read Transaction,01 30 91 58 08 15 08 71 00 00 00*
0,2465,0:17.104.734,70.200 us,2 B,,SP,4B,Write Transaction,82 01
0,2466,0:17.104.806,49.800 us,1 B,,SP,4B,Read Transaction,01*
0,2467,0:17.104.857,70.200 us,2 B,,SP,4B,Write Transaction,82 01
0,2468,0:17.104.928,325.200 us,11 B,,SP,4B,Read Transaction,01 30 91 5C 08 11 08 71 00 00 00*
0,2469,0:17.121.201,70.100 us,2 B,,SP,4B,Write Transaction,82 01
0,2470,0:17.121.272,49.800 us,1 B,,SP,4B,Read Transaction,01*
0,2471,0:17.121.324,70.100 us,2 B,,SP,4B,Write Transaction,82 01
0,2472,0:17.121.395,325.100 us,11 B,,SP,4B,Read Transaction,01 30 91 60 08 0D 08 71 00 00 00*
0,2473,0:17.137.785,70.100 us,2 B,,SP,4B,Write Transaction,82 01
0,2474,0:17.137.856,49.700 us,1 B,,SP,4B,Read Transaction,01*
0,2475,0:17.137.907,70.200 us,2 B,,SP,4B,Write Transaction,82 01
0,2476,0:17.137.979,325.400 us,11 B,,SP,4B,Read Transaction,01 30 91 63 08 0A 08 71 00 00 00*
0,2477,0:17.154.189,70.100 us,2 B,,SP,4B,Write Transaction,82 01
0,2478,0:17.154.260,49.800 us,1 B,,SP,4B,Read Transaction,01*
0,2479,0:17.154.312,70.100 us,2 B,,SP,4B,Write Transaction,82 01
0,2480,0:17.154.383,325.200 us,11 B,,SP,4B,Read Transaction,01 30 91 67 08 07 08 71 00 00 00*
0,2481,0:17.170.693,70.100 us,2 B,,SP,4B,Write Transaction,82 01
0,2482,0:17.170.764,49.800 us,1 B,,SP,4B,Read Transaction,01*
0,2483,0:17.170.815,70.100 us,2 B,,SP,4B,Write Transaction,82 01
0,2484,0:17.170.887,325.000 us,11 B,,SP,4B,Read Transaction,01 30 91 6A 08 03 08 71 00 00 00*
0,2485,0:17.188.786,70.100 us,2 B,,SP,4B,Write Transaction,82 01
0,2486,0:17.188.858,49.800 us,1 B,,SP,4B,Read Transaction,01*
0,2487,0:17.188.909,70.100 us,2 B,,SP,4B,Write Transaction,82 01
0,2488,0:17.188.980,325.200 us,11 B,,SP,4B,Read Transaction,01 30 91 6E 08 00 08 71 00 00 00*
0,2489,0:17.205.312,70.100 us,2 B,,SP,4B,Write Transaction,82 01
0,2490,0:17.205.383,49.800 us,1 B,,SP,4B,Read Transaction,01*
0,2491,0:17.205.434,70.100 us,2 B,,SP,4B,Write Transaction,82 01
0,2492,0:17.205.506,325.100 us,11 B,,SP,4B,Read Transaction,01 30 91 71 08 FD 07 71 00 00 00*
0,2493,0:17.221.778,70.100 us,2 B,,SP,4B,Write Transaction,82 01
0,2494,0:17.221.850,49.800 us,1 B,,SP,4B,Read Transaction,01*
0,2495,0:17.221.901,70.100 us,2 B,,SP,4B,Write Transaction,82 01
0,2496,0:17.221.972,325.300 us,11 B,,SP,4B,Read Transaction,01 30 91 74 08 FA 07 71 00 00 00*
0,2497,0:17.238.245,70.100 us,2 B,,SP,4B,Write Transaction,82 01
0,2498,0:17.238.317,49.800 us,1 B,,SP,4B,Read Transaction,01*
0,2499,0:17.238.368,70.100 us,2 B,,SP,4B,Write Transaction,82 01
0,2500,0:17.238.439,325.000 us,11 B,,SP,4B,Read Transaction,01 30 91 77 08 F7 07 71 00 00 00*
0,2501,0:17.254.710,70.100 us,2 B,,SP,4B,Write Transaction,82 01
0,2502,0:17.254.782,49.800 us,1 B,,SP,4B,Read Transaction,01*
0,2503,0:17.254.833,70.100 us,2 B,,SP,4B,Write Transaction,82 01
0,2504,0:17.254.904,325.300 us,11 B,,SP,4B,Read Transaction,01 30 91 7A 08 F5 07 71 00 00 00*
0,2505,0:17.271.177,70.200 us,2 B,,SP,4B,Write Transaction,82 01
0,2506,0:17.271.249,49.800 us,1 B,,SP,4B,Read Transaction,01*
0,2507,0:17.271.300,70.200 us,2 B,,SP,4B,Write Transaction,82 01
0,2508,0:17.271.371,325.100 us,11 B,,SP,4B,Read Transaction,01 30 91 7C 08 F2 07 71 00 00 00*
0,2509,0:17.287.673,70.100 us,2 B,,SP,4B,Write Transaction,82 01
0,2510,0:17.287.744,49.800 us,1 B,,SP,4B,Read Transaction,01*
0,2511,0:17.287.795,70.100 us,2 B,,SP,4B,Write Transaction,82 01
0,2512,0:17.287.867,325.500 us,11 B,,SP,4B,Read Transaction,01 30 91 7E 08 EF 07 71 00 00 00*
0,2513,0:17.304.167,70.100 us,2 B,,SP,4B,Write Transaction,82 01
0,2514,0:17.304.239,49.700 us,1 B,,SP,4B,Read Transaction,01*
0,2515,0:17.304.290,70.100 us,2 B,,SP,4B,Write Transaction,82 01
0,2516,0:17.304.361,325.000 us,11 B,,SP,4B,Read Transaction,01 30 91 81 08 ED 07 71 00 00 00*
0,2517,0:17.320.662,70.100 us,2 B,,SP,4B,Write Transaction,82 01
0,2518,0:17.320.733,49.800 us,1 B,,SP,4B,Read Transaction,01*
0,2519,0:17.320.784,70.100 us,2 B,,SP,4B,Write Transaction,82 01
0,2520,0:17.320.856,325.300 us,11 B,,SP,4B,Read Transaction,01 30 91 83 08 EA 07 71 00 00 00*
0,2521,0:17.337.253,70.100 us,2 B,,SP,4B,Write Transaction,82 01
0,2522,0:17.337.324,49.700 us,1 B,,SP,4B,Read Transaction,01*
0,2523,0:17.337.375,70.100 us,2 B,,SP,4B,Write Transaction,82 01
0,2524,0:17.337.446,325.100 us,11 B,,SP,4B,Read Transaction,01 30 91 86 08 E7 07 71 00 00 00*
0,2525,0:17.355.289,70.100 us,2 B,,SP,4B,Write Transaction,82 01
0,2526,0:17.355.360,49.700 us,1 B,,SP,4B,Read Transaction,01*
0,2527,0:17.355.411,70.100 us,2 B,,SP,4B,Write Transaction,82 01
0,2528,0:17.355.482,325.200 us,11 B,,SP,4B,Read Transaction,01 30 91 89 08 E4 07 71 00 00 00*
0,2529,0:17.371.787,70.100 us,2 B,,SP,4B,Write Transaction,82 01
0,2530,0:17.371.859,49.800 us,1 B,,SP,4B,Read Transaction,01*
0,2531,0:17.371.910,70.100 us,2 B,,SP,4B,Write Transaction,82 01
0,2532,0:17.371.981,325.200 us,11 B,,SP,4B,Read Transaction,01 30 91 8B 08 E1 07 71 00 00 00*
0,2533,0:17.388.263,70.100 us,2 B,,SP,4B,Write Transaction,82 01
0,2534,0:17.388.334,49.800 us,1 B,,SP,4B,Read Transaction,01*
0,2535,0:17.388.385,70.100 us,2 B,,SP,4B,Write Transaction,82 01
0,2536,0:17.388.457,325.300 us,11 B,,SP,4B,Read Transaction,01 30 91 8E 08 DE 07 71 00 00 00*
0,2537,0:17.404.734,70.100 us,2 B,,SP,4B,Write Transaction,82 01
0,2538,0:17.404.806,49.800 us,1 B,,SP,4B,Read Transaction,01*
0,2539,0:17.404.857,70.100 us,2 B,,SP,4B,Write Transaction,82 01
0,2540,0:17.404.928,325.300 us,11 B,,SP,4B,Read Transaction,01 30 91 91 08 DB 07 71 00 00 00*
0,2541,0:17.421.234,70.100 us,2 B,,SP,4B,Write Transaction,82 01
0,2542,0:17.421.305,49.800 us,1 B,,SP,4B,Read Transaction,01*
0,2543,0:17.421.356,70.100 us,2 B,,SP,4B,Write Transaction,82 01
0,2544,0:17.421.428,325.100 us,11 B,,SP,4B,Read Transaction,01 30 91 93 08 D8 07 71 00 00 00*
0,2545,0:17.437.704,70.200 us,2 B,,SP,4B,Write Transaction,82 01
0,2546,0:17.437.776,49.800 us,1 B,,SP,4B,Read Transaction,01*
0,2547,0:17.437.827,70.200 us,2 B,,SP,4B,Write Transaction,82 01
0,2548,0:17.437.898,325.300 us,11 B,,SP,4B,Read Transaction,01 30 91 95 08 D5 07 71 00 00 00*
0,2549,0:17.454.177,70.100 us,2 B,,SP,4B,Write Transaction,82 01
0,2550,0:17.454.248,49.800 us,1 B,,SP,4B,Read Transaction,01*
0,2551,0:17.454.299,70.100 us,2 B,,SP,4B,Write Transaction,82 01
0,2552,0:17.454.371,325.100 us,11 B,,SP,4B,Read Transaction,01 30 91 98 08 D2 07 71 00 00 00*
0,2553,0:17.470.672,70.100 us,2 B,,SP,4B,Write Transaction,82 01
0,2554,0:17.470.744,49.800 us,1 B,,SP,4B,Read Transaction,01*
0,2555,0:17.470.795,70.100 us,2 B,,SP,4B,Write Transaction,82 01
0,2556,0:17.470.866,325.200 us,11 B,,SP,4B,Read Transaction,01 30 91 9B 08 CF 07 71 00 00 00*
0,2557,0:17.487.184,70.200 us,2 B,,SP,4B,Write Transaction,82 01
0,2558,0:17.487.255,49.700 us,1 B,,SP,4B,Read Transaction,01*
0,2559,0:17.487.307,70.100 us,2 B,,SP,4B,Write Transaction,82 01
0,2560,0:17.487.378,325.000 us,11 B,,SP,4B,Read Transaction,01 30 91 9D 08 CC 07 71 00 00 00*
0,2561,0:17.503.684,70.100 us,2 B,,SP,4B,Write Transaction,82 01
0,2562,0:17.503.755,49.800 us,1 B,,SP,4B,Read Transaction,01*
0,2563,0:17.503.806,70.100 us,2 B,,SP,4B,Write Transaction,82 01
0,2564,0:17.503.878,325.000 us,11 B,,SP,4B,Read Transaction,01 30 91 A0 08 C9 07 71 00 00 00*
0,2565,0:17.521.732,70.200 us,2 B,,SP,4B,Write Transaction,82 01
0,2566,0:17.521.803,49.700 us,1 B,,SP,4B,Read Transaction,01*
0,2567,0:17.521.854,70.200 us,2 B,,SP,4B,Write Transaction,82 01
0,2568,0:17.521.926,325.400 us,11 B,,SP,4B,Read Transaction,01 30 91 A2 08 C6 07 71 00 00 00*
0,2569,0:17.538.369,70.100 us,2 B,,SP,4B,Write Transaction,82 01
0,2570,0:17.538.440,49.700 us,1 B,,SP,4B,Read Transaction,01*
0,2571,0:17.538.491,70.200 us,2 B,,SP,4B,Write Transaction,82 01
0,2572,0:17.538.563,325.300 us,11 B,,SP,4B,Read Transaction,01 30 91 A4 08 C4 07 6C 00 00 00*
0,2573,0:17.554.754,70.200 us,2 B,,SP,4B,Write Transaction,82 01
0,2574,0:17.554.825,49.800 us,1 B,,SP,4B,Read Transaction,01*
0,2575,0:17.554.876,70.100 us,2 B,,SP,4B,Write Transaction,82 01
0,2576,0:17.554.948,325.100 us,11 B,,SP,4B,Read Transaction,01 30 91 A6 08 C1 07 6C 00 00 00*
0,2577,0:17.571.251,70.200 us,2 B,,SP,4B,Write Transaction,82 01
0,2578,0:17.571.322,49.700 us,1 B,,SP,4B,Read Transaction,01*
0,2579,0:17.571.373,70.200 us,2 B,,SP,4B,Write Transaction,82 01
0,2580,0:17.571.445,325.200 us,11 B,,SP,4B,Read Transaction,01 30 91 A8 08 BF 07 6C 00 00 00*
0,2581,0:17.587.719,70.100 us,2 B,,SP,4B,Write Transaction,82 01
0,2582,0:17.587.790,49.800 us,1 B,,SP,4B,Read Transaction,01*
0,2583,0:17.587.841,70.100 us,2 B,,SP,4B,Write Transaction,82 01
0,2584,0:17.587.913,324.800 us,11 B,,SP,4B,Read Transaction,01 30 91 AA 08 BC 07 6C 00 00 00*
0,2585,0:17.604.184,70.100 us,2 B,,SP,4B,Write Transaction,82 01
0,2586,0:17.604.256,49.800 us,1 B,,SP,4B,Read Transaction,01*
0,2587,0:17.604.307,70.100 us,2 B,,SP,4B,Write Transaction,82 01
0,2588,0:17.604.378,325.000 us,11 B,,SP,4B,Read Transaction,01 30 91 AC 08 BA 07 6C 00 00 00*
0,2589,0:17.620.682,70.100 us,2 B,,SP,4B,Write Transaction,82 01
0,2590,0:17.620.753,49.800 us,1 B,,SP,4B,Read Transaction,01*
0,2591,0:17.620.804,70.100 us,2 B,,SP,4B,Write Transaction,82 01
0,2592,0:17.620.876,325.200 us,11 B,,SP,4B,Read Transaction,01 30 91 AE 08 B7 07 6C 00 00 00*
0,2593,0:17.637.152,70.100 us,2 B,,SP,4B,Write Transaction,82 01
0,2594,0:17.637.224,49.800 us,1 B,,SP,4B,Read Transaction,01*
0,2595,0:17.637.275,70.100 us,2 B,,SP,4B,Write Transaction,82 01
0,2596,0:17.637.346,325.300 us,11 B,,SP,4B,Read Transaction,01 30 91 B0 08 B5 07 6C 00 00 00*
0,2597,0:17.653.623,70.100 us,2 B,,SP,4B,Write Transaction,82 01
0,2598,0:17.653.694,49.800 us,1 B,,SP,4B,Read Transaction,01*
0,2599,0:17.653.745,70.200 us,2 B,,SP,4B,Write Transaction,82 01
0,2600,0:17.653.817,325.400 us,11 B,,SP,4B,Read Transaction,01 30 91 B2 08 B2 07 6C 00 00 00*
0,2601,0:17.670.094,70.100 us,2 B,,SP,4B,Write Transaction,82 01
0,2602,0:17.670.165,49.700 us,1 B,,SP,4B,Read Transaction,01*
0,2603,0:17.670.216,70.200 us,2 B,,SP,4B,Write Transaction,82 01
0,2604,0:17.670.288,325.100 us,11 B,,SP,4B,Read Transaction,01 30 91 B5 08 AF 07 6C 00 00 00*
0,2605,0:17.688.166,70.100 us,2 B,,SP,4B,Write Transaction,82 01
0,2606,0:17.688.237,49.800 us,1 B,,SP,4B,Read Transaction,01*
0,2607,0:17.688.288,70.100 us,2 B,,SP,4B,Write Transaction,82 01
0,2608,0:17.688.360,325.500 us,11 B,,SP,4B,Read Transaction,01 30 91 B7 08 AD 07 6C 00 00 00*
0,2609,0:17.704.692,70.100 us,2 B,,SP,4B,Write Transaction,82 01
0,2610,0:17.704.764,49.800 us,1 B,,SP,4B,Read Transaction,01*
0,2611,0:17.704.815,70.100 us,2 B,,SP,4B,Write Transaction,82 01
0,2612,0:17.704.886,324.900 us,11 B,,SP,4B,Read Transaction,01 30 91 B9 08 AA 07 6C 00 00 00*
0,2613,0:17.721.297,70.200 us,2 B,,SP,4B,Write Transaction,82 01
0,2614,0:17.721.369,49.700 us,1 B,,SP,4B,Read Transaction,01*
0,2615,0:17.721.420,70.200 us,2 B,,SP,4B,Write Transaction,82 01
0,2616,0:17.721.491,325.300 us,11 B,,SP,4B,Read Transaction,01 30 91 BC 08 A7 07 6C 00 00 00*
0,2617,0:17.737.653,70.200 us,2 B,,SP,4B,Write Transaction,82 01
0,2618,0:17.737.724,49.800 us,1 B,,SP,4B,Read Transaction,01*
0,2619,0:17.737.776,70.200 us,2 B,,SP,4B,Write Transaction,82 01
0,2620,0:17.737.847,325.000 us,11 B,,SP,4B,Read Transaction,01 30 91 BF 08 A5 07 6C 00 00 00*
0,2621,0:17.754.120,70.100 us,2 B,,SP,4B,Write Transaction,82 01
0,2622,0:17.754.191,49.700 us,1 B,,SP,4B,Read Transaction,01*
0,2623,0:17.754.242,70.100 us,2 B,,SP,4B,Write Transaction,82 01
0,2624,0:17.754.314,325.400 us,11 B,,SP,4B,Read Transaction,01 30 91 C2 08 A2 07 6C 00 00 00*
0,2625,0:17.770.617,70.200 us,2 B,,SP,4B,Write Transaction,82 01
0,2626,0:17.770.688,49.800 us,1 B,,SP,4B,Read Transaction,01*
0,2627,0:17.770.739,70.100 us,2 B,,SP,4B,Write Transaction,82 01
0,2628,0:17.770.811,325.100 us,11 B,,SP,4B,Read Transaction,01 30 91 C5 08 9F 07 6C 00 00 00*
0,2629,0:17.787.113,70.200 us,2 B,,SP,4B,Write Transaction,82 01
0,2630,0:17.787.184,49.800 us,1 B,,SP,4B,Read Transaction,01*
0,2631,0:17.787.235,70.200 us,2 B,,SP,4B,Write Transaction,82 01
0,2632,0:17.787.307,325.100 us,11 B,,SP,4B,Read Transaction,01 30 91 C9 08 9B 07 71 00 00 00*
0,2633,0:17.803.610,70.100 us,2 B,,SP,4B,Write Transaction,82 01
0,2634,0:17.803.681,49.800 us,1 B,,SP,4B,Read Transaction,01*
0,2635,0:17.803.733,70.100 us,2 B,,SP,4B,Write Transaction,82 01
0,2636,0:17.803.804,324.900 us,11 B,,SP,4B,Read Transaction,01 30 91 CC 08 98 07 71 00 00 00*
0,2637,0:17.820.081,70.200 us,2 B,,SP,4B,Write Transaction,82 01
0,2638,0:17.820.152,49.800 us,1 B,,SP,4B,Read Transaction,01*
0,2639,0:17.820.203,70.200 us,2 B,,SP,4B,Write Transaction,82 01
0,2640,0:17.820.274,325.300 us,11 B,,SP,4B,Read Transaction,01 30 91 CF 08 95 07 71 00 00 00*
0,2641,0:17.836.551,70.100 us,2 B,,SP,4B,Write Transaction,82 01
0,2642,0:17.836.622,49.800 us,1 B,,SP,4B,Read Transaction,01*
0,2643,0:17.836.673,70.100 us,2 B,,SP,4B,Write Transaction,82 01
0,2644,0:17.836.744,325.200 us,11 B,,SP,4B,Read Transaction,01 30 91 D3 08 92 07 71 00 00 00*
0,2645,0:17.854.608,70.100 us,2 B,,SP,4B,Write Transaction,82 01
0,2646,0:17.854.679,49.700 us,1 B,,SP,4B,Read Transaction,01*
0,2647,0:17.854.730,70.200 us,2 B,,SP,4B,Write Transaction,82 01
0,2648,0:17.854.802,325.100 us,11 B,,SP,4B,Read Transaction,01 30 91 D6 08 90 07 71 00 00 00*
0,2649,0:17.871.136,70.200 us,2 B,,SP,4B,Write Transaction,82 01
0,2650,0:17.871.208,49.800 us,1 B,,SP,4B,Read Transaction,01*
0,2651,0:17.871.259,70.200 us,2 B,,SP,4B,Write Transaction,82 01
0,2652,0:17.871.330,325.100 us,11 B,,SP,4B,Read Transaction,01 30 91 D9 08 8D 07 71 00 00 00*
0,2653,0:17.887.631,70.100 us,2 B,,SP,4B,Write Transaction,82 01
0,2654,0:17.887.703,49.800 us,1 B,,SP,4B,Read Transaction,01*
0,2655,0:17.887.754,70.100 us,2 B,,SP,4B,Write Transaction,82 01
0,2656,0:17.887.825,325.100 us,11 B,,SP,4B,Read Transaction,01 30 91 DC 08 8A 07 71 00 00 00*
0,2657,0:17.904.100,70.100 us,2 B,,SP,4B,Write Transaction,82 01
0,2658,0:17.904.172,49.800 us,1 B,,SP,4B,Read Transaction,01*
0,2659,0:17.904.223,70.100 us,2 B,,SP,4B,Write Transaction,82 01
0,2660,0:17.904.294,325.300 us,11 B,,SP,4B,Read Transaction,01 30 91 DF 08 87 07 71 00 00 00*
0,2661,0:17.920.686,70.100 us,2 B,,SP,4B,Write Transaction,82 01
0,2662,0:17.920.757,49.700 us,1 B,,SP,4B,Read Transaction,01*
0,2663,0:17.920.808,70.200 us,2 B,,SP,4B,Write Transaction,82 01
0,2664,0:17.920.879,325.300 us,11 B,,SP,4B,Read Transaction,01 30 91 E3 08 84 07 71 00 00 00*
0,2665,0:17.937.085,70.100 us,2 B,,SP,4B,Write Transaction,82 01
0,2666,0:17.937.156,49.800 us,1 B,,SP,4B,Read Transaction,01*
0,2667,0:17.937.207,70.100 us,2 B,,SP,4B,Write Transaction,82 01
0,2668,0:17.937.279,325.400 us,11 B,,SP,4B,Read Transaction,01 30 91 E6 08 80 07 76 00 00 00*
0,2669,0:17.953.536,70.100 us,2 B,,SP,4B,Write Transaction,82 01
0,2670,0:17.953.607,49.800 us,1 B,,SP,4B,Read Transaction,01*
0,2671,0:17.953.658,70.100 us,2 B,,SP,4B,Write Transaction,82 01
0,2672,0:17.953.730,325.300 us,11 B,,SP,4B,Read Transaction,01 30 91 EA 08 7C 07 76 00 00 00*
0,2673,0:17.970.011,70.100 us,2 B,,SP,4B,Write Transaction,82 01
0,2674,0:17.970.082,49.800 us,1 B,,SP,4B,Read Transaction,01*
0,2675,0:17.970.133,70.100 us,2 B,,SP,4B,Write Transaction,82 01
0,2676,0:17.970.205,325.400 us,11 B,,SP,4B,Read Transaction,01 30 91 EE 08 77 07 76 00 00 00*
0,2677,0:17.986.506,70.100 us,2 B,,SP,4B,Write Transaction,82 01
0,2678,0:17.986.577,49.800 us,1 B,,SP,4B,Read Transaction,01*
0,2679,0:17.986.629,70.100 us,2 B,,SP,4B,Write Transaction,82 01
0,2680,0:17.986.700,325.300 us,11 B,,SP,4B,Read Transaction,01 30 91 F3 08 72 07 76 00 00 00*
0,2681,0:18.002.976,70.100 us,2 B,,SP,4B,Write Transaction,82 01
0,2682,0:18.003.047,49.800 us,1 B,,SP,4B,Read Transaction,01*
0,2683,0:18.003.098,70.100 us,2 B,,SP,4B,Write Transaction,82 01
0,2684,0:18.003.170,325.200 us,11 B,,SP,4B,Read Transaction,01 30 91 F8 08 6E 07 76 00 00 00*
0,2685,0:18.021.073,70.200 us,2 B,,SP,4B,Write Transaction,82 01
0,2686,0:18.021.144,49.800 us,1 B,,SP,4B,Read Transaction,01*
0,2687,0:18.021.195,70.200 us,2 B,,SP,4B,Write Transaction,82 01
0,2688,0:18.021.267,325.300 us,11 B,,SP,4B,Read Transaction,01 30 91 FC 08 69 07 76 00 00 00*
0,2689,0:18.037.571,70.200 us,2 B,,SP,4B,Write Transaction,82 01
0,2690,0:18.037.642,49.800 us,1 B,,SP,4B,Read Transaction,01*
0,2691,0:18.037.694,70.100 us,2 B,,SP,4B,Write Transaction,82 01
0,2692,0:18.037.765,325.200 us,11 B,,SP,4B,Read Transaction,01 30 91 01 09 64 07 76 00 00 00*
0,2693,0:18.054.040,70.100 us,2 B,,SP,4B,Write Transaction,82 01
0,2694,0:18.054.112,49.800 us,1 B,,SP,4B,Read Transaction,01*
0,2695,0:18.054.163,70.100 us,2 B,,SP,4B,Write Transaction,82 01
0,2696,0:18.054.234,325.400 us,11 B,,SP,4B,Read Transaction,01 30 91 06 09 5E 07 71 00 00 00*
0,2697,0:18.070.537,70.100 us,2 B,,SP,4B,Write Transaction,82 01
0,2698,0:18.070.608,49.800 us,1 B,,SP,4B,Read Transaction,01*
0,2699,0:18.070.659,70.100 us,2 B,,SP,4B,Write Transaction,82 01
0,2700,0:18.070.731,325.500 us,11 B,,SP,4B,Read Transaction,01 30 91 0B 09 5A 07 71 00 00 00*
0,2701,0:18.087.048,70.100 us,2 B,,SP,4B,Write Transaction,82 01
0,2702,0:18.087.120,49.800 us,1 B,,SP,4B,Read Transaction,01*
0,2703,0:18.087.171,70.100 us,2 B,,SP,4B,Write Transaction,82 01
0,2704,0:18.087.242,325.300 us,11 B,,SP,4B,Read Transaction,01 30 91 10 09 55 07 71 00 00 00*
0,2705,0:18.103.542,70.100 us,2 B,,SP,4B,Write Transaction,82 01
0,2706,0:18.103.614,49.800 us,1 B,,SP,4B,Read Transaction,01*
0,2707,0:18.103.665,70.100 us,2 B,,SP,4B,Write Transaction,82 01
0,2708,0:18.103.736,325.100 us,11 B,,SP,4B,Read Transaction,01 30 91 15 09 50 07 71 00 00 00*
0,2709,0:18.120.148,70.200 us,2 B,,SP,4B,Write Transaction,82 01
0,2710,0:18.120.220,49.700 us,1 B,,SP,4B,Read Transaction,01*
0,2711,0:18.120.271,70.200 us,2 B,,SP,4B,Write Transaction,82 01
0,2712,0:18.120.342,325.300 us,11 B,,SP,4B,Read Transaction,01 30 91 1A 09 4D 07 71 00 00 00*
0,2713,0:18.136.537,70.200 us,2 B,,SP,4B,Write Transaction,82 01
0,2714,0:18.136.608,49.800 us,1 B,,SP,4B,Read Transaction,01*
0,2715,0:18.136.659,70.100 us,2 B,,SP,4B,Write Transaction,82 01
0,2716,0:18.136.731,325.000 us,11 B,,SP,4B,Read Transaction,01 30 91 1F 09 48 07 71 00 00 00*
0,2717,0:18.153.033,70.100 us,2 B,,SP,4B,Write Transaction,82 01
0,2718,0:18.153.104,49.800 us,1 B,,SP,4B,Read Transaction,01*
0,2719,0:18.153.155,70.200 us,2 B,,SP,4B,Write Transaction,82 01
0,2720,0:18.153.226,325.500 us,11 B,,SP,4B,Read Transaction,01 30 91 24 09 44 07 71 00 00 00*
0,2721,0:18.169.531,70.100 us,2 B,,SP,4B,Write Transaction,82 01
0,2722,0:18.169.602,49.800 us,1 B,,SP,4B,Read Transaction,01*
0,2723,0:18.169.653,70.100 us,2 B,,SP,4B,Write Transaction,82 01
0,2724,0:18.169.725,325.100 us,11 B,,SP,4B,Read Transaction,01 30 91 2A 09 3F 07 71 00 00 00*
0,2725,0:18.187.688,70.100 us,2 B,,SP,4B,Write Transaction,82 01
0,2726,0:18.187.759,49.800 us,1 B,,SP,4B,Read Transaction,01*
0,2727,0:18.187.810,70.100 us,2 B,,SP,4B,Write Transaction,82 01
0,2728,0:18.187.882,324.900 us,11 B,,SP,4B,Read Transaction,01 30 91 2F 09 3C 07 71 00 00 00*
0,2729,0:18.204.205,70.100 us,2 B,,SP,4B,Write Transaction,82 01
0,2730,0:18.204.276,49.800 us,1 B,,SP,4B,Read Transaction,01*
0,2731,0:18.204.327,70.100 us,2 B,,SP,4B,Write Transaction,82 01
0,2732,0:18.204.399,325.200 us,11 B,,SP,4B,Read Transaction,01 30 91 35 09 37 07 71 00 00 00*
0,2733,0:18.220.673,70.100 us,2 B,,SP,4B,Write Transaction,82 01
0,2734,0:18.220.745,49.800 us,1 B,,SP,4B,Read Transaction,01*
0,2735,0:18.220.796,70.100 us,2 B,,SP,4B,Write Transaction,82 01
0,2736,0:18.220.867,325.300 us,11 B,,SP,4B,Read Transaction,01 30 91 3A 09 33 07 71 00 00 00*
0,2737,0:18.237.140,70.100 us,2 B,,SP,4B,Write Transaction,82 01
0,2738,0:18.237.212,49.800 us,1 B,,SP,4B,Read Transaction,01*
0,2739,0:18.237.263,70.100 us,2 B,,SP,4B,Write Transaction,82 01
0,2740,0:18.237.334,325.100 us,11 B,,SP,4B,Read Transaction,01 30 91 40 09 2E 07 71 00 00 00*
0,2741,0:18.253.637,70.100 us,2 B,,SP,4B,Write Transaction,82 01
0,2742,0:18.253.708,49.800 us,1 B,,SP,4B,Read Transaction,01*
0,2743,0:18.253.760,70.200 us,2 B,,SP,4B,Write Transaction,82 01
0,2744,0:18.253.831,325.400 us,11 B,,SP,4B,Read Transaction,01 30 91 46 09 29 07 71 00 00 00*
0,2745,0:18.270.135,70.200 us,2 B,,SP,4B,Write Transaction,82 01
0,2746,0:18.270.206,49.800 us,1 B,,SP,4B,Read Transaction,01*
0,2747,0:18.270.257,70.100 us,2 B,,SP,4B,Write Transaction,82 01
0,2748,0:18.270.329,324.900 us,11 B,,SP,4B,Read Transaction,01 30 91 4C 09 23 07 71 00 00 00*
0,2749,0:18.286.629,70.100 us,2 B,,SP,4B,Write Transaction,82 01
0,2750,0:18.286.700,49.800 us,1 B,,SP,4B,Read Transaction,01*
0,2751,0:18.286.751,70.100 us,2 B,,SP,4B,Write Transaction,82 01
0,2752,0:18.286.823,325.300 us,11 B,,SP,4B,Read Transaction,01 30 91 51 09 1D 07 71 00 00 00*
0,2753,0:18.303.126,70.100 us,2 B,,SP,4B,Write Transaction,82 01
0,2754,0:18.303.197,49.800 us,1 B,,SP,4B,Read Transaction,01*
0,2755,0:18.303.248,70.100 us,2 B,,SP,4B,Write Transaction,82 01
0,2756,0:18.303.320,325.400 us,11 B,,SP,4B,Read Transaction,01 30 91 56 09 17 07 71 00 00 00*
0,2757,0:18.319.719,70.100 us,2 B,,SP,4B,Write Transaction,82 01
0,2758,0:18.319.790,49.800 us,1 B,,SP,4B,Read Transaction,01*
0,2759,0:18.319.841,70.100 us,2 B,,SP,4B,Write Transaction,82 01
0,2760,0:18.319.913,325.000 us,11 B,,SP,4B,Read Transaction,01 30 91 5C 09 12 07 6C 00 00 00*
0,2761,0:18.336.112,70.100 us,2 B,,SP,4B,Write Transaction,82 01
0,2762,0:18.336.183,49.800 us,1 B,,SP,4B,Read Transaction,01*
0,2763,0:18.336.234,70.100 us,2 B,,SP,4B,Write Transaction,82 01
0,2764,0:18.336.306,324.900 us,11 B,,SP,4B,Read Transaction,01 30 91 60 09 0D 07 6C 00 00 00*
0,2765,0:18.354.148,70.100 us,2 B,,SP,4B,Write Transaction,82 01
0,2766,0:18.354.219,49.800 us,1 B,,SP,4B,Read Transaction,01*
0,2767,0:18.354.270,70.100 us,2 B,,SP,4B,Write Transaction,82 01
0,2768,0:18.354.342,325.000 us,11 B,,SP,4B,Read Transaction,01 30 91 65 09 07 07 6C 00 00 00*
0,2769,0:18.370.672,70.200 us,2 B,,SP,4B,Write Transaction,82 01
0,2770,0:18.370.744,49.700 us,1 B,,SP,4B,Read Transaction,01*
0,2771,0:18.370.795,70.200 us,2 B,,SP,4B,Write Transaction,82 01
0,2772,0:18.370.866,325.300 us,11 B,,SP,4B,Read Transaction,01 30 91 6A 09 02 07 6C 00 00 00*
0,2773,0:18.387.166,70.100 us,2 B,,SP,4B,Write Transaction,82 01
0,2774,0:18.387.238,49.800 us,1 B,,SP,4B,Read Transaction,01*
0,2775,0:18.387.289,70.100 us,2 B,,SP,4B,Write Transaction,82 01
0,2776,0:18.387.360,324.600 us,11 B,,SP,4B,Read Transaction,01 30 91 6E 09 FD 06 6C 00 00 00*
0,2777,0:18.403.635,70.100 us,2 B,,SP,4B,Write Transaction,82 01
0,2778,0:18.403.706,49.800 us,1 B,,SP,4B,Read Transaction,01*
0,2779,0:18.403.758,70.100 us,2 B,,SP,4B,Write Transaction,82 01
0,2780,0:18.403.829,325.500 us,11 B,,SP,4B,Read Transaction,01 30 91 73 09 F7 06 6C 00 00 00*
0,2781,0:18.420.126,70.200 us,2 B,,SP,4B,Write Transaction,82 01
0,2782,0:18.420.197,49.700 us,1 B,,SP,4B,Read Transaction,01*
0,2783,0:18.420.248,70.200 us,2 B,,SP,4B,Write Transaction,82 01
0,2784,0:18.420.320,325.700 us,11 B,,SP,4B,Read Transaction,01 30 91 79 09 F2 06 6C 00 00 00*
0,2785,0:18.436.624,70.200 us,2 B,,SP,4B,Write Transaction,82 01
0,2786,0:18.436.695,49.700 us,1 B,,SP,4B,Read Transaction,01*
0,2787,0:18.436.746,70.200 us,2 B,,SP,4B,Write Transaction,82 01
0,2788,0:18.436.818,325.400 us,11 B,,SP,4B,Read Transaction,01 30 91 7E 09 EB 06 6C 00 00 00*
0,2789,0:18.453.117,70.200 us,2 B,,SP,4B,Write Transaction,82 01
0,2790,0:18.453.189,49.800 us,1 B,,SP,4B,Read Transaction,01*
0,2791,0:18.453.240,70.200 us,2 B,,SP,4B,Write Transaction,82 01
0,2792,0:18.453.311,325.200 us,11 B,,SP,4B,Read Transaction,01 30 91 85 09 E5 06 6C 00 00 00*
0,2793,0:18.469.610,70.100 us,2 B,,SP,4B,Write Transaction,82 01
0,2794,0:18.469.681,49.800 us,1 B,,SP,4B,Read Transaction,01*
0,2795,0:18.469.732,70.100 us,2 B,,SP,4B,Write Transaction,82 01
0,2796,0:18.469.804,325.100 us,11 B,,SP,4B,Read Transaction,01 30 91 8A 09 DF 06 6C 00 00 00*
0,2797,0:18.486.106,70.100 us,2 B,,SP,4B,Write Transaction,82 01
0,2798,0:18.486.177,49.800 us,1 B,,SP,4B,Read Transaction,01*
0,2799,0:18.486.228,70.100 us,2 B,,SP,4B,Write Transaction,82 01
0,2800,0:18.486.300,325.400 us,11 B,,SP,4B,Read Transaction,01 30 91 90 09 DA 06 6C 00 00 00*
0,2801,0:18.502.696,70.100 us,2 B,,SP,4B,Write Transaction,82 01
0,2802,0:18.502.767,49.800 us,1 B,,SP,4B,Read Transaction,01*
0,2803,0:18.502.818,70.100 us,2 B,,SP,4B,Write Transaction,82 01
0,2804,0:18.502.890,325.200 us,11 B,,SP,4B,Read Transaction,01 30 91 95 09 D6 06 71 00 00 00*
0,2805,0:18.520.657,70.100 us,2 B,,SP,4B,Write Transaction,82 01
0,2806,0:18.520.728,49.800 us,1 B,,SP,4B,Read Transaction,01*
0,2807,0:18.520.779,70.100 us,2 B,,SP,4B,Write Transaction,82 01
0,2808,0:18.520.851,325.000 us,11 B,,SP,4B,Read Transaction,01 30 91 9A 09 D2 06 71 00 00 00*
0,2809,0:18.537.181,70.100 us,2 B,,SP,4B,Write Transaction,82 01
0,2810,0:18.537.253,49.800 us,1 B,,SP,4B,Read Transaction,01*
0,2811,0:18.537.304,70.100 us,2 B,,SP,4B,Write Transaction,82 01
0,2812,0:18.537.375,325.000 us,11 B,,SP,4B,Read Transaction,01 30 91 9E 09 CE 06 71 00 00 00*
0,2813,0:18.553.670,70.100 us,2 B,,SP,4B,Write Transaction,82 01
0,2814,0:18.553.741,49.800 us,1 B,,SP,4B,Read Transaction,01*
0,2815,0:18.553.792,70.100 us,2 B,,SP,4B,Write Transaction,82 01
0,2816,0:18.553.864,325.100 us,11 B,,SP,4B,Read Transaction,01 30 91 A3 09 CA 06 71 00 00 00*
0,2817,0:18.570.147,70.100 us,2 B,,SP,4B,Write Transaction,82 01
0,2818,0:18.570.219,49.800 us,1 B,,SP,4B,Read Transaction,01*
0,2819,0:18.570.270,70.100 us,2 B,,SP,4B,Write Transaction,82 01
0,2820,0:18.570.341,325.100 us,11 B,,SP,4B,Read Transaction,01 30 91 A7 09 C5 06 71 00 00 00*
0,2821,0:18.586.644,70.100 us,2 B,,SP,4B,Write Transaction,82 01
0,2822,0:18.586.715,49.800 us,1 B,,SP,4B,Read Transaction,01*
0,2823,0:18.586.766,70.100 us,2 B,,SP,4B,Write Transaction,82 01
0,2824,0:18.586.838,325.100 us,11 B,,SP,4B,Read Transaction,01 30 91 AC 09 C1 06 71 00 00 00*
0,2825,0:18.603.138,70.100 us,2 B,,SP,4B,Write Transaction,82 01
0,2826,0:18.603.209,49.800 us,1 B,,SP,4B,Read Transaction,01*
0,2827,0:18.603.260,70.100 us,2 B,,SP,4B,Write Transaction,82 01
0,2828,0:18.603.331,325.400 us,11 B,,SP,4B,Read Transaction,01 30 91 B0 09 BD 06 71 00 00 00*
0,2829,0:18.619.606,70.100 us,2 B,,SP,4B,Write Transaction,82 01
0,2830,0:18.619.677,49.800 us,1 B,,SP,4B,Read Transaction,01*
0,2831,0:18.619.728,70.100 us,2 B,,SP,4B,Write Transaction,82 01
0,2832,0:18.619.800,325.200 us,11 B,,SP,4B,Read Transaction,01 30 91 B3 09 BA 06 71 00 00 00*
0,2833,0:18.636.103,70.100 us,2 B,,SP,4B,Write Transaction,82 01
0,2834,0:18.636.175,49.800 us,1 B,,SP,4B,Read Transaction,01*
0,2835,0:18.636.226,70.200 us,2 B,,SP,4B,Write Transaction,82 01
0,2836,0:18.636.297,325.200 us,11 B,,SP,4B,Read Transaction,01 30 91 B7 09 B5 06 71 00 00 00*
0,2837,0:18.652.595,70.100 us,2 B,,SP,4B,Write Transaction,82 01
0,2838,0:18.652.666,49.800 us,1 B,,SP,4B,Read Transaction,01*
0,2839,0:18.652.717,70.100 us,2 B,,SP,4B,Write Transaction,82 01
0,2840,0:18.652.788,325.400 us,11 B,,SP,4B,Read Transaction,01 30 91 BB 09 B1 06 71 00 00 00*
0,2841,0:18.669.094,70.200 us,2 B,,SP,4B,Write Transaction,82 01
0,2842,0:18.669.165,49.900 us,1 B,,SP,4B,Read Transaction,01*
0,2843,0:18.669.217,70.100 us,2 B,,SP,4B,Write Transaction,82 01
0,2844,0:18.669.288,325.400 us,11 B,,SP,4B,Read Transaction,01 30 91 C0 09 AC 06 71 00 00 00*
0,2845,0:18.687.163,70.100 us,2 B,,SP,4B,Write Transaction,82 01
0,2846,0:18.687.234,49.700 us,1 B,,SP,4B,Read Transaction,01*
0,2847,0:18.687.285,70.100 us,2 B,,SP,4B,Write Transaction,82 01
0,2848,0:18.687.357,325.400 us,11 B,,SP,4B,Read Transaction,01 30 91 C5 09 A7 06 71 00 00 00*
0,2849,0:18.703.812,70.100 us,2 B,,SP,4B,Write Transaction,82 01
0,2850,0:18.703.883,49.700 us,1 B,,SP,4B,Read Transaction,01*
0,2851,0:18.703.934,70.100 us,2 B,,SP,4B,Write Transaction,82 01
0,2852,0:18.704.006,325.300 us,11 B,,SP,4B,Read Transaction,01 30 91 CA 09 A2 06 71 00 00 00*
0,2853,0:18.720.203,70.200 us,2 B,,SP,4B,Write Transaction,82 01
0,2854,0:18.720.274,49.800 us,1 B,,SP,4B,Read Transaction,01*
0,2855,0:18.720.325,70.200 us,2 B,,SP,4B,Write Transaction,82 01
0,2856,0:18.720.397,325.100 us,11 B,,SP,4B,Read Transaction,01 30 91 CF 09 9B 06 71 00 00 00*
0,2857,0:18.736.694,70.100 us,2 B,,SP,4B,Write Transaction,82 01
0,2858,0:18.736.765,49.800 us,1 B,,SP,4B,Read Transaction,01*
0,2859,0:18.736.816,70.100 us,2 B,,SP,4B,Write Transaction,82 01
0,2860,0:18.736.887,325.400 us,11 B,,SP,4B,Read Transaction,01 30 91 D5 09 95 06 71 00 00 00*
0,2861,0:18.753.187,70.100 us,2 B,,SP,4B,Write Transaction,82 01
0,2862,0:18.753.258,49.800 us,1 B,,SP,4B,Read Transaction,01*
0,2863,0:18.753.309,70.100 us,2 B,,SP,4B,Write Transaction,82 01
0,2864,0:18.753.380,325.100 us,11 B,,SP,4B,Read Transaction,01 30 91 DA 09 8F 06 71 00 00 00*
0,2865,0:18.769.681,70.100 us,2 B,,SP,4B,Write Transaction,82 01
0,2866,0:18.769.752,49.700 us,1 B,,SP,4B,Read Transaction,01*
0,2867,0:18.769.803,70.200 us,2 B,,SP,4B,Write Transaction,82 01
0,2868,0:18.769.875,325.100 us,11 B,,SP,4B,Read Transaction,01 30 91 E0 09 8A 06 71 00 00 00*
0,2869,0:18.786.172,70.100 us,2 B,,SP,4B,Write Transaction,82 01
0,2870,0:18.786.243,49.700 us,1 B,,SP,4B,Read Transaction,01*
0,2871,0:18.786.294,70.100 us,2 B,,SP,4B,Write Transaction,82 01
0,2872,0:18.786.366,325.100 us,11 B,,SP,4B,Read Transaction,01 30 91 E5 09 85 06 71 00 00 00*
0,2873,0:18.802.661,70.200 us,2 B,,SP,4B,Write Transaction,82 01
0,2874,0:18.802.732,49.800 us,1 B,,SP,4B,Read Transaction,01*
0,2875,0:18.802.783,70.200 us,2 B,,SP,4B,Write Transaction,82 01
0,2876,0:18.802.855,325.000 us,11 B,,SP,4B,Read Transaction,01 30 91 EA 09 7F 06 71 00 00 00*
0,2877,0:18.819.155,70.100 us,2 B,,SP,4B,Write Transaction,82 01
0,2878,0:18.819.226,49.800 us,1 B,,SP,4B,Read Transaction,01*
0,2879,0:18.819.277,70.100 us,2 B,,SP,4B,Write Transaction,82 01
0,2880,0:18.819.349,325.300 us,11 B,,SP,4B,Read Transaction,01 30 91 F0 09 7A 06 71 00 00 00*
0,2881,0:18.835.624,70.100 us,2 B,,SP,4B,Write Transaction,82 01
0,2882,0:18.835.695,49.800 us,1 B,,SP,4B,Read Transaction,01*
0,2883,0:18.835.746,70.100 us,2 B,,SP,4B,Write Transaction,82 01
0,2884,0:18.835.818,325.200 us,11 B,,SP,4B,Read Transaction,01 30 91 F5 09 75 06 71 00 00 00*
0,2885,0:18.853.724,70.200 us,2 B,,SP,4B,Write Transaction,82 01
0,2886,0:18.853.795,49.800 us,1 B,,SP,4B,Read Transaction,01*
0,2887,0:18.853.846,70.100 us,2 B,,SP,4B,Write Transaction,82 01
0,2888,0:18.853.917,325.300 us,11 B,,SP,4B,Read Transaction,01 30 91 FA 09 6F 06 71 00 00 00*
0,2889,0:18.870.209,70.200 us,2 B,,SP,4B,Write Transaction,82 01
0,2890,0:18.870.281,49.700 us,1 B,,SP,4B,Read Transaction,01*
0,2891,0:18.870.332,70.100 us,2 B,,SP,4B,Write Transaction,82 01
0,2892,0:18.870.403,325.200 us,11 B,,SP,4B,Read Transaction,01 30 91 01 0A 6A 06 71 00 00 00*
0,2893,0:18.885.793,70.200 us,2 B,,SP,4B,Write Transaction,82 01
0,2894,0:18.885.864,49.700 us,1 B,,SP,4B,Read Transaction,01*
0,2895,0:18.885.915,70.100 us,2 B,,SP,4B,Write Transaction,82 01
0,2896,0:18.885.986,318.400 us,11 B,,SP,4B,Read Transaction,01 29 12 02 06 01 01 16 00 00 00*
0,2897,0:18.886.837,70.100 us,2 B,,SP,4B,Write Transaction,82 01
0,2898,0:18.886.909,49.800 us,1 B,,SP,4B,Read Transaction,01*
0,2899,0:18.886.960,70.100 us,2 B,,SP,4B,Write Transaction,82 01
0,2900,0:18.887.031,325.200 us,11 B,,SP,4B,Read Transaction,01 30 91 06 0A 64 06 71 00 00 00*
0,2901,0:18.903.333,70.100 us,2 B,,SP,4B,Write Transaction,82 01
0,2902,0:18.903.404,49.800 us,1 B,,SP,4B,Read Transaction,01*
0,2903,0:18.903.456,70.100 us,2 B,,SP,4B,Write Transaction,82 01
0,2904,0:18.903.527,325.400 us,11 B,,SP,4B,Read Transaction,01 30 91 0B 0A 5E 06 71 00 00 00*
0,2905,0:18.919.717,70.200 us,2 B,,SP,4B,Write Transaction,82 01
0,2906,0:18.919.789,49.800 us,1 B,,SP,4B,Read Transaction,01*
0,2907,0:18.919.840,70.200 us,2 B,,SP,4B,Write Transaction,82 01
0,2908,0:18.919.911,325.300 us,11 B,,SP,4B,Read Transaction,01 30 91 10 0A 5A 06 71 00 00 00*
0,2909,0:18.936.212,70.200 us,2 B,,SP,4B,Write Transaction,82 01
0,2910,0:18.936.284,49.800 us,1 B,,SP,4B,Read Transaction,01*
0,2911,0:18.936.335,70.200 us,2 B,,SP,4B,Write Transaction,82 01
0,2912,0:18.936.406,325.300 us,11 B,,SP,4B,Read Transaction,01 30 91 13 0A 55 06 71 00 00 00*
0,2913,0:18.952.680,70.100 us,2 B,,SP,4B,Write Transaction,82 01
0,2914,0:18.952.752,49.800 us,1 B,,SP,4B,Read Transaction,01*
0,2915,0:18.952.803,70.100 us,2 B,,SP,4B,Write Transaction,82 01
0,2916,0:18.952.874,325.000 us,11 B,,SP,4B,Read Transaction,01 30 91 16 0A 52 06 71 00 00 00*
0,2917,0:18.969.146,70.100 us,2 B,,SP,4B,Write Transaction,82 01
0,2918,0:18.969.218,49.800 us,1 B,,SP,4B,Read Transaction,01*
0,2919,0:18.969.269,70.100 us,2 B,,SP,4B,Write Transaction,82 01
0,2920,0:18.969.340,325.000 us,11 B,,SP,4B,Read Transaction,01 30 91 19 0A 4E 06 71 00 00 00*
0,2921,0:18.985.613,70.200 us,2 B,,SP,4B,Write Transaction,82 01
0,2922,0:18.985.684,49.800 us,1 B,,SP,4B,Read Transaction,01*
0,2923,0:18.985.735,70.100 us,2 B,,SP,4B,Write Transaction,82 01
0,2924,0:18.985.807,325.000 us,11 B,,SP,4B,Read Transaction,01 30 91 1C 0A 4B 06 71 00 00 00*
0,2925,0:19.002.090,70.100 us,2 B,,SP,4B,Write Transaction,82 01
0,2926,0:19.002.162,49.800 us,1 B,,SP,4B,Read Transaction,01*
0,2927,0:19.002.213,70.100 us,2 B,,SP,4B,Write Transaction,82 01
0,2928,0:19.002.284,325.100 us,11 B,,SP,4B,Read Transaction,01 30 91 1E 0A 48 06 71 00 00 00*
0,2929,0:19.020.235,70.100 us,2 B,,SP,4B,Write Transaction,82 01
0,2930,0:19.020.306,49.800 us,1 B,,SP,4B,Read Transaction,01*
0,2931,0:19.020.357,70.100 us,2 B,,SP,4B,Write Transaction,82 01
0,2932,0:19.020.428,325.200 us,11 B,,SP,4B,Read Transaction,01 30 91 20 0A 46 06 71 00 00 00*
0,2933,0:19.036.747,70.100 us,2 B,,SP,4B,Write Transaction,82 01
0,2934,0:19.036.819,49.800 us,1 B,,SP,4B,Read Transaction,01*
0,2935,0:19.036.870,70.100 us,2 B,,SP,4B,Write Transaction,82 01
0,2936,0:19.036.941,325.300 us,11 B,,SP,4B,Read Transaction,01 30 91 22 0A 43 06 71 00 00 00*
0,2937,0:19.053.228,70.100 us,2 B,,SP,4B,Write Transaction,82 01
0,2938,0:19.053.300,49.800 us,1 B,,SP,4B,Read Transaction,01*
0,2939,0:19.053.351,70.100 us,2 B,,SP,4B,Write Transaction,82 01
0,2940,0:19.053.422,325.200 us,11 B,,SP,4B,Read Transaction,01 30 91 24 0A 41 06 71 00 00 00*
0,2941,0:19.069.695,70.200 us,2 B,,SP,4B,Write Transaction,82 01
0,2942,0:19.069.767,49.800 us,1 B,,SP,4B,Read Transaction,01*
0,2943,0:19.069.818,70.200 us,2 B,,SP,4B,Write Transaction,82 01
0,2944,0:19.069.889,325.200 us,11 B,,SP,4B,Read Transaction,01 30 91 26 0A 3E 06 71 00 00 00*
0,2945,0:19.086.192,70.100 us,2 B,,SP,4B,Write Transaction,82 01
0,2946,0:19.086.264,49.800 us,1 B,,SP,4B,Read Transaction,01*
0,2947,0:19.086.315,70.100 us,2 B,,SP,4B,Write Transaction,82 01
0,2948,0:19.086.386,325.300 us,11 B,,SP,4B,Read Transaction,01 30 91 28 0A 3C 06 71 00 00 00*
0,2949,0:19.102.785,70.200 us,2 B,,SP,4B,Write Transaction,82 01
0,2950,0:19.102.857,49.800 us,1 B,,SP,4B,Read Transaction,01*
0,2951,0:19.102.908,70.200 us,2 B,,SP,4B,Write Transaction,82 01
0,2952,0:19.102.979,325.200 us,11 B,,SP,4B,Read Transaction,01 30 91 2B 0A 38 06 71 00 00 00*
0,2953,0:19.119.178,70.100 us,2 B,,SP,4B,Write Transaction,82 01
0,2954,0:19.119.249,49.700 us,1 B,,SP,4B,Read Transaction,01*
0,2955,0:19.119.300,70.100 us,2 B,,SP,4B,Write Transaction,82 01
0,2956,0:19.119.372,325.100 us,11 B,,SP,4B,Read Transaction,01 30 91 2E 0A 35 06 71 00 00 00*
0,2957,0:19.135.653,70.100 us,2 B,,SP,4B,Write Transaction,82 01
0,2958,0:19.135.725,49.800 us,1 B,,SP,4B,Read Transaction,01*
0,2959,0:19.135.776,70.100 us,2 B,,SP,4B,Write Transaction,82 01
0,2960,0:19.135.847,325.100 us,11 B,,SP,4B,Read Transaction,01 30 91 31 0A 30 06 71 00 00 00*
0,2961,0:19.152.150,70.100 us,2 B,,SP,4B,Write Transaction,82 01
0,2962,0:19.152.222,49.800 us,1 B,,SP,4B,Read Transaction,01*
0,2963,0:19.152.273,70.100 us,2 B,,SP,4B,Write Transaction,82 01
0,2964,0:19.152.344,325.100 us,11 B,,SP,4B,Read Transaction,01 30 91 35 0A 2B 06 71 00 00 00*
0,2965,0:19.168.647,70.100 us,2 B,,SP,4B,Write Transaction,82 01
0,2966,0:19.168.719,49.800 us,1 B,,SP,4B,Read Transaction,01*
0,2967,0:19.168.770,70.100 us,2 B,,SP,4B,Write Transaction,82 01
0,2968,0:19.168.841,325.300 us,11 B,,SP,4B,Read Transaction,01 30 91 39 0A 25 06 71 00 00 00*
0,2969,0:19.186.712,70.100 us,2 B,,SP,4B,Write Transaction,82 01
0,2970,0:19.186.783,49.800 us,1 B,,SP,4B,Read Transaction,01*
0,2971,0:19.186.834,70.100 us,2 B,,SP,4B,Write Transaction,82 01
0,2972,0:19.186.906,325.200 us,11 B,,SP,4B,Read Transaction,01 30 91 3E 0A 1F 06 71 00 00 00*
0,2973,0:19.203.190,70.200 us,2 B,,SP,4B,Write Transaction,82 01
0,2974,0:19.203.262,49.800 us,1 B,,SP,4B,Read Transaction,01*
0,2975,0:19.203.313,70.200 us,2 B,,SP,4B,Write Transaction,82 01
0,2976,0:19.203.384,325.200 us,11 B,,SP,4B,Read Transaction,01 30 91 43 0A 19 06 71 00 00 00*
0,2977,0:19.219.660,70.100 us,2 B,,SP,4B,Write Transaction,82 01
0,2978,0:19.219.731,49.800 us,1 B,,SP,4B,Read Transaction,01*
0,2979,0:19.219.782,70.100 us,2 B,,SP,4B,Write Transaction,82 01
0,2980,0:19.219.853,325.200 us,11 B,,SP,4B,Read Transaction,01 30 91 49 0A 12 06 71 00 00 00*
0,2981,0:19.236.131,70.100 us,2 B,,SP,4B,Write Transaction,82 01
0,2982,0:19.236.202,49.800 us,1 B,,SP,4B,Read Transaction,01*
0,2983,0:19.236.253,70.100 us,2 B,,SP,4B,Write Transaction,82 01
0,2984,0:19.236.325,325.000 us,11 B,,SP,4B,Read Transaction,01 30 91 4F 0A 0C 06 71 00 00 00*
0,2985,0:19.252.598,70.100 us,2 B,,SP,4B,Write Transaction,82 01
0,2986,0:19.252.670,49.800 us,1 B,,SP,4B,Read Transaction,01*
0,2987,0:19.252.721,70.100 us,2 B,,SP,4B,Write Transaction,82 01
0,2988,0:19.252.792,325.200 us,11 B,,SP,4B,Read Transaction,01 30 91 57 0A 05 06 71 00 00 00*
0,2989,0:19.269.091,70.200 us,2 B,,SP,4B,Write Transaction,82 01
0,2990,0:19.269.163,49.800 us,1 B,,SP,4B,Read Transaction,01*
0,2991,0:19.269.214,70.200 us,2 B,,SP,4B,Write Transaction,82 01
0,2992,0:19.269.285,325.000 us,11 B,,SP,4B,Read Transaction,01 30 91 5E 0A FF 05 71 00 00 00*
0,2993,0:19.285.586,70.100 us,2 B,,SP,4B,Write Transaction,82 01
0,2994,0:19.285.658,49.800 us,1 B,,SP,4B,Read Transaction,01*
0,2995,0:19.285.709,70.100 us,2 B,,SP,4B,Write Transaction,82 01
0,2996,0:19.285.780,325.100 us,11 B,,SP,4B,Read Transaction,01 30 91 64 0A F9 05 71 00 00 00*
0,2997,0:19.302.159,70.200 us,2 B,,SP,4B,Write Transaction,82 01
0,2998,0:19.302.231,49.800 us,1 B,,SP,4B,Read Transaction,01*
0,2999,0:19.302.282,70.100 us,2 B,,SP,4B,Write Transaction,82 01
0,3000,0:19.302.353,325.200 us,11 B,,SP,4B,Read Transaction,01 30 91 6A 0A F3 05 71 00 00 00*
0,3001,0:19.318.543,70.200 us,2 B,,SP,4B,Write Transaction,82 01
0,3002,0:19.318.614,49.800 us,1 B,,SP,4B,Read Transaction,01*
0,3003,0:19.318.665,70.200 us,2 B,,SP,4B,Write Transaction,82 01
0,3004,0:19.318.737,325.200 us,11 B,,SP,4B,Read Transaction,01 30 91 70 0A ED 05 71 00 00 00*
0,3005,0:19.335.035,70.200 us,2 B,,SP,4B,Write Transaction,82 01
0,3006,0:19.335.106,49.800 us,1 B,,SP,4B,Read Transaction,01*
0,3007,0:19.335.157,70.200 us,2 B,,SP,4B,Write Transaction,82 01
0,3008,0:19.335.228,325.100 us,11 B,,SP,4B,Read Transaction,01 30 91 76 0A E8 05 71 00 00 00*
0,3009,0:19.353.120,70.200 us,2 B,,SP,4B,Write Transaction,82 01
0,3010,0:19.353.191,49.800 us,1 B,,SP,4B,Read Transaction,01*
0,3011,0:19.353.242,70.200 us,2 B,,SP,4B,Write Transaction,82 01
0,3012,0:19.353.313,325.200 us,11 B,,SP,4B,Read Transaction,01 30 91 7C 0A E2 05 71 00 00 00*
0,3013,0:19.369.645,70.100 us,2 B,,SP,4B,Write Transaction,82 01
0,3014,0:19.369.717,49.800 us,1 B,,SP,4B,Read Transaction,01*
0,3015,0:19.369.768,70.100 us,2 B,,SP,4B,Write Transaction,82 01
0,3016,0:19.369.839,325.400 us,11 B,,SP,4B,Read Transaction,01 30 91 82 0A DD 05 71 00 00 00*
0,3017,0:19.386.146,70.200 us,2 B,,SP,4B,Write Transaction,82 01
0,3018,0:19.386.217,49.800 us,1 B,,SP,4B,Read Transaction,01*
0,3019,0:19.386.268,70.100 us,2 B,,SP,4B,Write Transaction,82 01
0,3020,0:19.386.340,325.200 us,11 B,,SP,4B,Read Transaction,01 30 91 89 0A D6 05 71 00 00 00*
0,3021,0:19.402.614,70.100 us,2 B,,SP,4B,Write Transaction,82 01
0,3022,0:19.402.685,49.800 us,1 B,,SP,4B,Read Transaction,01*
0,3023,0:19.402.736,70.100 us,2 B,,SP,4B,Write Transaction,82 01
0,3024,0:19.402.808,325.400 us,11 B,,SP,4B,Read Transaction,01 30 91 90 0A CF 05 71 00 00 00*
0,3025,0:19.419.108,70.200 us,2 B,,SP,4B,Write Transaction,82 01
0,3026,0:19.419.180,49.800 us,1 B,,SP,4B,Read Transaction,01*
0,3027,0:19.419.231,70.200 us,2 B,,SP,4B,Write Transaction,82 01
0,3028,0:19.419.302,325.200 us,11 B,,SP,4B,Read Transaction,01 30 91 97 0A C7 05 71 00 00 00*
0,3029,0:19.435.603,70.200 us,2 B,,SP,4B,Write Transaction,82 01
0,3030,0:19.435.675,49.800 us,1 B,,SP,4B,Read Transaction,01*
0,3031,0:19.435.726,70.200 us,2 B,,SP,4B,Write Transaction,82 01
0,3032,0:19.435.797,325.400 us,11 B,,SP,4B,Read Transaction,01 30 91 9E 0A C0 05 71 00 00 00*
0,3033,0:19.452.072,70.200 us,2 B,,SP,4B,Write Transaction,82 01
0,3034,0:19.452.143,49.800 us,1 B,,SP,4B,Read Transaction,01*
0,3035,0:19.452.194,70.200 us,2 B,,SP,4B,Write Transaction,82 01
0,3036,0:19.452.266,325.100 us,11 B,,SP,4B,Read Transaction,01 30 91 A5 0A B9 05 6C 00 00 00*
0,3037,0:19.468.566,70.100 us,2 B,,SP,4B,Write Transaction,82 01
0,3038,0:19.468.638,49.800 us,1 B,,SP,4B,Read Transaction,01*
0,3039,0:19.468.689,70.100 us,2 B,,SP,4B,Write Transaction,82 01
0,3040,0:19.468.760,325.500 us,11 B,,SP,4B,Read Transaction,01 30 91 AD 0A B1 05 6C 00 00 00*
0,3041,0:19.485.179,70.200 us,2 B,,SP,4B,Write Transaction,82 01
0,3042,0:19.485.251,49.800 us,1 B,,SP,4B,Read Transaction,01*
0,3043,0:19.485.302,70.100 us,2 B,,SP,4B,Write Transaction,82 01
0,3044,0:19.485.373,325.200 us,11 B,,SP,4B,Read Transaction,01 30 91 B5 0A A9 05 6C 00 00 00*
0,3045,0:19.501.533,70.100 us,2 B,,SP,4B,Write Transaction,82 01
0,3046,0:19.501.604,49.800 us,1 B,,SP,4B,Read Transaction,01*
0,3047,0:19.501.655,70.100 us,2 B,,SP,4B,Write Transaction,82 01
0,3048,0:19.501.727,325.400 us,11 B,,SP,4B,Read Transaction,01 30 91 BF 0A A0 05 6C 00 00 00*
0,3049,0:19.519.597,70.200 us,2 B,,SP,4B,Write Transaction,82 01
0,3050,0:19.519.668,49.700 us,1 B,,SP,4B,Read Transaction,01*
0,3051,0:19.519.719,70.200 us,2 B,,SP,4B,Write Transaction,82 01
0,3052,0:19.519.790,325.100 us,11 B,,SP,4B,Read Transaction,01 30 91 C9 0A 97 05 6C 00 00 00*
0,3053,0:19.536.096,70.100 us,2 B,,SP,4B,Write Transaction,82 01
0,3054,0:19.536.167,49.800 us,1 B,,SP,4B,Read Transaction,01*
0,3055,0:19.536.218,70.100 us,2 B,,SP,4B,Write Transaction,82 01
0,3056,0:19.536.290,325.200 us,11 B,,SP,4B,Read Transaction,01 30 91 D2 0A 8E 05 71 00 00 00*
0,3057,0:19.552.565,70.100 us,2 B,,SP,4B,Write Transaction,82 01
0,3058,0:19.552.636,49.800 us,1 B,,SP,4B,Read Transaction,01*
0,3059,0:19.552.687,70.100 us,2 B,,SP,4B,Write Transaction,82 01
0,3060,0:19.552.758,325.000 us,11 B,,SP,4B,Read Transaction,01 30 91 DB 0A 85 05 71 00 00 00*
0,3061,0:19.569.058,70.100 us,2 B,,SP,4B,Write Transaction,82 01
0,3062,0:19.569.129,49.800 us,1 B,,SP,4B,Read Transaction,01*
0,3063,0:19.569.181,70.100 us,2 B,,SP,4B,Write Transaction,82 01
0,3064,0:19.569.252,324.900 us,11 B,,SP,4B,Read Transaction,01 30 91 E3 0A 7D 05 71 00 00 00*
0,3065,0:19.585.525,70.200 us,2 B,,SP,4B,Write Transaction,82 01
0,3066,0:19.585.596,49.800 us,1 B,,SP,4B,Read Transaction,01*
0,3067,0:19.585.647,70.200 us,2 B,,SP,4B,Write Transaction,82 01
0,3068,0:19.585.719,325.200 us,11 B,,SP,4B,Read Transaction,01 30 91 EB 0A 74 05 71 00 00 00*
0,3069,0:19.602.027,70.100 us,2 B,,SP,4B,Write Transaction,82 01
0,3070,0:19.602.098,49.800 us,1 B,,SP,4B,Read Transaction,01*
0,3071,0:19.602.149,70.100 us,2 B,,SP,4B,Write Transaction,82 01
0,3072,0:19.602.220,325.100 us,11 B,,SP,4B,Read Transaction,01 30 91 F3 0A 6A 05 71 00 00 00*
0,3073,0:19.618.500,70.100 us,2 B,,SP,4B,Write Transaction,82 01
0,3074,0:19.618.571,49.800 us,1 B,,SP,4B,Read Transaction,01*
0,3075,0:19.618.622,70.100 us,2 B,,SP,4B,Write Transaction,82 01
0,3076,0:19.618.694,325.100 us,11 B,,SP,4B,Read Transaction,01 30 91 FC 0A 61 05 71 00 00 00*
0,3077,0:19.634.990,70.100 us,2 B,,SP,4B,Write Transaction,82 01
0,3078,0:19.635.061,49.800 us,1 B,,SP,4B,Read Transaction,01*
0,3079,0:19.635.112,70.100 us,2 B,,SP,4B,Write Transaction,82 01
0,3080,0:19.635.183,325.000 us,11 B,,SP,4B,Read Transaction,01 30 91 04 0B 57 05 71 00 00 00*
0,3081,0:19.651.490,70.100 us,2 B,,SP,4B,Write Transaction,82 01
0,3082,0:19.651.561,49.800 us,1 B,,SP,4B,Read Transaction,01*
0,3083,0:19.651.613,70.100 us,2 B,,SP,4B,Write Transaction,82 01
0,3084,0:19.651.684,325.300 us,11 B,,SP,4B,Read Transaction,01 30 91 0D 0B 4D 05 71 00 00 00*
0,3085,0:19.667.988,70.100 us,2 B,,SP,4B,Write Transaction,82 01
0,3086,0:19.668.059,49.800 us,1 B,,SP,4B,Read Transaction,01*
0,3087,0:19.668.110,70.100 us,2 B,,SP,4B,Write Transaction,82 01
0,3088,0:19.668.182,325.300 us,11 B,,SP,4B,Read Transaction,01 30 91 16 0B 44 05 71 00 00 00*
0,3089,0:19.686.188,70.100 us,2 B,,SP,4B,Write Transaction,82 01
0,3090,0:19.686.260,49.700 us,1 B,,SP,4B,Read Transaction,01*
0,3091,0:19.686.311,70.200 us,2 B,,SP,4B,Write Transaction,82 01
0,3092,0:19.686.382,325.400 us,11 B,,SP,4B,Read Transaction,01 30 91 1E 0B 3C 05 71 00 00 00*
0,3093,0:19.702.607,70.100 us,2 B,,SP,4B,Write Transaction,82 01
0,3094,0:19.702.679,49.800 us,1 B,,SP,4B,Read Transaction,01*
0,3095,0:19.702.730,70.100 us,2 B,,SP,4B,Write Transaction,82 01
0,3096,0:19.702.801,325.000 us,11 B,,SP,4B,Read Transaction,01 30 91 26 0B 35 05 71 00 00 00*
0,3097,0:19.719.123,70.100 us,2 B,,SP,4B,Write Transaction,82 01
0,3098,0:19.719.194,49.800 us,1 B,,SP,4B,Read Transaction,01*
0,3099,0:19.719.245,70.100 us,2 B,,SP,4B,Write Transaction,82 01
0,3100,0:19.719.317,325.100 us,11 B,,SP,4B,Read Transaction,01 30 91 2E 0B 2D 05 71 00 00 00*
0,3101,0:19.735.606,70.100 us,2 B,,SP,4B,Write Transaction,82 01
0,3102,0:19.735.677,49.800 us,1 B,,SP,4B,Read Transaction,01*
0,3103,0:19.735.728,70.100 us,2 B,,SP,4B,Write Transaction,82 01
0,3104,0:19.735.800,325.300 us,11 B,,SP,4B,Read Transaction,01 30 91 35 0B 26 05 71 00 00 00*
0,3105,0:19.752.093,70.100 us,2 B,,SP,4B,Write Transaction,82 01
0,3106,0:19.752.164,49.700 us,1 B,,SP,4B,Read Transaction,01*
0,3107,0:19.752.215,70.200 us,2 B,,SP,4B,Write Transaction,82 01
0,3108,0:19.752.287,325.200 us,11 B,,SP,4B,Read Transaction,01 30 91 3D 0B 1E 05 71 00 00 00*
0,3109,0:19.768.589,70.100 us,2 B,,SP,4B,Write Transaction,82 01
0,3110,0:19.768.661,49.800 us,1 B,,SP,4B,Read Transaction,01*
0,3111,0:19.768.712,70.100 us,2 B,,SP,4B,Write Transaction,82 01
0,3112,0:19.768.783,324.900 us,11 B,,SP,4B,Read Transaction,01 30 91 45 0B 16 05 71 00 00 00*
0,3113,0:19.785.082,70.200 us,2 B,,SP,4B,Write Transaction,82 01
0,3114,0:19.785.153,49.800 us,1 B,,SP,4B,Read Transaction,01*
0,3115,0:19.785.204,70.200 us,2 B,,SP,4B,Write Transaction,82 01
0,3116,0:19.785.276,325.200 us,11 B,,SP,4B,Read Transaction,01 30 91 4C 0B 0F 05 71 00 00 00*
0,3117,0:19.801.573,70.100 us,2 B,,SP,4B,Write Transaction,82 01
0,3118,0:19.801.644,49.800 us,1 B,,SP,4B,Read Transaction,01*
0,3119,0:19.801.695,70.100 us,2 B,,SP,4B,Write Transaction,82 01
0,3120,0:19.801.766,325.400 us,11 B,,SP,4B,Read Transaction,01 30 91 53 0B 07 05 71 00 00 00*
0,3121,0:19.818.069,70.100 us,2 B,,SP,4B,Write Transaction,82 01
0,3122,0:19.818.140,49.700 us,1 B,,SP,4B,Read Transaction,01*
0,3123,0:19.818.191,70.100 us,2 B,,SP,4B,Write Transaction,82 01
0,3124,0:19.818.263,325.000 us,11 B,,SP,4B,Read Transaction,01 30 91 59 0B 00 05 71 00 00 00*
0,3125,0:19.834.566,70.100 us,2 B,,SP,4B,Write Transaction,82 01
0,3126,0:19.834.637,49.800 us,1 B,,SP,4B,Read Transaction,01*
0,3127,0:19.834.689,70.100 us,2 B,,SP,4B,Write Transaction,82 01
0,3128,0:19.834.760,325.400 us,11 B,,SP,4B,Read Transaction,01 30 91 5E 0B FA 04 71 00 00 00*
0,3129,0:19.852.718,70.100 us,2 B,,SP,4B,Write Transaction,82 01
0,3130,0:19.852.789,49.800 us,1 B,,SP,4B,Read Transaction,01*
0,3131,0:19.852.840,70.100 us,2 B,,SP,4B,Write Transaction,82 01
0,3132,0:19.852.912,325.300 us,11 B,,SP,4B,Read Transaction,01 30 91 63 0B F4 04 71 00 00 00*
0,3133,0:19.869.249,70.100 us,2 B,,SP,4B,Write Transaction,82 01
0,3134,0:19.869.320,49.800 us,1 B,,SP,4B,Read Transaction,01*
0,3135,0:19.869.371,70.100 us,2 B,,SP,4B,Write Transaction,82 01
0,3136,0:19.869.443,325.400 us,11 B,,SP,4B,Read Transaction,01 30 91 68 0B EE 04 71 00 00 00*
0,3137,0:19.885.863,70.100 us,2 B,,SP,4B,Write Transaction,82 01
0,3138,0:19.885.934,49.700 us,1 B,,SP,4B,Read Transaction,01*
0,3139,0:19.885.985,70.200 us,2 B,,SP,4B,Write Transaction,82 01
0,3140,0:19.886.057,325.100 us,11 B,,SP,4B,Read Transaction,01 30 91 6D 0B E7 04 71 00 00 00*
0,3141,0:19.902.246,70.100 us,2 B,,SP,4B,Write Transaction,82 01
0,3142,0:19.902.318,49.800 us,1 B,,SP,4B,Read Transaction,01*
0,3143,0:19.902.369,70.100 us,2 B,,SP,4B,Write Transaction,82 01
0,3144,0:19.902.440,325.000 us,11 B,,SP,4B,Read Transaction,01 30 91 72 0B E2 04 71 00 00 00*
0,3145,0:19.918.743,70.100 us,2 B,,SP,4B,Write Transaction,82 01
0,3146,0:19.918.815,49.800 us,1 B,,SP,4B,Read Transaction,01*
0,3147,0:19.918.866,70.100 us,2 B,,SP,4B,Write Transaction,82 01
0,3148,0:19.918.937,325.100 us,11 B,,SP,4B,Read Transaction,01 30 91 77 0B DB 04 6C 00 00 00*
0,3149,0:19.935.236,70.200 us,2 B,,SP,4B,Write Transaction,82 01
0,3150,0:19.935.307,49.800 us,1 B,,SP,4B,Read Transaction,01*
0,3151,0:19.935.359,70.200 us,2 B,,SP,4B,Write Transaction,82 01
0,3152,0:19.935.430,325.200 us,11 B,,SP,4B,Read Transaction,01 30 91 7B 0B D5 04 6C 00 00 00*
0,3153,0:19.951.725,70.100 us,2 B,,SP,4B,Write Transaction,82 01
0,3154,0:19.951.796,49.800 us,1 B,,SP,4B,Read Transaction,01*
0,3155,0:19.951.847,70.100 us,2 B,,SP,4B,Write Transaction,82 01
0,3156,0:19.951.919,325.600 us,11 B,,SP,4B,Read Transaction,01 30 91 80 0B CF 04 6C 00 00 00*
0,3157,0:19.968.221,70.100 us,2 B,,SP,4B,Write Transaction,82 01
0,3158,0:19.968.292,49.800 us,1 B,,SP,4B,Read Transaction,01*
0,3159,0:19.968.343,70.100 us,2 B,,SP,4B,Write Transaction,82 01
0,3160,0:19.968.415,325.300 us,11 B,,SP,4B,Read Transaction,01 30 91 86 0B C8 04 6C 00 00 00*
0,3161,0:19.984.714,70.100 us,2 B,,SP,4B,Write Transaction,82 01
0,3162,0:19.984.785,49.800 us,1 B,,SP,4B,Read Transaction,01*
0,3163,0:19.984.836,70.100 us,2 B,,SP,4B,Write Transaction,82 01
0,3164,0:19.984.907,325.400 us,11 B,,SP,4B,Read Transaction,01 30 91 8B 0B C2 04 6C 00 00 00*
0,3165,0:20.001.222,70.200 us,2 B,,SP,4B,Write Transaction,82 01
0,3166,0:20.001.294,49.800 us,1 B,,SP,4B,Read Transaction,01*
0,3167,0:20.001.345,70.200 us,2 B,,SP,4B,Write Transaction,82 01
0,3168,0:20.001.416,325.200 us,11 B,,SP,4B,Read Transaction,01 30 91 91 0B BB 04 6C 00 00 00*
0,3169,0:20.019.276,70.200 us,2 B,,SP,4B,Write Transaction,82 01
0,3170,0:20.019.347,49.800 us,1 B,,SP,4B,Read Transaction,01*
0,3171,0:20.019.398,70.200 us,2 B,,SP,4B,Write Transaction,82 01
0,3172,0:20.019.470,325.200 us,11 B,,SP,4B,Read Transaction,01 30 91 97 0B B5 04 71 00 00 00*
0,3173,0:20.035.804,70.100 us,2 B,,SP,4B,Write Transaction,82 01
0,3174,0:20.035.876,49.800 us,1 B,,SP,4B,Read Transaction,01*
0,3175,0:20.035.927,70.100 us,2 B,,SP,4B,Write Transaction,82 01
0,3176,0:20.035.998,325.300 us,11 B,,SP,4B,Read Transaction,01 30 91 9E 0B AE 04 71 00 00 00*
0,3177,0:20.052.288,70.100 us,2 B,,SP,4B,Write Transaction,82 01
0,3178,0:20.052.359,49.700 us,1 B,,SP,4B,Read Transaction,01*
0,3179,0:20.052.410,70.200 us,2 B,,SP,4B,Write Transaction,82 01
0,3180,0:20.052.481,325.200 us,11 B,,SP,4B,Read Transaction,01 30 91 A5 0B A7 04 71 00 00 00*
0,3181,0:20.068.779,70.100 us,2 B,,SP,4B,Write Transaction,82 01
0,3182,0:20.068.851,49.700 us,1 B,,SP,4B,Read Transaction,01*
0,3183,0:20.068.902,70.100 us,2 B,,SP,4B,Write Transaction,82 01
0,3184,0:20.068.973,325.400 us,11 B,,SP,4B,Read Transaction,01 30 91 AA 0B A1 04 71 00 00 00*
0,3185,0:20.085.343,70.200 us,2 B,,SP,4B,Write Transaction,82 01
0,3186,0:20.085.415,49.800 us,1 B,,SP,4B,Read Transaction,01*
0,3187,0:20.085.466,70.100 us,2 B,,SP,4B,Write Transaction,82 01
0,3188,0:20.085.537,325.200 us,11 B,,SP,4B,Read Transaction,01 30 91 B0 0B 9B 04 71 00 00 00*
0,3189,0:20.101.754,70.100 us,2 B,,SP,4B,Write Transaction,82 01
0,3190,0:20.101.826,49.800 us,1 B,,SP,4B,Read Transaction,01*
0,3191,0:20.101.877,70.100 us,2 B,,SP,4B,Write Transaction,82 01
0,3192,0:20.101.948,325.200 us,11 B,,SP,4B,Read Transaction,01 30 91 B6 0B 95 04 71 00 00 00*
0,3193,0:20.118.252,70.100 us,2 B,,SP,4B,Write Transaction,82 01
0,3194,0:20.118.324,49.800 us,1 B,,SP,4B,Read Transaction,01*
0,3195,0:20.118.375,70.100 us,2 B,,SP,4B,Write Transaction,82 01
0,3196,0:20.118.446,325.300 us,11 B,,SP,4B,Read Transaction,01 30 91 BB 0B 8F 04 76 00 00 00*
0,3197,0:20.134.745,70.100 us,2 B,,SP,4B,Write Transaction,82 01
0,3198,0:20.134.817,49.800 us,1 B,,SP,4B,Read Transaction,01*
0,3199,0:20.134.868,70.100 us,2 B,,SP,4B,Write Transaction,82 01
0,3200,0:20.134.939,325.200 us,11 B,,SP,4B,Read Transaction,01 30 91 C0 0B 8A 04 76 00 00 00*
0,3201,0:20.151.242,70.200 us,2 B,,SP,4B,Write Transaction,82 01
0,3202,0:20.151.313,49.800 us,1 B,,SP,4B,Read Transaction,01*
0,3203,0:20.151.364,70.200 us,2 B,,SP,4B,Write Transaction,82 01
0,3204,0:20.151.436,325.000 us,11 B,,SP,4B,Read Transaction,01 30 91 C6 0B 83 04 76 00 00 00*
0,3205,0:20.167.755,70.100 us,2 B,,SP,4B,Write Transaction,82 01
0,3206,0:20.167.827,49.700 us,1 B,,SP,4B,Read Transaction,01*
0,3207,0:20.167.878,70.100 us,2 B,,SP,4B,Write Transaction,82 01
0,3208,0:20.167.949,325.100 us,11 B,,SP,4B,Read Transaction,01 30 91 CC 0B 7C 04 76 00 00 00*
0,3209,0:20.185.823,70.200 us,2 B,,SP,4B,Write Transaction,82 01
0,3210,0:20.185.894,49.700 us,1 B,,SP,4B,Read Transaction,01*
0,3211,0:20.185.945,70.200 us,2 B,,SP,4B,Write Transaction,82 01
0,3212,0:20.186.016,325.400 us,11 B,,SP,4B,Read Transaction,01 30 91 D2 0B 74 04 76 00 00 00*
0,3213,0:20.202.346,70.100 us,2 B,,SP,4B,Write Transaction,82 01
0,3214,0:20.202.418,49.800 us,1 B,,SP,4B,Read Transaction,01*
0,3215,0:20.202.469,70.100 us,2 B,,SP,4B,Write Transaction,82 01
0,3216,0:20.202.540,325.000 us,11 B,,SP,4B,Read Transaction,01 30 91 DA 0B 6A 04 70 00 00 00*
0,3217,0:20.218.838,70.100 us,2 B,,SP,4B,Write Transaction,82 01
0,3218,0:20.218.909,49.800 us,1 B,,SP,4B,Read Transaction,01*
0,3219,0:20.218.960,70.100 us,2 B,,SP,4B,Write Transaction,82 01
0,3220,0:20.219.032,325.300 us,11 B,,SP,4B,Read Transaction,01 30 91 E2 0B 60 04 70 00 00 00*
0,3221,0:20.235.329,70.100 us,2 B,,SP,4B,Write Transaction,82 01
0,3222,0:20.235.400,49.800 us,1 B,,SP,4B,Read Transaction,01*
0,3223,0:20.235.451,70.100 us,2 B,,SP,4B,Write Transaction,82 01
0,3224,0:20.235.523,325.300 us,11 B,,SP,4B,Read Transaction,01 30 91 EB 0B 56 04 70 00 00 00*
0,3225,0:20.251.822,70.100 us,2 B,,SP,4B,Write Transaction,82 01
0,3226,0:20.251.894,49.800 us,1 B,,SP,4B,Read Transaction,01*
0,3227,0:20.251.945,70.100 us,2 B,,SP,4B,Write Transaction,82 01
0,3228,0:20.252.016,325.300 us,11 B,,SP,4B,Read Transaction,01 30 91 F5 0B 4A 04 70 00 00 00*
0,3229,0:20.268.439,70.100 us,2 B,,SP,4B,Write Transaction,82 01
0,3230,0:20.268.510,49.800 us,1 B,,SP,4B,Read Transaction,01*
0,3231,0:20.268.562,70.100 us,2 B,,SP,4B,Write Transaction,82 01
0,3232,0:20.268.633,325.200 us,11 B,,SP,4B,Read Transaction,01 30 91 FF 0B 3F 04 70 00 00 00*
0,3233,0:20.284.798,70.200 us,2 B,,SP,4B,Write Transaction,82 01
0,3234,0:20.284.870,49.800 us,1 B,,SP,4B,Read Transaction,01*
0,3235,0:20.284.921,70.200 us,2 B,,SP,4B,Write Transaction,82 01
0,3236,0:20.284.992,325.300 us,11 B,,SP,4B,Read Transaction,01 30 91 09 0C 35 04 70 00 00 00*
0,3237,0:20.301.310,70.100 us,2 B,,SP,4B,Write Transaction,82 01
0,3238,0:20.301.381,49.800 us,1 B,,SP,4B,Read Transaction,01*
0,3239,0:20.301.432,70.100 us,2 B,,SP,4B,Write Transaction,82 01
0,3240,0:20.301.504,325.200 us,11 B,,SP,4B,Read Transaction,01 30 91 11 0C 2B 04 70 00 00 00*
0,3241,0:20.317.795,70.100 us,2 B,,SP,4B,Write Transaction,82 01
0,3242,0:20.317.866,49.800 us,1 B,,SP,4B,Read Transaction,01*
0,3243,0:20.317.917,70.100 us,2 B,,SP,4B,Write Transaction,82 01
0,3244,0:20.317.989,325.000 us,11 B,,SP,4B,Read Transaction,01 30 91 19 0C 22 04 70 00 00 00*
0,3245,0:20.334.287,70.100 us,2 B,,SP,4B,Write Transaction,82 01
0,3246,0:20.334.358,49.800 us,1 B,,SP,4B,Read Transaction,01*
0,3247,0:20.334.409,70.200 us,2 B,,SP,4B,Write Transaction,82 01
0,3248,0:20.334.481,325.200 us,11 B,,SP,4B,Read Transaction,01 30 91 20 0C 1A 04 70 00 00 00*
0,3249,0:20.352.352,70.100 us,2 B,,SP,4B,Write Transaction,82 01
0,3250,0:20.352.424,49.800 us,1 B,,SP,4B,Read Transaction,01*
0,3251,0:20.352.475,70.100 us,2 B,,SP,4B,Write Transaction,82 01
0,3252,0:20.352.546,324.700 us,11 B,,SP,4B,Read Transaction,01 30 91 26 0C 12 04 70 00 00 00*
0,3253,0:20.368.851,70.100 us,2 B,,SP,4B,Write Transaction,82 01
0,3254,0:20.368.922,49.800 us,1 B,,SP,4B,Read Transaction,01*
0,3255,0:20.368.973,70.100 us,2 B,,SP,4B,Write Transaction,82 01
0,3256,0:20.369.044,325.400 us,11 B,,SP,4B,Read Transaction,01 30 91 2C 0C 0B 04 70 00 00 00*
0,3257,0:20.385.320,70.100 us,2 B,,SP,4B,Write Transaction,82 01
0,3258,0:20.385.392,49.800 us,1 B,,SP,4B,Read Transaction,01*
0,3259,0:20.385.443,70.100 us,2 B,,SP,4B,Write Transaction,82 01
0,3260,0:20.385.514,325.200 us,11 B,,SP,4B,Read Transaction,01 30 91 32 0C 03 04 70 00 00 00*
0,3261,0:20.401.796,70.200 us,2 B,,SP,4B,Write Transaction,82 01
0,3262,0:20.401.868,49.700 us,1 B,,SP,4B,Read Transaction,01*
0,3263,0:20.401.919,70.100 us,2 B,,SP,4B,Write Transaction,82 01
0,3264,0:20.401.990,325.100 us,11 B,,SP,4B,Read Transaction,01 30 91 37 0C FD 03 75 00 00 00*
0,3265,0:20.418.265,70.100 us,2 B,,SP,4B,Write Transaction,82 01
0,3266,0:20.418.336,49.800 us,1 B,,SP,4B,Read Transaction,01*
0,3267,0:20.418.387,70.100 us,2 B,,SP,4B,Write Transaction,82 01
0,3268,0:20.418.459,324.700 us,11 B,,SP,4B,Read Transaction,01 30 91 3C 0C F6 03 75 00 00 00*
0,3269,0:20.434.731,70.100 us,2 B,,SP,4B,Write Transaction,82 01
0,3270,0:20.434.803,49.800 us,1 B,,SP,4B,Read Transaction,01*
0,3271,0:20.434.854,70.100 us,2 B,,SP,4B,Write Transaction,82 01
0,3272,0:20.434.925,325.100 us,11 B,,SP,4B,Read Transaction,01 30 91 41 0C F0 03 75 00 00 00*
0,3273,0:20.451.221,70.100 us,2 B,,SP,4B,Write Transaction,82 01
0,3274,0:20.451.292,49.700 us,1 B,,SP,4B,Read Transaction,01*
0,3275,0:20.451.343,70.100 us,2 B,,SP,4B,Write Transaction,82 01
0,3276,0:20.451.415,324.900 us,11 B,,SP,4B,Read Transaction,01 30 91 45 0C EB 03 75 00 00 00*
0,3277,0:20.467.826,70.200 us,2 B,,SP,4B,Write Transaction,82 01
0,3278,0:20.467.897,49.800 us,1 B,,SP,4B,Read Transaction,01*
0,3279,0:20.467.948,70.200 us,2 B,,SP,4B,Write Transaction,82 01
0,3280,0:20.468.020,325.000 us,11 B,,SP,4B,Read Transaction,01 30 91 49 0C E5 03 75 00 00 00*
0,3281,0:20.484.191,70.100 us,2 B,,SP,4B,Write Transaction,82 01
0,3282,0:20.484.263,49.800 us,1 B,,SP,4B,Read Transaction,01*
0,3283,0:20.484.314,70.100 us,2 B,,SP,4B,Write Transaction,82 01
0,3284,0:20.484.385,325.200 us,11 B,,SP,4B,Read Transaction,01 30 91 4D 0C E0 03 75 00 00 00*
0,3285,0:20.500.653,70.100 us,2 B,,SP,4B,Write Transaction,82 01
0,3286,0:20.500.725,49.800 us,1 B,,SP,4B,Read Transaction,01*
0,3287,0:20.500.776,70.100 us,2 B,,SP,4B,Write Transaction,82 01
0,3288,0:20.500.847,325.100 us,11 B,,SP,4B,Read Transaction,01 30 91 51 0C DB 03 75 00 00 00*
0,3289,0:20.518.747,70.200 us,2 B,,SP,4B,Write Transaction,82 01
0,3290,0:20.518.818,49.700 us,1 B,,SP,4B,Read Transaction,01*
0,3291,0:20.518.869,70.200 us,2 B,,SP,4B,Write Transaction,82 01
0,3292,0:20.518.941,325.200 us,11 B,,SP,4B,Read Transaction,01 30 91 55 0C D7 03 75 00 00 00*
0,3293,0:20.535.273,70.100 us,2 B,,SP,4B,Write Transaction,82 01
0,3294,0:20.535.344,49.800 us,1 B,,SP,4B,Read Transaction,01*
0,3295,0:20.535.396,70.100 us,2 B,,SP,4B,Write Transaction,82 01
0,3296,0:20.535.467,325.100 us,11 B,,SP,4B,Read Transaction,01 30 91 59 0C D2 03 75 00 00 00*
0,3297,0:20.551.768,70.100 us,2 B,,SP,4B,Write Transaction,82 01
0,3298,0:20.551.840,49.800 us,1 B,,SP,4B,Read Transaction,01*
0,3299,0:20.551.891,70.100 us,2 B,,SP,4B,Write Transaction,82 01
0,3300,0:20.551.962,325.300 us,11 B,,SP,4B,Read Transaction,01 30 91 5D 0C CD 03 70 00 00 00*
0,3301,0:20.568.273,70.200 us,2 B,,SP,4B,Write Transaction,82 01
0,3302,0:20.568.345,49.800 us,1 B,,SP,4B,Read Transaction,01*
0,3303,0:20.568.396,70.100 us,2 B,,SP,4B,Write Transaction,82 01
0,3304,0:20.568.467,324.900 us,11 B,,SP,4B,Read Transaction,01 30 91 61 0C C8 03 70 00 00 00*
0,3305,0:20.584.749,70.200 us,2 B,,SP,4B,Write Transaction,82 01
0,3306,0:20.584.821,49.800 us,1 B,,SP,4B,Read Transaction,01*
0,3307,0:20.584.872,70.200 us,2 B,,SP,4B,Write Transaction,82 01
0,3308,0:20.584.943,324.900 us,11 B,,SP,4B,Read Transaction,01 30 91 65 0C C4 03 70 00 00 00*
0,3309,0:20.601.218,70.100 us,2 B,,SP,4B,Write Transaction,82 01
0,3310,0:20.601.290,49.800 us,1 B,,SP,4B,Read Transaction,01*
0,3311,0:20.601.341,70.100 us,2 B,,SP,4B,Write Transaction,82 01
0,3312,0:20.601.412,325.100 us,11 B,,SP,4B,Read Transaction,01 30 91 69 0C C0 03 70 00 00 00*
0,3313,0:20.617.689,70.100 us,2 B,,SP,4B,Write Transaction,82 01
0,3314,0:20.617.760,49.800 us,1 B,,SP,4B,Read Transaction,01*
0,3315,0:20.617.812,70.100 us,2 B,,SP,4B,Write Transaction,82 01
0,3316,0:20.617.883,325.100 us,11 B,,SP,4B,Read Transaction,01 30 91 6C 0C BD 03 70 00 00 00*
0,3317,0:20.634.180,70.100 us,2 B,,SP,4B,Write Transaction,82 01
0,3318,0:20.634.251,49.800 us,1 B,,SP,4B,Read Transaction,01*
0,3319,0:20.634.302,70.100 us,2 B,,SP,4B,Write Transaction,82 01
0,3320,0:20.634.373,325.100 us,11 B,,SP,4B,Read Transaction,01 30 91 6F 0C BA 03 70 00 00 00*
0,3321,0:20.650.675,70.200 us,2 B,,SP,4B,Write Transaction,82 01
0,3322,0:20.650.746,49.800 us,1 B,,SP,4B,Read Transaction,01*
0,3323,0:20.650.797,70.200 us,2 B,,SP,4B,Write Transaction,82 01
0,3324,0:20.650.869,325.200 us,11 B,,SP,4B,Read Transaction,01 30 91 72 0C B7 03 70 00 00 00*
0,3325,0:20.667.265,70.100 us,2 B,,SP,4B,Write Transaction,82 01
0,3326,0:20.667.337,49.800 us,1 B,,SP,4B,Read Transaction,01*
0,3327,0:20.667.388,70.100 us,2 B,,SP,4B,Write Transaction,82 01
0,3328,0:20.667.459,325.100 us,11 B,,SP,4B,Read Transaction,01 30 91 75 0C B4 03 70 00 00 00*
0,3329,0:20.685.344,70.100 us,2 B,,SP,4B,Write Transaction,82 01
0,3330,0:20.685.415,49.700 us,1 B,,SP,4B,Read Transaction,01*
0,3331,0:20.685.466,70.200 us,2 B,,SP,4B,Write Transaction,82 01
0,3332,0:20.685.537,325.200 us,11 B,,SP,4B,Read Transaction,01 30 91 79 0C B1 03 70 00 00 00*
0,3333,0:20.701.864,70.200 us,2 B,,SP,4B,Write Transaction,82 01
0,3334,0:20.701.935,49.700 us,1 B,,SP,4B,Read Transaction,01*
0,3335,0:20.701.986,70.200 us,2 B,,SP,4B,Write Transaction,82 01
0,3336,0:20.702.058,325.000 us,11 B,,SP,4B,Read Transaction,01 30 91 7C 0C AE 03 70 00 00 00*
0,3337,0:20.718.348,70.100 us,2 B,,SP,4B,Write Transaction,82 01
0,3338,0:20.718.419,49.800 us,1 B,,SP,4B,Read Transaction,01*
0,3339,0:20.718.470,70.100 us,2 B,,SP,4B,Write Transaction,82 01
0,3340,0:20.718.541,325.100 us,11 B,,SP,4B,Read Transaction,01 30 91 80 0C AA 03 75 00 00 00*
0,3341,0:20.734.844,70.100 us,2 B,,SP,4B,Write Transaction,82 01
0,3342,0:20.734.916,49.800 us,1 B,,SP,4B,Read Transaction,01*
0,3343,0:20.734.967,70.100 us,2 B,,SP,4B,Write Transaction,82 01
0,3344,0:20.735.038,325.400 us,11 B,,SP,4B,Read Transaction,01 30 91 84 0C A7 03 75 00 00 00*
0,3345,0:20.751.342,70.100 us,2 B,,SP,4B,Write Transaction,82 01
0,3346,0:20.751.413,49.800 us,1 B,,SP,4B,Read Transaction,01*
0,3347,0:20.751.464,70.100 us,2 B,,SP,4B,Write Transaction,82 01
0,3348,0:20.751.536,325.300 us,11 B,,SP,4B,Read Transaction,01 30 91 88 0C A2 03 75 00 00 00*
0,3349,0:20.767.835,70.100 us,2 B,,SP,4B,Write Transaction,82 01
0,3350,0:20.767.907,49.800 us,1 B,,SP,4B,Read Transaction,01*
0,3351,0:20.767.958,70.100 us,2 B,,SP,4B,Write Transaction,82 01
0,3352,0:20.768.029,325.200 us,11 B,,SP,4B,Read Transaction,01 30 91 8D 0C 9D 03 75 00 00 00*
0,3353,0:20.784.328,70.100 us,2 B,,SP,4B,Write Transaction,82 01
0,3354,0:20.784.399,49.800 us,1 B,,SP,4B,Read Transaction,01*
0,3355,0:20.784.450,70.100 us,2 B,,SP,4B,Write Transaction,82 01
0,3356,0:20.784.522,325.200 us,11 B,,SP,4B,Read Transaction,01 30 91 92 0C 98 03 75 00 00 00*
0,3357,0:20.800.816,70.100 us,2 B,,SP,4B,Write Transaction,82 01
0,3358,0:20.800.887,49.800 us,1 B,,SP,4B,Read Transaction,01*
0,3359,0:20.800.938,70.100 us,2 B,,SP,4B,Write Transaction,82 01
0,3360,0:20.801.009,325.400 us,11 B,,SP,4B,Read Transaction,01 30 91 97 0C 93 03 75 00 00 00*
0,3361,0:20.817.309,70.100 us,2 B,,SP,4B,Write Transaction,82 01
0,3362,0:20.817.381,49.800 us,1 B,,SP,4B,Read Transaction,01*
0,3363,0:20.817.432,70.100 us,2 B,,SP,4B,Write Transaction,82 01
0,3364,0:20.817.503,325.100 us,11 B,,SP,4B,Read Transaction,01 30 91 9C 0C 8D 03 75 00 00 00*
0,3365,0:20.832.912,70.100 us,2 B,,SP,4B,Write Transaction,82 01
0,3366,0:20.832.984,49.700 us,1 B,,SP,4B,Read Transaction,01*
0,3367,0:20.833.035,70.100 us,2 B,,SP,4B,Write Transaction,82 01
0,3368,0:20.833.106,318.400 us,11 B,,SP,4B,Read Transaction,01 29 12 02 06 01 01 16 00 00 00*
0,3369,0:20.833.969,70.100 us,2 B,,SP,4B,Write Transaction,82 01
0,3370,0:20.834.040,49.800 us,1 B,,SP,4B,Read Transaction,01*
0,3371,0:20.834.091,70.100 us,2 B,,SP,4B,Write Transaction,82 01
0,3372,0:20.834.162,325.100 us,11 B,,SP,4B,Read Transaction,01 30 91 A1 0C 87 03 70 00 00 00*
0,3373,0:20.851.940,70.200 us,2 B,,SP,4B,Write Transaction,82 01
0,3374,0:20.852.012,49.800 us,1 B,,SP,4B,Read Transaction,01*
0,3375,0:20.852.063,70.200 us,2 B,,SP,4B,Write Transaction,82 01
0,3376,0:20.852.134,325.200 us,11 B,,SP,4B,Read Transaction,01 30 91 A7 0C 80 03 70 00 00 00*
0,3377,0:20.868.581,70.100 us,2 B,,SP,4B,Write Transaction,82 01
0,3378,0:20.868.652,49.800 us,1 B,,SP,4B,Read Transaction,01*
0,3379,0:20.868.703,70.100 us,2 B,,SP,4B,Write Transaction,82 01
0,3380,0:20.868.775,325.300 us,11 B,,SP,4B,Read Transaction,01 30 91 AB 0C 7A 03 70 00 00 00*
0,3381,0:20.884.957,70.100 us,2 B,,SP,4B,Write Transaction,82 01
0,3382,0:20.885.029,49.800 us,1 B,,SP,4B,Read Transaction,01*
0,3383,0:20.885.080,70.100 us,2 B,,SP,4B,Write Transaction,82 01
0,3384,0:20.885.151,325.000 us,11 B,,SP,4B,Read Transaction,01 30 91 B0 0C 75 03 70 00 00 00*
0,3385,0:20.901.445,70.100 us,2 B,,SP,4B,Write Transaction,82 01
0,3386,0:20.901.517,49.800 us,1 B,,SP,4B,Read Transaction,01*
0,3387,0:20.901.568,70.100 us,2 B,,SP,4B,Write Transaction,82 01
0,3388,0:20.901.639,325.200 us,11 B,,SP,4B,Read Transaction,01 30 91 B4 0C 70 03 6B 00 00 00*
0,3389,0:20.917.938,70.200 us,2 B,,SP,4B,Write Transaction,82 01
0,3390,0:20.918.009,49.800 us,1 B,,SP,4B,Read Transaction,01*
0,3391,0:20.918.061,70.100 us,2 B,,SP,4B,Write Transaction,82 01
0,3392,0:20.918.132,325.400 us,11 B,,SP,4B,Read Transaction,01 30 91 B8 0C 6C 03 6B 00 00 00*
0,3393,0:20.934.430,70.100 us,2 B,,SP,4B,Write Transaction,82 01
0,3394,0:20.934.502,49.800 us,1 B,,SP,4B,Read Transaction,01*
0,3395,0:20.934.553,70.100 us,2 B,,SP,4B,Write Transaction,82 01
0,3396,0:20.934.624,325.300 us,11 B,,SP,4B,Read Transaction,01 30 91 BB 0C 68 03 6B 00 00 00*
0,3397,0:20.950.926,70.100 us,2 B,,SP,4B,Write Transaction,82 01
0,3398,0:20.950.998,49.800 us,1 B,,SP,4B,Read Transaction,01*
0,3399,0:20.951.049,70.100 us,2 B,,SP,4B,Write Transaction,82 01
0,3400,0:20.951.120,325.200 us,11 B,,SP,4B,Read Transaction,01 30 91 BE 0C 65 03 6B 00 00 00*
0,3401,0:20.967.421,70.100 us,2 B,,SP,4B,Write Transaction,82 01
0,3402,0:20.967.493,49.800 us,1 B,,SP,4B,Read Transaction,01*
0,3403,0:20.967.544,70.100 us,2 B,,SP,4B,Write Transaction,82 01
0,3404,0:20.967.615,325.400 us,11 B,,SP,4B,Read Transaction,01 30 91 C0 0C 62 03 6B 00 00 00*
0,3405,0:20.983.890,70.100 us,2 B,,SP,4B,Write Transaction,82 01
0,3406,0:20.983.962,49.800 us,1 B,,SP,4B,Read Transaction,01*
0,3407,0:20.984.013,70.100 us,2 B,,SP,4B,Write Transaction,82 01
0,3408,0:20.984.084,325.500 us,11 B,,SP,4B,Read Transaction,01 30 91 C2 0C 60 03 6B 00 00 00*
0,3409,0:21.000.389,70.100 us,2 B,,SP,4B,Write Transaction,82 01
0,3410,0:21.000.461,49.800 us,1 B,,SP,4B,Read Transaction,01*
0,3411,0:21.000.512,70.100 us,2 B,,SP,4B,Write Transaction,82 01
0,3412,0:21.000.583,325.300 us,11 B,,SP,4B,Read Transaction,01 30 91 C4 0C 5E 03 6B 00 00 00*
0,3413,0:21.018.455,70.200 us,2 B,,SP,4B,Write Transaction,82 01
0,3414,0:21.018.526,49.800 us,1 B,,SP,4B,Read Transaction,01*
0,3415,0:21.018.577,70.200 us,2 B,,SP,4B,Write Transaction,82 01
0,3416,0:21.018.649,325.100 us,11 B,,SP,4B,Read Transaction,01 30 91 C5 0C 5C 03 6B 00 00 00*
0,3417,0:21.034.954,70.100 us,2 B,,SP,4B,Write Transaction,82 01
0,3418,0:21.035.026,49.800 us,1 B,,SP,4B,Read Transaction,01*
0,3419,0:21.035.077,70.100 us,2 B,,SP,4B,Write Transaction,82 01
0,3420,0:21.035.148,325.100 us,11 B,,SP,4B,Read Transaction,01 30 91 C7 0C 5A 03 6B 00 00 00*
0,3421,0:21.051.567,70.100 us,2 B,,SP,4B,Write Transaction,82 01
0,3422,0:21.051.639,49.700 us,1 B,,SP,4B,Read Transaction,01*
0,3423,0:21.051.690,70.200 us,2 B,,SP,4B,Write Transaction,82 01
0,3424,0:21.051.761,325.200 us,11 B,,SP,4B,Read Transaction,01 30 91 C8 0C 59 03 6B 00 00 00*
0,3425,0:21.067.950,70.100 us,2 B,,SP,4B,Write Transaction,82 01
0,3426,0:21.068.021,49.800 us,1 B,,SP,4B,Read Transaction,01*
0,3427,0:21.068.072,70.100 us,2 B,,SP,4B,Write Transaction,82 01
0,3428,0:21.068.144,325.300 us,11 B,,SP,4B,Read Transaction,01 30 91 C9 0C 58 03 6B 00 00 00*
0,3429,0:21.084.449,70.100 us,2 B,,SP,4B,Write Transaction,82 01
0,3430,0:21.084.521,49.800 us,1 B,,SP,4B,Read Transaction,01*
0,3431,0:21.084.572,70.100 us,2 B,,SP,4B,Write Transaction,82 01
0,3432,0:21.084.643,325.200 us,11 B,,SP,4B,Read Transaction,01 30 91 CA 0C 56 03 6B 00 00 00*
0,3433,0:21.100.948,70.100 us,2 B,,SP,4B,Write Transaction,82 01
0,3434,0:21.101.019,49.800 us,1 B,,SP,4B,Read Transaction,01*
0,3435,0:21.101.070,70.100 us,2 B,,SP,4B,Write Transaction,82 01
0,3436,0:21.101.141,325.300 us,11 B,,SP,4B,Read Transaction,01 30 91 CC 0C 55 03 6B 00 00 00*
0,3437,0:21.117.443,70.100 us,2 B,,SP,4B,Write Transaction,82 01
0,3438,0:21.117.514,49.700 us,1 B,,SP,4B,Read Transaction,01*
0,3439,0:21.117.565,70.100 us,2 B,,SP,4B,Write Transaction,82 01
0,3440,0:21.117.637,325.200 us,11 B,,SP,4B,Read Transaction,01 30 91 CC 0C 54 03 6B 00 00 00*
0,3441,0:21.133.934,70.100 us,2 B,,SP,4B,Write Transaction,82 01
0,3442,0:21.134.006,49.800 us,1 B,,SP,4B,Read Transaction,01*
0,3443,0:21.134.057,70.100 us,2 B,,SP,4B,Write Transaction,82 01
0,3444,0:21.134.128,325.100 us,11 B,,SP,4B,Read Transaction,01 30 91 CE 0C 52 03 6B 00 00 00*
0,3445,0:21.150.431,70.100 us,2 B,,SP,4B,Write Transaction,82 01
0,3446,0:21.150.502,49.800 us,1 B,,SP,4B,Read Transaction,01*
0,3447,0:21.150.553,70.100 us,2 B,,SP,4B,Write Transaction,82 01
0,3448,0:21.150.625,325.400 us,11 B,,SP,4B,Read Transaction,01 30 91 CF 0C 51 03 6B 00 00 00*
0,3449,0:21.166.928,70.100 us,2 B,,SP,4B,Write Transaction,82 01
0,3450,0:21.167.000,49.800 us,1 B,,SP,4B,Read Transaction,01*
0,3451,0:21.167.051,70.100 us,2 B,,SP,4B,Write Transaction,82 01
0,3452,0:21.167.122,325.200 us,11 B,,SP,4B,Read Transaction,01 30 91 D0 0C 50 03 6B 00 00 00*
0,3453,0:21.184.997,70.100 us,2 B,,SP,4B,Write Transaction,82 01
0,3454,0:21.185.069,49.800 us,1 B,,SP,4B,Read Transaction,01*
0,3455,0:21.185.120,70.100 us,2 B,,SP,4B,Write Transaction,82 01
0,3456,0:21.185.191,324.800 us,11 B,,SP,4B,Read Transaction,01 30 91 D2 0C 4E 03 6B 00 00 00*
0,3457,0:21.201.495,70.200 us,2 B,,SP,4B,Write Transaction,82 01
0,3458,0:21.201.567,49.700 us,1 B,,SP,4B,Read Transaction,01*
0,3459,0:21.201.618,70.100 us,2 B,,SP,4B,Write Transaction,82 01
0,3460,0:21.201.689,325.000 us,11 B,,SP,4B,Read Transaction,01 30 91 D4 0C 4C 03 6B 00 00 00*
0,3461,0:21.217.990,70.100 us,2 B,,SP,4B,Write Transaction,82 01
0,3462,0:21.218.061,49.800 us,1 B,,SP,4B,Read Transaction,01*
0,3463,0:21.218.112,70.100 us,2 B,,SP,4B,Write Transaction,82 01
0,3464,0:21.218.184,325.100 us,11 B,,SP,4B,Read Transaction,01 30 91 D7 0C 49 03 6B 00 00 00*
0,3465,0:21.234.480,70.100 us,2 B,,SP,4B,Write Transaction,82 01
0,3466,0:21.234.551,49.800 us,1 B,,SP,4B,Read Transaction,01*
0,3467,0:21.234.602,70.100 us,2 B,,SP,4B,Write Transaction,82 01
0,3468,0:21.234.673,325.200 us,11 B,,SP,4B,Read Transaction,01 30 91 DD 0C 45 03 71 00 00 00*
0,3469,0:21.251.056,70.100 us,2 B,,SP,4B,Write Transaction,82 01
0,3470,0:21.251.128,49.800 us,1 B,,SP,4B,Read Transaction,01*
0,3471,0:21.251.179,70.100 us,2 B,,SP,4B,Write Transaction,82 01
0,3472,0:21.251.250,325.200 us,11 B,,SP,4B,Read Transaction,01 30 91 E3 0C 40 03 71 00 00 00*
0,3473,0:21.267.453,70.100 us,2 B,,SP,4B,Write Transaction,82 01
0,3474,0:21.267.525,49.800 us,1 B,,SP,4B,Read Transaction,01*
0,3475,0:21.267.576,70.100 us,2 B,,SP,4B,Write Transaction,82 01
0,3476,0:21.267.647,324.900 us,11 B,,SP,4B,Read Transaction,01 30 91 E9 0C 3A 03 71 00 00 00*
0,3477,0:21.283.947,70.100 us,2 B,,SP,4B,Write Transaction,82 01
0,3478,0:21.284.018,49.800 us,1 B,,SP,4B,Read Transaction,01*
0,3479,0:21.284.069,70.100 us,2 B,,SP,4B,Write Transaction,82 01
0,3480,0:21.284.141,325.100 us,11 B,,SP,4B,Read Transaction,01 30 91 F0 0C 33 03 71 00 00 00*
0,3481,0:21.300.392,70.100 us,2 B,,SP,4B,Write Transaction,82 01
0,3482,0:21.300.464,49.800 us,1 B,,SP,4B,Read Transaction,01*
0,3483,0:21.300.515,70.100 us,2 B,,SP,4B,Write Transaction,82 01
0,3484,0:21.300.586,324.900 us,11 B,,SP,4B,Read Transaction,01 30 91 F9 0C 2B 03 71 00 00 00*
0,3485,0:21.316.872,70.100 us,2 B,,SP,4B,Write Transaction,82 01
0,3486,0:21.316.943,49.800 us,1 B,,SP,4B,Read Transaction,01*
0,3487,0:21.316.994,70.100 us,2 B,,SP,4B,Write Transaction,82 01
0,3488,0:21.317.066,325.100 us,11 B,,SP,4B,Read Transaction,01 30 91 00 0D 23 03 71 00 00 00*
0,3489,0:21.333.364,70.100 us,2 B,,SP,4B,Write Transaction,82 01
0,3490,0:21.333.436,49.800 us,1 B,,SP,4B,Read Transaction,01*
0,3491,0:21.333.487,70.100 us,2 B,,SP,4B,Write Transaction,82 01
0,3492,0:21.333.558,325.300 us,11 B,,SP,4B,Read Transaction,01 30 91 08 0D 1A 03 71 00 00 00*
0,3493,0:21.351.455,70.100 us,2 B,,SP,4B,Write Transaction,82 01
0,3494,0:21.351.526,49.800 us,1 B,,SP,4B,Read Transaction,01*
0,3495,0:21.351.577,70.100 us,2 B,,SP,4B,Write Transaction,82 01
0,3496,0:21.351.649,325.100 us,11 B,,SP,4B,Read Transaction,01 30 91 10 0D 12 03 71 00 00 00*
0,3497,0:21.367.977,70.200 us,2 B,,SP,4B,Write Transaction,82 01
0,3498,0:21.368.048,49.800 us,1 B,,SP,4B,Read Transaction,01*
0,3499,0:21.368.099,70.200 us,2 B,,SP,4B,Write Transaction,82 01
0,3500,0:21.368.171,325.300 us,11 B,,SP,4B,Read Transaction,01 30 91 18 0D 0A 03 71 00 00 00*
0,3501,0:21.384.471,70.200 us,2 B,,SP,4B,Write Transaction,82 01
0,3502,0:21.384.542,49.800 us,1 B,,SP,4B,Read Transaction,01*
0,3503,0:21.384.593,70.100 us,2 B,,SP,4B,Write Transaction,82 01
0,3504,0:21.384.665,325.200 us,11 B,,SP,4B,Read Transaction,01 30 91 1F 0D 02 03 71 00 00 00*
0,3505,0:21.400.941,70.100 us,2 B,,SP,4B,Write Transaction,82 01
0,3506,0:21.401.012,49.800 us,1 B,,SP,4B,Read Transaction,01*
0,3507,0:21.401.063,70.100 us,2 B,,SP,4B,Write Transaction,82 01
0,3508,0:21.401.135,325.400 us,11 B,,SP,4B,Read Transaction,01 30 91 25 0D FB 02 71 00 00 00*
0,3509,0:21.417.410,70.100 us,2 B,,SP,4B,Write Transaction,82 01
0,3510,0:21.417.481,49.800 us,1 B,,SP,4B,Read Transaction,01*
0,3511,0:21.417.532,70.100 us,2 B,,SP,4B,Write Transaction,82 01
0,3512,0:21.417.603,325.400 us,11 B,,SP,4B,Read Transaction,01 30 91 2B 0D F6 02 71 00 00 00*
0,3513,0:21.433.902,70.200 us,2 B,,SP,4B,Write Transaction,82 01
0,3514,0:21.433.973,49.800 us,1 B,,SP,4B,Read Transaction,01*
0,3515,0:21.434.024,70.200 us,2 B,,SP,4B,Write Transaction,82 01
0,3516,0:21.434.096,325.300 us,11 B,,SP,4B,Read Transaction,01 30 91 30 0D F1 02 6C 00 00 00*
0,3517,0:21.450.496,70.100 us,2 B,,SP,4B,Write Transaction,82 01
0,3518,0:21.450.567,49.800 us,1 B,,SP,4B,Read Transaction,01*
0,3519,0:21.450.618,70.100 us,2 B,,SP,4B,Write Transaction,82 01
0,3520,0:21.450.690,325.100 us,11 B,,SP,4B,Read Transaction,01 30 91 35 0D ED 02 6C 00 00 00*
0,3521,0:21.466.889,70.100 us,2 B,,SP,4B,Write Transaction,82 01
0,3522,0:21.466.960,49.800 us,1 B,,SP,4B,Read Transaction,01*
0,3523,0:21.467.012,70.100 us,2 B,,SP,4B,Write Transaction,82 01
0,3524,0:21.467.083,325.200 us,11 B,,SP,4B,Read Transaction,01 30 91 39 0D E8 02 6C 00 00 00*
0,3525,0:21.483.354,70.200 us,2 B,,SP,4B,Write Transaction,82 01
0,3526,0:21.483.426,49.800 us,1 B,,SP,4B,Read Transaction,01*
0,3527,0:21.483.477,70.100 us,2 B,,SP,4B,Write Transaction,82 01
0,3528,0:21.483.548,325.100 us,11 B,,SP,4B,Read Transaction,01 30 91 3D 0D E5 02 6C 00 00 00*
0,3529,0:21.499.823,70.100 us,2 B,,SP,4B,Write Transaction,82 01
0,3530,0:21.499.894,49.800 us,1 B,,SP,4B,Read Transaction,01*
0,3531,0:21.499.945,70.100 us,2 B,,SP,4B,Write Transaction,82 01
0,3532,0:21.500.017,325.200 us,11 B,,SP,4B,Read Transaction,01 30 91 40 0D E2 02 6C 00 00 00*
0,3533,0:21.517.972,70.100 us,2 B,,SP,4B,Write Transaction,82 01
0,3534,0:21.518.043,49.800 us,1 B,,SP,4B,Read Transaction,01*
0,3535,0:21.518.094,70.100 us,2 B,,SP,4B,Write Transaction,82 01
0,3536,0:21.518.166,324.800 us,11 B,,SP,4B,Read Transaction,01 30 91 42 0D E0 02 6C 00 00 00*
0,3537,0:21.534.471,70.100 us,2 B,,SP,4B,Write Transaction,82 01
0,3538,0:21.534.542,49.800 us,1 B,,SP,4B,Read Transaction,01*
0,3539,0:21.534.593,70.100 us,2 B,,SP,4B,Write Transaction,82 01
0,3540,0:21.534.665,324.900 us,11 B,,SP,4B,Read Transaction,01 30 91 45 0D DE 02 6C 00 00 00*
0,3541,0:21.550.965,70.200 us,2 B,,SP,4B,Write Transaction,82 01
0,3542,0:21.551.036,49.700 us,1 B,,SP,4B,Read Transaction,01*
0,3543,0:21.551.087,70.200 us,2 B,,SP,4B,Write Transaction,82 01
0,3544,0:21.551.159,325.300 us,11 B,,SP,4B,Read Transaction,01 30 91 47 0D DC 02 6C 00 00 00*
0,3545,0:21.567.435,70.100 us,2 B,,SP,4B,Write Transaction,82 01
0,3546,0:21.567.506,49.800 us,1 B,,SP,4B,Read Transaction,01*
0,3547,0:21.567.557,70.100 us,2 B,,SP,4B,Write Transaction,82 01
0,3548,0:21.567.628,325.400 us,11 B,,SP,4B,Read Transaction,01 30 91 49 0D DA 02 6C 00 00 00*
0,3549,0:21.583.928,70.100 us,2 B,,SP,4B,Write Transaction,82 01
0,3550,0:21.583.999,49.800 us,1 B,,SP,4B,Read Transaction,01*
0,3551,0:21.584.050,70.100 us,2 B,,SP,4B,Write Transaction,82 01
0,3552,0:21.584.122,325.000 us,11 B,,SP,4B,Read Transaction,01 30 91 4B 0D D8 02 6C 00 00 00*
0,3553,0:21.600.423,70.200 us,2 B,,SP,4B,Write Transaction,82 01
0,3554,0:21.600.495,49.700 us,1 B,,SP,4B,Read Transaction,01*
0,3555,0:21.600.546,70.100 us,2 B,,SP,4B,Write Transaction,82 01
0,3556,0:21.600.617,325.100 us,11 B,,SP,4B,Read Transaction,01 30 91 4E 0D D6 02 6C 00 00 00*
0,3557,0:21.616.917,70.100 us,2 B,,SP,4B,Write Transaction,82 01
0,3558,0:21.616.989,49.800 us,1 B,,SP,4B,Read Transaction,01*
0,3559,0:21.617.040,70.100 us,2 B,,SP,4B,Write Transaction,82 01
0,3560,0:21.617.111,325.100 us,11 B,,SP,4B,Read Transaction,01 30 91 50 0D D4 02 6C 00 00 00*
0,3561,0:21.633.408,70.100 us,2 B,,SP,4B,Write Transaction,82 01
0,3562,0:21.633.479,49.800 us,1 B,,SP,4B,Read Transaction,01*
0,3563,0:21.633.530,70.100 us,2 B,,SP,4B,Write Transaction,82 01
0,3564,0:21.633.602,325.200 us,11 B,,SP,4B,Read Transaction,01 30 91 54 0D D2 02 6C 00 00 00*
0,3565,0:21.650.003,70.200 us,2 B,,SP,4B,Write Transaction,82 01
0,3566,0:21.650.074,49.800 us,1 B,,SP,4B,Read Transaction,01*
0,3567,0:21.650.125,70.100 us,2 B,,SP,4B,Write Transaction,82 01
0,3568,0:21.650.196,325.300 us,11 B,,SP,4B,Read Transaction,01 30 91 57 0D CF 02 6C 00 00 00*
0,3569,0:21.666.399,70.100 us,2 B,,SP,4B,Write Transaction,82 01
0,3570,0:21.666.471,49.800 us,1 B,,SP,4B,Read Transaction,01*
0,3571,0:21.666.522,70.100 us,2 B,,SP,4B,Write Transaction,82 01
0,3572,0:21.666.593,325.400 us,11 B,,SP,4B,Read Transaction,01 30 91 59 0D CD 02 6C 00 00 00*
0,3573,0:21.684.464,70.100 us,2 B,,SP,4B,Write Transaction,82 01
0,3574,0:21.684.535,49.800 us,1 B,,SP,4B,Read Transaction,01*
0,3575,0:21.684.586,70.100 us,2 B,,SP,4B,Write Transaction,82 01
0,3576,0:21.684.658,325.400 us,11 B,,SP,4B,Read Transaction,01 30 91 5C 0D CA 02 6C 00 00 00*
0,3577,0:21.700.988,70.100 us,2 B,,SP,4B,Write Transaction,82 01
0,3578,0:21.701.059,49.800 us,1 B,,SP,4B,Read Transaction,01*
0,3579,0:21.701.110,70.100 us,2 B,,SP,4B,Write Transaction,82 01
0,3580,0:21.701.182,325.200 us,11 B,,SP,4B,Read Transaction,01 30 91 60 0D C7 02 6C 00 00 00*
0,3581,0:21.717.481,70.200 us,2 B,,SP,4B,Write Transaction,82 01
0,3582,0:21.717.552,49.700 us,1 B,,SP,4B,Read Transaction,01*
0,3583,0:21.717.603,70.200 us,2 B,,SP,4B,Write Transaction,82 01
0,3584,0:21.717.675,324.900 us,11 B,,SP,4B,Read Transaction,01 30 91 64 0D C2 02 6C 00 00 00*
0,3585,0:21.733.978,70.100 us,2 B,,SP,4B,Write Transaction,82 01
0,3586,0:21.734.049,49.800 us,1 B,,SP,4B,Read Transaction,01*
0,3587,0:21.734.100,70.100 us,2 B,,SP,4B,Write Transaction,82 01
0,3588,0:21.734.171,325.400 us,11 B,,SP,4B,Read Transaction,01 30 91 68 0D BD 02 6C 00 00 00*
0,3589,0:21.750.477,70.200 us,2 B,,SP,4B,Write Transaction,82 01
0,3590,0:21.750.548,49.800 us,1 B,,SP,4B,Read Transaction,01*
0,3591,0:21.750.599,70.200 us,2 B,,SP,4B,Write Transaction,82 01
0,3592,0:21.750.671,325.200 us,11 B,,SP,4B,Read Transaction,01 30 91 6E 0D B7 02 6C 00 00 00*
0,3593,0:21.766.977,70.100 us,2 B,,SP,4B,Write Transaction,82 01
0,3594,0:21.767.049,49.800 us,1 B,,SP,4B,Read Transaction,01*
0,3595,0:21.767.100,70.100 us,2 B,,SP,4B,Write Transaction,82 01
0,3596,0:21.767.171,325.100 us,11 B,,SP,4B,Read Transaction,01 30 91 74 0D AF 02 6C 00 00 00*
0,3597,0:21.783.473,70.100 us,2 B,,SP,4B,Write Transaction,82 01
0,3598,0:21.783.545,49.800 us,1 B,,SP,4B,Read Transaction,01*
0,3599,0:21.783.596,70.100 us,2 B,,SP,4B,Write Transaction,82 01
0,3600,0:21.783.667,325.400 us,11 B,,SP,4B,Read Transaction,01 30 91 7B 0D A5 02 6C 00 00 00*
0,3601,0:21.799.973,70.100 us,2 B,,SP,4B,Write Transaction,82 01
0,3602,0:21.800.045,49.800 us,1 B,,SP,4B,Read Transaction,01*
0,3603,0:21.800.096,70.100 us,2 B,,SP,4B,Write Transaction,82 01
0,3604,0:21.800.167,325.300 us,11 B,,SP,4B,Read Transaction,01 30 91 82 0D 9C 02 6C 00 00 00*
0,3605,0:21.816.470,70.200 us,2 B,,SP,4B,Write Transaction,82 01
0,3606,0:21.816.541,49.800 us,1 B,,SP,4B,Read Transaction,01*
0,3607,0:21.816.593,70.100 us,2 B,,SP,4B,Write Transaction,82 01
0,3608,0:21.816.664,325.100 us,11 B,,SP,4B,Read Transaction,01 30 91 8B 0D 91 02 6C 00 00 00*
0,3609,0:21.832.969,70.100 us,2 B,,SP,4B,Write Transaction,82 01
0,3610,0:21.833.040,49.800 us,1 B,,SP,4B,Read Transaction,01*
0,3611,0:21.833.091,70.100 us,2 B,,SP,4B,Write Transaction,82 01
0,3612,0:21.833.162,325.400 us,11 B,,SP,4B,Read Transaction,01 30 91 95 0D 85 02 6C 00 00 00*
0,3613,0:21.851.131,70.100 us,2 B,,SP,4B,Write Transaction,82 01
0,3614,0:21.851.202,49.700 us,1 B,,SP,4B,Read Transaction,01*
0,3615,0:21.851.253,70.200 us,2 B,,SP,4B,Write Transaction,82 01
0,3616,0:21.851.325,325.300 us,11 B,,SP,4B,Read Transaction,01 30 91 9E 0D 7B 02 6C 00 00 00*
0,3617,0:21.867.546,70.100 us,2 B,,SP,4B,Write Transaction,82 01
0,3618,0:21.867.617,49.800 us,1 B,,SP,4B,Read Transaction,01*
0,3619,0:21.867.668,70.100 us,2 B,,SP,4B,Write Transaction,82 01
0,3620,0:21.867.740,325.300 us,11 B,,SP,4B,Read Transaction,01 30 91 A7 0D 70 02 6C 00 00 00*
0,3621,0:21.884.039,70.100 us,2 B,,SP,4B,Write Transaction,82 01
0,3622,0:21.884.110,49.800 us,1 B,,SP,4B,Read Transaction,01*
0,3623,0:21.884.162,70.200 us,2 B,,SP,4B,Write Transaction,82 01
0,3624,0:21.884.233,325.100 us,11 B,,SP,4B,Read Transaction,01 30 91 B1 0D 65 02 6C 00 00 00*
0,3625,0:21.900.534,70.200 us,2 B,,SP,4B,Write Transaction,82 01
0,3626,0:21.900.605,49.700 us,1 B,,SP,4B,Read Transaction,01*
0,3627,0:21.900.656,70.100 us,2 B,,SP,4B,Write Transaction,82 01
0,3628,0:21.900.728,325.300 us,11 B,,SP,4B,Read Transaction,01 30 91 BA 0D 5B 02 6C 00 00 00*
0,3629,0:21.917.028,70.200 us,2 B,,SP,4B,Write Transaction,82 01
0,3630,0:21.917.099,49.800 us,1 B,,SP,4B,Read Transaction,01*
0,3631,0:21.917.151,70.200 us,2 B,,SP,4B,Write Transaction,82 01
0,3632,0:21.917.222,325.300 us,11 B,,SP,4B,Read Transaction,01 30 91 C2 0D 50 02 6C 00 00 00*
0,3633,0:21.933.540,70.100 us,2 B,,SP,4B,Write Transaction,82 01
0,3634,0:21.933.611,49.800 us,1 B,,SP,4B,Read Transaction,01*
0,3635,0:21.933.662,70.100 us,2 B,,SP,4B,Write Transaction,82 01
0,3636,0:21.933.733,325.400 us,11 B,,SP,4B,Read Transaction,01 30 91 CB 0D 47 02 6C 00 00 00*
0,3637,0:21.950.034,70.100 us,2 B,,SP,4B,Write Transaction,82 01
0,3638,0:21.950.105,49.800 us,1 B,,SP,4B,Read Transaction,01*
0,3639,0:21.950.156,70.100 us,2 B,,SP,4B,Write Transaction,82 01
0,3640,0:21.950.228,325.000 us,11 B,,SP,4B,Read Transaction,01 30 91 D2 0D 3D 02 6C 00 00 00*
0,3641,0:21.966.526,70.100 us,2 B,,SP,4B,Write Transaction,82 01
0,3642,0:21.966.597,49.800 us,1 B,,SP,4B,Read Transaction,01*
0,3643,0:21.966.648,70.100 us,2 B,,SP,4B,Write Transaction,82 01
0,3644,0:21.966.720,325.100 us,11 B,,SP,4B,Read Transaction,01 30 91 DA 0D 34 02 6C 00 00 00*
0,3645,0:21.983.026,70.100 us,2 B,,SP,4B,Write Transaction,82 01
0,3646,0:21.983.098,49.700 us,1 B,,SP,4B,Read Transaction,01*
0,3647,0:21.983.149,70.100 us,2 B,,SP,4B,Write Transaction,82 01
0,3648,0:21.983.220,325.200 us,11 B,,SP,4B,Read Transaction,01 30 91 E1 0D 2A 02 6C 00 00 00*
0,3649,0:21.999.522,70.100 us,2 B,,SP,4B,Write Transaction,82 01
0,3650,0:21.999.593,49.800 us,1 B,,SP,4B,Read Transaction,01*
0,3651,0:21.999.644,70.100 us,2 B,,SP,4B,Write Transaction,82 01
0,3652,0:21.999.716,325.200 us,11 B,,SP,4B,Read Transaction,01 30 91 E7 0D 22 02 6C 00 00 00*
0,3653,0:22.017.589,70.100 us,2 B,,SP,4B,Write Transaction,82 01
0,3654,0:22.017.660,49.800 us,1 B,,SP,4B,Read Transaction,01*
0,3655,0:22.017.711,70.100 us,2 B,,SP,4B,Write Transaction,82 01
0,3656,0:22.017.783,325.300 us,11 B,,SP,4B,Read Transaction,01 30 91 EF 0D 19 02 65 00 00 00*
0,3657,0:22.034.230,70.200 us,2 B,,SP,4B,Write Transaction,82 01
0,3658,0:22.034.301,49.800 us,1 B,,SP,4B,Read Transaction,01*
0,3659,0:22.034.352,70.100 us,2 B,,SP,4B,Write Transaction,82 01
0,3660,0:22.034.424,325.200 us,11 B,,SP,4B,Read Transaction,01 30 91 F7 0D 0F 02 65 00 00 00*
0,3661,0:22.050.612,70.100 us,2 B,,SP,4B,Write Transaction,82 01
0,3662,0:22.050.684,49.800 us,1 B,,SP,4B,Read Transaction,01*
0,3663,0:22.050.735,70.100 us,2 B,,SP,4B,Write Transaction,82 01
0,3664,0:22.050.806,325.200 us,11 B,,SP,4B,Read Transaction,01 30 91 02 0E 02 02 65 00 00 00*
0,3665,0:22.067.102,70.100 us,2 B,,SP,4B,Write Transaction,82 01
0,3666,0:22.067.174,49.800 us,1 B,,SP,4B,Read Transaction,01*
0,3667,0:22.067.225,70.100 us,2 B,,SP,4B,Write Transaction,82 01
0,3668,0:22.067.296,325.100 us,11 B,,SP,4B,Read Transaction,01 30 91 0D 0E F5 01 6A 00 00 00*
0,3669,0:22.083.596,70.200 us,2 B,,SP,4B,Write Transaction,82 01
0,3670,0:22.083.668,49.700 us,1 B,,SP,4B,Read Transaction,01*
0,3671,0:22.083.719,70.100 us,2 B,,SP,4B,Write Transaction,82 01
0,3672,0:22.083.790,325.000 us,11 B,,SP,4B,Read Transaction,01 30 91 17 0E EA 01 6A 00 00 00*
0,3673,0:22.100.095,70.200 us,2 B,,SP,4B,Write Transaction,82 01
0,3674,0:22.100.166,49.800 us,1 B,,SP,4B,Read Transaction,01*
0,3675,0:22.100.217,70.200 us,2 B,,SP,4B,Write Transaction,82 01
0,3676,0:22.100.289,325.300 us,11 B,,SP,4B,Read Transaction,01 30 91 20 0E E1 01 6A 00 00 00*
0,3677,0:22.116.589,70.200 us,2 B,,SP,4B,Write Transaction,82 01
0,3678,0:22.116.661,49.800 us,1 B,,SP,4B,Read Transaction,01*
0,3679,0:22.116.712,70.200 us,2 B,,SP,4B,Write Transaction,82 01
0,3680,0:22.116.783,325.400 us,11 B,,SP,4B,Read Transaction,01 30 91 27 0E D9 01 6A 00 00 00*
0,3681,0:22.133.086,70.200 us,2 B,,SP,4B,Write Transaction,82 01
0,3682,0:22.133.157,49.800 us,1 B,,SP,4B,Read Transaction,01*
0,3683,0:22.133.208,70.200 us,2 B,,SP,4B,Write Transaction,82 01
0,3684,0:22.133.280,325.400 us,11 B,,SP,4B,Read Transaction,01 30 91 2E 0E D0 01 6A 00 00 00*
0,3685,0:22.149.582,70.200 us,2 B,,SP,4B,Write Transaction,82 01
0,3686,0:22.149.653,49.800 us,1 B,,SP,4B,Read Transaction,01*
0,3687,0:22.149.704,70.100 us,2 B,,SP,4B,Write Transaction,82 01
0,3688,0:22.149.776,325.200 us,11 B,,SP,4B,Read Transaction,01 30 91 36 0E C8 01 6F 00 00 00*
0,3689,0:22.166.061,70.200 us,2 B,,SP,4B,Write Transaction,82 01
0,3690,0:22.166.132,49.900 us,1 B,,SP,4B,Read Transaction,01*
0,3691,0:22.166.184,70.100 us,2 B,,SP,4B,Write Transaction,82 01
0,3692,0:22.166.255,325.200 us,11 B,,SP,4B,Read Transaction,01 30 91 3D 0E C0 01 6F 00 00 00*
0,3693,0:22.184.160,70.100 us,2 B,,SP,4B,Write Transaction,82 01
0,3694,0:22.184.232,49.800 us,1 B,,SP,4B,Read Transaction,01*
0,3695,0:22.184.283,70.100 us,2 B,,SP,4B,Write Transaction,82 01
0,3696,0:22.184.354,325.200 us,11 B,,SP,4B,Read Transaction,01 30 91 43 0E B8 01 6F 00 00 00*
0,3697,0:22.200.691,70.100 us,2 B,,SP,4B,Write Transaction,82 01
0,3698,0:22.200.762,49.800 us,1 B,,SP,4B,Read Transaction,01*
0,3699,0:22.200.813,70.100 us,2 B,,SP,4B,Write Transaction,82 01
0,3700,0:22.200.884,324.800 us,11 B,,SP,4B,Read Transaction,01 30 91 4A 0E B0 01 6F 00 00 00*
0,3701,0:22.217.187,70.100 us,2 B,,SP,4B,Write Transaction,82 01
0,3702,0:22.217.259,49.800 us,1 B,,SP,4B,Read Transaction,01*
0,3703,0:22.217.310,70.100 us,2 B,,SP,4B,Write Transaction,82 01
0,3704,0:22.217.381,325.300 us,11 B,,SP,4B,Read Transaction,01 30 91 50 0E A9 01 6F 00 00 00*
0,3705,0:22.233.774,70.100 us,2 B,,SP,4B,Write Transaction,82 01
0,3706,0:22.233.846,49.800 us,1 B,,SP,4B,Read Transaction,01*
0,3707,0:22.233.897,70.100 us,2 B,,SP,4B,Write Transaction,82 01
0,3708,0:22.233.968,325.400 us,11 B,,SP,4B,Read Transaction,01 30 91 56 0E A2 01 6F 00 00 00*
0,3709,0:22.250.177,70.100 us,2 B,,SP,4B,Write Transaction,82 01
0,3710,0:22.250.248,49.800 us,1 B,,SP,4B,Read Transaction,01*
0,3711,0:22.250.299,70.100 us,2 B,,SP,4B,Write Transaction,82 01
0,3712,0:22.250.371,325.100 us,11 B,,SP,4B,Read Transaction,01 30 91 5B 0E 9B 01 6F 00 00 00*
0,3713,0:22.266.669,70.100 us,2 B,,SP,4B,Write Transaction,82 01
0,3714,0:22.266.740,49.800 us,1 B,,SP,4B,Read Transaction,01*
0,3715,0:22.266.791,70.100 us,2 B,,SP,4B,Write Transaction,82 01
0,3716,0:22.266.863,325.300 us,11 B,,SP,4B,Read Transaction,01 30 91 61 0E 95 01 6A 00 00 00*
0,3717,0:22.283.160,70.100 us,2 B,,SP,4B,Write Transaction,82 01
0,3718,0:22.283.231,49.800 us,1 B,,SP,4B,Read Transaction,01*
0,3719,0:22.283.282,70.100 us,2 B,,SP,4B,Write Transaction,82 01
0,3720,0:22.283.354,325.300 us,11 B,,SP,4B,Read Transaction,01 30 91 67 0E 8F 01 6A 00 00 00*
0,3721,0:22.299.655,70.100 us,2 B,,SP,4B,Write Transaction,82 01
0,3722,0:22.299.726,49.800 us,1 B,,SP,4B,Read Transaction,01*
0,3723,0:22.299.777,70.100 us,2 B,,SP,4B,Write Transaction,82 01
0,3724,0:22.299.849,325.500 us,11 B,,SP,4B,Read Transaction,01 30 91 6C 0E 89 01 6A 00 00 00*
0,3725,0:22.316.147,70.100 us,2 B,,SP,4B,Write Transaction,82 01
0,3726,0:22.316.219,49.800 us,1 B,,SP,4B,Read Transaction,01*
0,3727,0:22.316.270,70.100 us,2 B,,SP,4B,Write Transaction,82 01
0,3728,0:22.316.341,325.300 us,11 B,,SP,4B,Read Transaction,01 30 91 72 0E 82 01 6A 00 00 00*
0,3729,0:22.332.657,70.100 us,2 B,,SP,4B,Write Transaction,82 01
0,3730,0:22.332.729,49.800 us,1 B,,SP,4B,Read Transaction,01*
0,3731,0:22.332.780,70.200 us,2 B,,SP,4B,Write Transaction,82 01
0,3732,0:22.332.851,325.200 us,11 B,,SP,4B,Read Transaction,01 30 91 78 0E 7C 01 6A 00 00 00*
0,3733,0:22.350.801,70.100 us,2 B,,SP,4B,Write Transaction,82 01
0,3734,0:22.350.873,49.800 us,1 B,,SP,4B,Read Transaction,01*
0,3735,0:22.350.924,70.100 us,2 B,,SP,4B,Write Transaction,82 01
0,3736,0:22.350.995,325.300 us,11 B,,SP,4B,Read Transaction,01 30 91 7E 0E 76 01 6A 00 00 00*
0,3737,0:22.367.325,70.100 us,2 B,,SP,4B,Write Transaction,82 01
0,3738,0:22.367.396,49.800 us,1 B,,SP,4B,Read Transaction,01*
0,3739,0:22.367.447,70.100 us,2 B,,SP,4B,Write Transaction,82 01
0,3740,0:22.367.519,325.000 us,11 B,,SP,4B,Read Transaction,01 30 91 84 0E 70 01 6A 00 00 00*
0,3741,0:22.383.797,70.100 us,2 B,,SP,4B,Write Transaction,82 01
0,3742,0:22.383.868,49.800 us,1 B,,SP,4B,Read Transaction,01*
0,3743,0:22.383.919,70.200 us,2 B,,SP,4B,Write Transaction,82 01
0,3744,0:22.383.991,325.300 us,11 B,,SP,4B,Read Transaction,01 30 91 8A 0E 69 01 6A 00 00 00*
0,3745,0:22.400.293,70.100 us,2 B,,SP,4B,Write Transaction,82 01
0,3746,0:22.400.365,49.800 us,1 B,,SP,4B,Read Transaction,01*
0,3747,0:22.400.416,70.100 us,2 B,,SP,4B,Write Transaction,82 01
0,3748,0:22.400.487,325.400 us,11 B,,SP,4B,Read Transaction,01 30 91 91 0E 61 01 6A 00 00 00*
0,3749,0:22.416.795,70.200 us,2 B,,SP,4B,Write Transaction,82 01
0,3750,0:22.416.866,49.700 us,1 B,,SP,4B,Read Transaction,01*
0,3751,0:22.416.917,70.200 us,2 B,,SP,4B,Write Transaction,82 01
0,3752,0:22.416.989,324.900 us,11 B,,SP,4B,Read Transaction,01 30 91 99 0E 58 01 6A 00 00 00*
0,3753,0:22.433.386,70.200 us,2 B,,SP,4B,Write Transaction,82 01
0,3754,0:22.433.457,49.800 us,1 B,,SP,4B,Read Transaction,01*
0,3755,0:22.433.509,70.200 us,2 B,,SP,4B,Write Transaction,82 01
0,3756,0:22.433.580,325.100 us,11 B,,SP,4B,Read Transaction,01 30 91 A2 0E 4D 01 6A 00 00 00*
0,3757,0:22.449.793,70.100 us,2 B,,SP,4B,Write Transaction,82 01
0,3758,0:22.449.864,49.800 us,1 B,,SP,4B,Read Transaction,01*
0,3759,0:22.449.915,70.100 us,2 B,,SP,4B,Write Transaction,82 01
0,3760,0:22.449.987,325.200 us,11 B,,SP,4B,Read Transaction,01 30 91 AB 0E 42 01 6A 00 00 00*
0,3761,0:22.466.287,70.200 us,2 B,,SP,4B,Write Transaction,82 01
0,3762,0:22.466.359,49.800 us,1 B,,SP,4B,Read Transaction,01*
0,3763,0:22.466.410,70.200 us,2 B,,SP,4B,Write Transaction,82 01
0,3764,0:22.466.481,325.100 us,11 B,,SP,4B,Read Transaction,01 30 91 B5 0E 35 01 6A 00 00 00*
0,3765,0:22.482.779,70.100 us,2 B,,SP,4B,Write Transaction,82 01
0,3766,0:22.482.850,49.800 us,1 B,,SP,4B,Read Transaction,01*
0,3767,0:22.482.901,70.100 us,2 B,,SP,4B,Write Transaction,82 01
0,3768,0:22.482.973,325.200 us,11 B,,SP,4B,Read Transaction,01 30 91 C1 0E 27 01 6A 00 00 00*
0,3769,0:22.499.271,70.200 us,2 B,,SP,4B,Write Transaction,82 01
0,3770,0:22.499.343,49.800 us,1 B,,SP,4B,Read Transaction,01*
0,3771,0:22.499.394,70.200 us,2 B,,SP,4B,Write Transaction,82 01
0,3772,0:22.499.465,324.900 us,11 B,,SP,4B,Read Transaction,01 30 91 CE 0E 19 01 6A 00 00 00*
0,3773,0:22.517.319,70.100 us,2 B,,SP,4B,Write Transaction,82 01
0,3774,0:22.517.390,49.800 us,1 B,,SP,4B,Read Transaction,01*
0,3775,0:22.517.441,70.100 us,2 B,,SP,4B,Write Transaction,82 01
0,3776,0:22.517.512,325.200 us,11 B,,SP,4B,Read Transaction,01 30 91 D9 0E 0D 01 6A 00 00 00*
0,3777,0:22.533.835,70.100 us,2 B,,SP,4B,Write Transaction,82 01
0,3778,0:22.533.907,49.800 us,1 B,,SP,4B,Read Transaction,01*
0,3779,0:22.533.958,70.100 us,2 B,,SP,4B,Write Transaction,82 01
0,3780,0:22.534.029,324.800 us,11 B,,SP,4B,Read Transaction,01 30 91 E3 0E 02 01 6A 00 00 00*
0,3781,0:22.550.300,70.100 us,2 B,,SP,4B,Write Transaction,82 01
0,3782,0:22.550.371,49.700 us,1 B,,SP,4B,Read Transaction,01*
0,3783,0:22.550.422,70.200 us,2 B,,SP,4B,Write Transaction,82 01
0,3784,0:22.550.494,325.000 us,11 B,,SP,4B,Read Transaction,01 30 91 ED 0E F9 00 6F 00 00 00*
0,3785,0:22.566.766,70.100 us,2 B,,SP,4B,Write Transaction,82 01
0,3786,0:22.566.837,49.700 us,1 B,,SP,4B,Read Transaction,01*
0,3787,0:22.566.888,70.100 us,2 B,,SP,4B,Write Transaction,82 01
0,3788,0:22.566.960,325.100 us,11 B,,SP,4B,Read Transaction,01 30 91 F4 0E F1 00 6F 00 00 00*
0,3789,0:22.583.260,70.100 us,2 B,,SP,4B,Write Transaction,82 01
0,3790,0:22.583.332,49.800 us,1 B,,SP,4B,Read Transaction,01*
0,3791,0:22.583.383,70.100 us,2 B,,SP,4B,Write Transaction,82 01
0,3792,0:22.583.454,325.300 us,11 B,,SP,4B,Read Transaction,01 30 91 FB 0E EA 00 6F 00 00 00*
0,3793,0:22.599.726,70.100 us,2 B,,SP,4B,Write Transaction,82 01
0,3794,0:22.599.797,49.800 us,1 B,,SP,4B,Read Transaction,01*
0,3795,0:22.599.848,70.100 us,2 B,,SP,4B,Write Transaction,82 01
0,3796,0:22.599.920,324.900 us,11 B,,SP,4B,Read Transaction,01 30 91 02 0F E3 00 6F 00 00 00*
0,3797,0:22.616.216,70.200 us,2 B,,SP,4B,Write Transaction,82 01
0,3798,0:22.616.287,49.800 us,1 B,,SP,4B,Read Transaction,01*
0,3799,0:22.616.338,70.200 us,2 B,,SP,4B,Write Transaction,82 01
0,3800,0:22.616.410,325.100 us,11 B,,SP,4B,Read Transaction,01 30 91 07 0F DD 00 6F 00 00 00*
0,3801,0:22.632.797,70.100 us,2 B,,SP,4B,Write Transaction,82 01
0,3802,0:22.632.868,49.800 us,1 B,,SP,4B,Read Transaction,01*
0,3803,0:22.632.919,70.100 us,2 B,,SP,4B,Write Transaction,82 01
0,3804,0:22.632.991,325.300 us,11 B,,SP,4B,Read Transaction,01 30 91 0C 0F D8 00 6F 00 00 00*
0,3805,0:22.649.204,70.200 us,2 B,,SP,4B,Write Transaction,82 01
0,3806,0:22.649.276,49.700 us,1 B,,SP,4B,Read Transaction,01*
0,3807,0:22.649.327,70.100 us,2 B,,SP,4B,Write Transaction,82 01
0,3808,0:22.649.398,325.200 us,11 B,,SP,4B,Read Transaction,01 30 91 10 0F D3 00 6F 00 00 00*
0,3809,0:22.665.696,70.100 us,2 B,,SP,4B,Write Transaction,82 01
0,3810,0:22.665.768,49.800 us,1 B,,SP,4B,Read Transaction,01*
0,3811,0:22.665.819,70.100 us,2 B,,SP,4B,Write Transaction,82 01
0,3812,0:22.665.890,325.300 us,11 B,,SP,4B,Read Transaction,01 30 91 13 0F D0 00 6F 00 00 00*
0,3813,0:22.683.757,70.100 us,2 B,,SP,4B,Write Transaction,82 01
0,3814,0:22.683.829,49.800 us,1 B,,SP,4B,Read Transaction,01*
0,3815,0:22.683.880,70.100 us,2 B,,SP,4B,Write Transaction,82 01
0,3816,0:22.683.951,325.400 us,11 B,,SP,4B,Read Transaction,01 30 91 16 0F CC 00 6F 00 00 00*
0,3817,0:22.700.279,70.100 us,2 B,,SP,4B,Write Transaction,82 01
0,3818,0:22.700.351,49.800 us,1 B,,SP,4B,Read Transaction,01*
0,3819,0:22.700.402,70.100 us,2 B,,SP,4B,Write Transaction,82 01
0,3820,0:22.700.473,325.500 us,11 B,,SP,4B,Read Transaction,01 30 91 19 0F C9 00 6F 00 00 00*
0,3821,0:22.716.772,70.100 us,2 B,,SP,4B,Write Transaction,82 01
0,3822,0:22.716.843,49.700 us,1 B,,SP,4B,Read Transaction,01*
0,3823,0:22.716.894,70.200 us,2 B,,SP,4B,Write Transaction,82 01
0,3824,0:22.716.966,325.100 us,11 B,,SP,4B,Read Transaction,01 30 91 1C 0F C5 00 6F 00 00 00*
0,3825,0:22.733.274,70.100 us,2 B,,SP,4B,Write Transaction,82 01
0,3826,0:22.733.345,49.800 us,1 B,,SP,4B,Read Transaction,01*
0,3827,0:22.733.396,70.100 us,2 B,,SP,4B,Write Transaction,82 01
0,3828,0:22.733.467,325.100 us,11 B,,SP,4B,Read Transaction,01 30 91 1F 0F C2 00 6F 00 00 00*
0,3829,0:22.749.762,70.100 us,2 B,,SP,4B,Write Transaction,82 01
0,3830,0:22.749.834,49.800 us,1 B,,SP,4B,Read Transaction,01*
0,3831,0:22.749.885,70.100 us,2 B,,SP,4B,Write Transaction,82 01
0,3832,0:22.749.956,325.000 us,11 B,,SP,4B,Read Transaction,01 30 91 22 0F BE 00 6F 00 00 00*
0,3833,0:22.765.368,70.200 us,2 B,,SP,4B,Write Transaction,82 01
0,3834,0:22.765.439,49.800 us,1 B,,SP,4B,Read Transaction,01*
0,3835,0:22.765.490,70.100 us,2 B,,SP,4B,Write Transaction,82 01
0,3836,0:22.765.562,318.500 us,11 B,,SP,4B,Read Transaction,01 29 12 02 06 01 01 16 00 00 00*
0,3837,0:22.766.413,70.100 us,2 B,,SP,4B,Write Transaction,82 01
0,3838,0:22.766.484,49.800 us,1 B,,SP,4B,Read Transaction,01*
0,3839,0:22.766.535,70.100 us,2 B,,SP,4B,Write Transaction,82 01
0,3840,0:22.766.607,325.600 us,11 B,,SP,4B,Read Transaction,01 30 91 26 0F BA 00 6F 00 00 00*
0,3841,0:22.782.810,70.200 us,2 B,,SP,4B,Write Transaction,82 01
0,3842,0:22.782.881,49.800 us,1 B,,SP,4B,Read Transaction,01*
0,3843,0:22.782.933,70.200 us,2 B,,SP,4B,Write Transaction,82 01
0,3844,0:22.783.004,325.200 us,11 B,,SP,4B,Read Transaction,01 30 91 2A 0F B6 00 6A 00 00 00*
0,3845,0:22.799.305,70.200 us,2 B,,SP,4B,Write Transaction,82 01
0,3846,0:22.799.376,49.800 us,1 B,,SP,4B,Read Transaction,01*
0,3847,0:22.799.427,70.100 us,2 B,,SP,4B,Write Transaction,82 01
0,3848,0:22.799.499,325.000 us,11 B,,SP,4B,Read Transaction,01 30 91 2F 0F B2 00 6A 00 00 00*
0,3849,0:22.815.891,70.100 us,2 B,,SP,4B,Write Transaction,82 01
0,3850,0:22.815.963,49.800 us,1 B,,SP,4B,Read Transaction,01*
0,3851,0:22.816.014,70.100 us,2 B,,SP,4B,Write Transaction,82 01
0,3852,0:22.816.085,325.400 us,11 B,,SP,4B,Read Transaction,01 30 91 33 0F AE 00 6A 00 00 00*
0,3853,0:22.832.288,70.100 us,2 B,,SP,4B,Write Transaction,82 01
0,3854,0:22.832.360,49.800 us,1 B,,SP,4B,Read Transaction,01*
0,3855,0:22.832.411,70.100 us,2 B,,SP,4B,Write Transaction,82 01
0,3856,0:22.832.482,325.300 us,11 B,,SP,4B,Read Transaction,01 30 91 37 0F AA 00 64 00 00 00*
0,3857,0:22.850.353,70.200 us,2 B,,SP,4B,Write Transaction,82 01
0,3858,0:22.850.425,49.800 us,1 B,,SP,4B,Read Transaction,01*
0,3859,0:22.850.476,70.200 us,2 B,,SP,4B,Write Transaction,82 01
0,3860,0:22.850.547,325.000 us,11 B,,SP,4B,Read Transaction,01 30 91 3C 0F A6 00 64 00 00 00*
0,3861,0:22.866.877,70.100 us,2 B,,SP,4B,Write Transaction,82 01
0,3862,0:22.866.948,49.800 us,1 B,,SP,4B,Read Transaction,01*
0,3863,0:22.866.999,70.100 us,2 B,,SP,4B,Write Transaction,82 01
0,3864,0:22.867.071,324.000 us,11 B,,SP,4B,Read Transaction,01 30 91 42 0F A2 00 64 00 00 00*
0,3865,0:22.883.367,70.100 us,2 B,,SP,4B,Write Transaction,82 01
0,3866,0:22.883.438,49.800 us,1 B,,SP,4B,Read Transaction,01*
0,3867,0:22.883.489,70.100 us,2 B,,SP,4B,Write Transaction,82 01
0,3868,0:22.883.561,325.200 us,11 B,,SP,4B,Read Transaction,01 30 91 47 0F 9D 00 64 00 00 00*
0,3869,0:22.899.834,70.200 us,2 B,,SP,4B,Write Transaction,82 01
0,3870,0:22.899.906,49.800 us,1 B,,SP,4B,Read Transaction,01*
0,3871,0:22.899.957,70.100 us,2 B,,SP,4B,Write Transaction,82 01
0,3872,0:22.900.028,325.300 us,11 B,,SP,4B,Read Transaction,01 30 91 4D 0F 99 00 64 00 00 00*
0,3873,0:22.916.291,70.100 us,2 B,,SP,4B,Write Transaction,82 01
0,3874,0:22.916.362,49.800 us,1 B,,SP,4B,Read Transaction,01*
0,3875,0:22.916.414,70.100 us,2 B,,SP,4B,Write Transaction,82 01
0,3876,0:22.916.485,325.300 us,11 B,,SP,4B,Read Transaction,01 30 91 52 0F 95 00 64 00 00 00*
0,3877,0:22.932.758,70.100 us,2 B,,SP,4B,Write Transaction,82 01
0,3878,0:22.932.829,49.800 us,1 B,,SP,4B,Read Transaction,01*
0,3879,0:22.932.880,70.100 us,2 B,,SP,4B,Write Transaction,82 01
0,3880,0:22.932.952,325.500 us,11 B,,SP,4B,Read Transaction,01 30 91 56 0F 91 00 64 00 00 00*
0,3881,0:22.949.250,70.100 us,2 B,,SP,4B,Write Transaction,82 01
0,3882,0:22.949.321,49.800 us,1 B,,SP,4B,Read Transaction,01*
0,3883,0:22.949.372,70.100 us,2 B,,SP,4B,Write Transaction,82 01
0,3884,0:22.949.444,325.000 us,11 B,,SP,4B,Read Transaction,01 30 91 5A 0F 8D 00 64 00 00 00*
0,3885,0:22.965.717,70.200 us,2 B,,SP,4B,Write Transaction,82 01
0,3886,0:22.965.788,49.800 us,1 B,,SP,4B,Read Transaction,01*
0,3887,0:22.965.839,70.100 us,2 B,,SP,4B,Write Transaction,82 01
0,3888,0:22.965.911,325.000 us,11 B,,SP,4B,Read Transaction,01 30 91 5F 0F 89 00 64 00 00 00*
0,3889,0:22.982.183,70.200 us,2 B,,SP,4B,Write Transaction,82 01
0,3890,0:22.982.254,49.900 us,1 B,,SP,4B,Read Transaction,01*
0,3891,0:22.982.305,70.100 us,2 B,,SP,4B,Write Transaction,82 01
0,3892,0:22.982.377,325.000 us,11 B,,SP,4B,Read Transaction,01 30 91 64 0F 85 00 64 00 00 00*
0,3893,0:22.998.647,70.100 us,2 B,,SP,4B,Write Transaction,82 01
0,3894,0:22.998.718,49.800 us,1 B,,SP,4B,Read Transaction,01*
0,3895,0:22.998.770,70.100 us,2 B,,SP,4B,Write Transaction,82 01
0,3896,0:22.998.841,325.200 us,11 B,,SP,4B,Read Transaction,01 30 91 69 0F 80 00 5C 00 00 00*
0,3897,0:23.016.813,70.100 us,2 B,,SP,4B,Write Transaction,82 01
0,3898,0:23.016.884,49.700 us,1 B,,SP,4B,Read Transaction,01*
0,3899,0:23.016.935,70.100 us,2 B,,SP,4B,Write Transaction,82 01
0,3900,0:23.017.006,325.200 us,11 B,,SP,4B,Read Transaction,01 30 91 6E 0F 7A 00 5C 00 00 00*
0,3901,0:23.033.267,70.100 us,2 B,,SP,4B,Write Transaction,82 01
0,3902,0:23.033.338,49.800 us,1 B,,SP,4B,Read Transaction,01*
0,3903,0:23.033.389,70.100 us,2 B,,SP,4B,Write Transaction,82 01
0,3904,0:23.033.461,325.000 us,11 B,,SP,4B,Read Transaction,01 30 91 74 0F 75 00 5C 00 00 00*
0,3905,0:23.049.734,70.100 us,2 B,,SP,4B,Write Transaction,82 01
0,3906,0:23.049.805,49.800 us,1 B,,SP,4B,Read Transaction,01*
0,3907,0:23.049.856,70.100 us,2 B,,SP,4B,Write Transaction,82 01
0,3908,0:23.049.928,325.200 us,11 B,,SP,4B,Read Transaction,01 30 91 7A 0F 6F 00 5C 00 00 00*
0,3909,0:23.066.202,70.100 us,2 B,,SP,4B,Write Transaction,82 01
0,3910,0:23.066.273,49.800 us,1 B,,SP,4B,Read Transaction,01*
0,3911,0:23.066.324,70.100 us,2 B,,SP,4B,Write Transaction,82 01
0,3912,0:23.066.396,325.300 us,11 B,,SP,4B,Read Transaction,01 30 91 81 0F 68 00 55 00 00 00*
0,3913,0:23.082.695,70.100 us,2 B,,SP,4B,Write Transaction,82 01
0,3914,0:23.082.767,49.800 us,1 B,,SP,4B,Read Transaction,01*
0,3915,0:23.082.818,70.100 us,2 B,,SP,4B,Write Transaction,82 01
0,3916,0:23.082.889,325.200 us,11 B,,SP,4B,Read Transaction,01 30 91 89 0F 61 00 55 00 00 00*
0,3917,0:23.099.162,70.100 us,2 B,,SP,4B,Write Transaction,82 01
0,3918,0:23.099.233,49.800 us,1 B,,SP,4B,Read Transaction,01*
0,3919,0:23.099.284,70.100 us,2 B,,SP,4B,Write Transaction,82 01
0,3920,0:23.099.356,324.900 us,11 B,,SP,4B,Read Transaction,01 30 91 91 0F 5A 00 4E 00 00 00*
0,3921,0:23.115.626,70.200 us,2 B,,SP,4B,Write Transaction,82 01
0,3922,0:23.115.697,49.800 us,1 B,,SP,4B,Read Transaction,01*
0,3923,0:23.115.748,70.200 us,2 B,,SP,4B,Write Transaction,82 01
0,3924,0:23.115.819,325.000 us,11 B,,SP,4B,Read Transaction,01 30 91 9A 0F 55 00 45 00 00 00*
0,3925,0:23.132.091,70.200 us,2 B,,SP,4B,Write Transaction,82 01
0,3926,0:23.132.163,49.800 us,1 B,,SP,4B,Read Transaction,01*
0,3927,0:23.132.214,70.100 us,2 B,,SP,4B,Write Transaction,82 01
0,3928,0:23.132.285,325.100 us,11 B,,SP,4B,Read Transaction,01 30 91 A4 0F 4E 00 45 00 00 00*
0,3929,0:23.148.560,70.200 us,2 B,,SP,4B,Write Transaction,82 01
0,3930,0:23.148.631,49.800 us,1 B,,SP,4B,Read Transaction,01*
0,3931,0:23.148.682,70.200 us,2 B,,SP,4B,Write Transaction,82 01
0,3932,0:23.148.753,325.500 us,11 B,,SP,4B,Read Transaction,01 30 91 AD 0F 48 00 3E 00 00 00*
0,3933,0:23.165.025,70.100 us,2 B,,SP,4B,Write Transaction,82 01
0,3934,0:23.165.097,49.800 us,1 B,,SP,4B,Read Transaction,01*
0,3935,0:23.165.148,70.100 us,2 B,,SP,4B,Write Transaction,82 01
0,3936,0:23.165.219,325.100 us,11 B,,SP,4B,Read Transaction,01 30 91 B4 0F 43 00 3E 00 00 00*
0,3937,0:23.183.155,70.200 us,2 B,,SP,4B,Write Transaction,82 01
0,3938,0:23.183.227,49.700 us,1 B,,SP,4B,Read Transaction,01*
0,3939,0:23.183.278,70.200 us,2 B,,SP,4B,Write Transaction,82 01
0,3940,0:23.183.349,325.300 us,11 B,,SP,4B,Read Transaction,01 30 91 BB 0F 3F 00 37 00 00 00*
0,3941,0:23.199.675,70.100 us,2 B,,SP,4B,Write Transaction,82 01
0,3942,0:23.199.747,49.800 us,1 B,,SP,4B,Read Transaction,01*
0,3943,0:23.199.798,70.100 us,2 B,,SP,4B,Write Transaction,82 01
0,3944,0:23.199.869,325.300 us,11 B,,SP,4B,Read Transaction,01 30 91 C1 0F 3A 00 37 00 00 00*
0,3945,0:23.216.212,70.200 us,2 B,,SP,4B,Write Transaction,82 01
0,3946,0:23.216.284,49.800 us,1 B,,SP,4B,Read Transaction,01*
0,3947,0:23.216.335,70.200 us,2 B,,SP,4B,Write Transaction,82 01
0,3948,0:23.216.406,325.400 us,11 B,,SP,4B,Read Transaction,01 30 91 C5 0F 38 00 37 00 00 00*
0,3949,0:23.232.657,70.100 us,2 B,,SP,4B,Write Transaction,82 01
0,3950,0:23.232.728,49.800 us,1 B,,SP,4B,Read Transaction,01*
0,3951,0:23.232.779,70.200 us,2 B,,SP,4B,Write Transaction,82 01
0,3952,0:23.232.850,325.200 us,11 B,,SP,4B,Read Transaction,01 30 91 C9 0F 35 00 32 00 00 00*
0,3953,0:23.249.150,70.100 us,2 B,,SP,4B,Write Transaction,82 01
0,3954,0:23.249.221,49.800 us,1 B,,SP,4B,Read Transaction,01*
0,3955,0:23.249.272,70.100 us,2 B,,SP,4B,Write Transaction,82 01
0,3956,0:23.249.344,325.000 us,11 B,,SP,4B,Read Transaction,01 30 91 CC 0F 32 00 32 00 00 00*
0,3957,0:23.265.644,70.200 us,2 B,,SP,4B,Write Transaction,82 01
0,3958,0:23.265.715,49.800 us,1 B,,SP,4B,Read Transaction,01*
0,3959,0:23.265.766,70.200 us,2 B,,SP,4B,Write Transaction,82 01
0,3960,0:23.265.837,325.100 us,11 B,,SP,4B,Read Transaction,01 30 91 D0 0F 30 00 32 00 00 00*
0,3961,0:23.282.136,70.200 us,2 B,,SP,4B,Write Transaction,82 01
0,3962,0:23.282.207,49.700 us,1 B,,SP,4B,Read Transaction,01*
0,3963,0:23.282.258,70.200 us,2 B,,SP,4B,Write Transaction,82 01
0,3964,0:23.282.330,325.100 us,11 B,,SP,4B,Read Transaction,01 30 91 D2 0F 2D 00 2D 00 00 00*
0,3965,0:23.298.629,70.100 us,2 B,,SP,4B,Write Transaction,82 01
0,3966,0:23.298.700,49.800 us,1 B,,SP,4B,Read Transaction,01*
0,3967,0:23.298.751,70.200 us,2 B,,SP,4B,Write Transaction,82 01
0,3968,0:23.298.823,325.300 us,11 B,,SP,4B,Read Transaction,01 30 91 D4 0F 2B 00 2D 00 00 00*
0,3969,0:23.315.124,70.100 us,2 B,,SP,4B,Write Transaction,82 01
0,3970,0:23.315.195,49.800 us,1 B,,SP,4B,Read Transaction,01*
0,3971,0:23.315.246,70.100 us,2 B,,SP,4B,Write Transaction,82 01
0,3972,0:23.315.318,324.900 us,11 B,,SP,4B,Read Transaction,01 30 91 D7 0F 29 00 2D 00 00 00*
0,3973,0:23.331.590,70.200 us,2 B,,SP,4B,Write Transaction,82 01
0,3974,0:23.331.662,49.800 us,1 B,,SP,4B,Read Transaction,01*
0,3975,0:23.331.713,70.100 us,2 B,,SP,4B,Write Transaction,82 01
0,3976,0:23.331.784,325.300 us,11 B,,SP,4B,Read Transaction,01 30 91 D9 0F 28 00 2D 00 00 00*
0,3977,0:23.349.633,70.100 us,2 B,,SP,4B,Write Transaction,82 01
0,3978,0:23.349.704,49.800 us,1 B,,SP,4B,Read Transaction,01*
0,3979,0:23.349.755,70.100 us,2 B,,SP,4B,Write Transaction,82 01
0,3980,0:23.349.827,325.000 us,11 B,,SP,4B,Read Transaction,01 30 91 DB 0F 26 00 2D 00 00 00*
0,3981,0:23.366.131,70.200 us,2 B,,SP,4B,Write Transaction,82 01
0,3982,0:23.366.203,49.800 us,1 B,,SP,4B,Read Transaction,01*
0,3983,0:23.366.254,70.100 us,2 B,,SP,4B,Write Transaction,82 01
0,3984,0:23.366.325,325.100 us,11 B,,SP,4B,Read Transaction,01 30 91 DC 0F 25 00 2D 00 00 00*
0,3985,0:23.382.600,70.100 us,2 B,,SP,4B,Write Transaction,82 01
0,3986,0:23.382.672,49.800 us,1 B,,SP,4B,Read Transaction,01*
0,3987,0:23.382.723,70.100 us,2 B,,SP,4B,Write Transaction,82 01
0,3988,0:23.382.794,325.400 us,11 B,,SP,4B,Read Transaction,01 30 91 DE 0F 23 00 27 00 00 00*
0,3989,0:23.399.068,70.200 us,2 B,,SP,4B,Write Transaction,82 01
0,3990,0:23.399.139,49.800 us,1 B,,SP,4B,Read Transaction,01*
0,3991,0:23.399.190,70.200 us,2 B,,SP,4B,Write Transaction,82 01
0,3992,0:23.399.262,325.300 us,11 B,,SP,4B,Read Transaction,01 30 91 DF 0F 22 00 27 00 00 00*
0,3993,0:23.415.607,70.200 us,2 B,,SP,4B,Write Transaction,82 01
0,3994,0:23.415.678,49.800 us,1 B,,SP,4B,Read Transaction,01*
0,3995,0:23.415.729,70.100 us,2 B,,SP,4B,Write Transaction,82 01
0,3996,0:23.415.801,325.100 us,11 B,,SP,4B,Read Transaction,01 30 91 E0 0F 21 00 27 00 00 00*
0,3997,0:23.432.034,70.100 us,2 B,,SP,4B,Write Transaction,82 01
0,3998,0:23.432.105,49.800 us,1 B,,SP,4B,Read Transaction,01*
0,3999,0:23.432.157,70.100 us,2 B,,SP,4B,Write Transaction,82 01
0,4000,0:23.432.228,325.100 us,11 B,,SP,4B,Read Transaction,01 30 91 E2 0F 20 00 27 00 00 00*
0,4001,0:23.448.501,70.100 us,2 B,,SP,4B,Write Transaction,82 01
0,4002,0:23.448.572,49.800 us,1 B,,SP,4B,Read Transaction,01*
0,4003,0:23.448.623,70.100 us,2 B,,SP,4B,Write Transaction,82 01
0,4004,0:23.448.695,325.000 us,11 B,,SP,4B,Read Transaction,01 30 91 E3 0F 1F 00 21 00 00 00*
0,4005,0:23.464.968,70.100 us,2 B,,SP,4B,Write Transaction,82 01
0,4006,0:23.465.039,49.800 us,1 B,,SP,4B,Read Transaction,01*
0,4007,0:23.465.090,70.100 us,2 B,,SP,4B,Write Transaction,82 01
0,4008,0:23.465.162,325.300 us,11 B,,SP,4B,Read Transaction,01 30 91 E4 0F 1D 00 21 00 00 00*
0,4009,0:23.481.460,70.200 us,2 B,,SP,4B,Write Transaction,82 01
0,4010,0:23.481.531,49.800 us,1 B,,SP,4B,Read Transaction,01*
0,4011,0:23.481.582,70.200 us,2 B,,SP,4B,Write Transaction,82 01
0,4012,0:23.481.654,325.400 us,11 B,,SP,4B,Read Transaction,01 30 91 E6 0F 1C 00 1C 00 00 00*
0,4013,0:23.497.926,70.100 us,2 B,,SP,4B,Write Transaction,82 01
0,4014,0:23.497.998,49.800 us,1 B,,SP,4B,Read Transaction,01*
0,4015,0:23.498.049,70.100 us,2 B,,SP,4B,Write Transaction,82 01
0,4016,0:23.498.120,325.200 us,11 B,,SP,4B,Read Transaction,01 30 91 E7 0F 1B 00 1C 00 00 00*
0,4017,0:23.515.996,70.100 us,2 B,,SP,4B,Write Transaction,82 01
0,4018,0:23.516.068,49.800 us,1 B,,SP,4B,Read Transaction,01*
0,4019,0:23.516.119,70.100 us,2 B,,SP,4B,Write Transaction,82 01
0,4020,0:23.516.190,325.200 us,11 B,,SP,4B,Read Transaction,01 30 91 E8 0F 1A 00 1C 00 00 00*
0,4021,0:23.532.478,70.200 us,2 B,,SP,4B,Write Transaction,82 01
0,4022,0:23.532.549,49.700 us,1 B,,SP,4B,Read Transaction,01*
0,4023,0:23.532.600,70.200 us,2 B,,SP,4B,Write Transaction,82 01
0,4024,0:23.532.672,325.200 us,11 B,,SP,4B,Read Transaction,01 30 91 E9 0F 19 00 15 00 00 00*
0,4025,0:23.548.972,70.100 us,2 B,,SP,4B,Write Transaction,82 01
0,4026,0:23.549.043,49.800 us,1 B,,SP,4B,Read Transaction,01*
0,4027,0:23.549.095,70.100 us,2 B,,SP,4B,Write Transaction,82 01
0,4028,0:23.549.166,325.300 us,11 B,,SP,4B,Read Transaction,01 30 91 EB 0F 18 00 15 00 00 00*
0,4029,0:23.565.464,70.100 us,2 B,,SP,4B,Write Transaction,82 01
0,4030,0:23.565.535,49.800 us,1 B,,SP,4B,Read Transaction,01*
0,4031,0:23.565.586,70.100 us,2 B,,SP,4B,Write Transaction,82 01
0,4032,0:23.565.658,325.400 us,11 B,,SP,4B,Read Transaction,01 30 91 EC 0F 17 00 0E 00 00 00*
0,4033,0:23.581.954,70.100 us,2 B,,SP,4B,Write Transaction,82 01
0,4034,0:23.582.025,49.800 us,1 B,,SP,4B,Read Transaction,01*
0,4035,0:23.582.076,70.100 us,2 B,,SP,4B,Write Transaction,82 01
0,4036,0:23.582.148,324.900 us,11 B,,SP,4B,Read Transaction,01 30 91 ED 0F 16 00 0E 00 00 00*
0,4037,0:23.598.475,70.100 us,2 B,,SP,4B,Write Transaction,82 01
0,4038,0:23.598.547,49.800 us,1 B,,SP,4B,Read Transaction,01*
0,4039,0:23.598.598,70.100 us,2 B,,SP,4B,Write Transaction,82 01
0,4040,0:23.598.669,325.200 us,11 B,,SP,4B,Read Transaction,01 30 91 EE 0F 15 00 08 00 00 00*
0,4041,0:23.614.914,70.100 us,2 B,,SP,4B,Write Transaction,82 01
0,4042,0:23.614.985,49.800 us,1 B,,SP,4B,Read Transaction,01*
0,4043,0:23.615.036,70.100 us,2 B,,SP,4B,Write Transaction,82 01
0,4044,0:23.615.107,325.400 us,11 B,,SP,4B,Read Transaction,01 30 91 EF 0F 14 00 08 00 00 00*
0,4045,0:23.664.307,70.100 us,2 B,,SP,4B,Write Transaction,82 01
0,4046,0:23.664.379,49.800 us,1 B,,SP,4B,Read Transaction,01*
0,4047,0:23.664.430,70.100 us,2 B,,SP,4B,Write Transaction,82 01
0,4048,0:23.664.501,325.000 us,11 B,,SP,4B,Read Transaction,01 30 15 EF 0F 14 00 08 00 00 00*
0,4049,0:24.312.563,70.200 us,2 B,,SP,4B,Write Transaction,82 01
0,4050,0:24.312.634,49.800 us,1 B,,SP,4B,Read Transaction,01*
0,4051,0:24.312.685,70.100 us,2 B,,SP,4B,Write Transaction,82 01
0,4052,0:24.312.757,321.700 us,11 B,,SP,4B,Read Transaction,01 29 12 02 06 01 01 16 00 00 00*
0,4053,0:25.473.247,70.100 us,2 B,,SP,4B,Write Transaction,82 01
0,4054,0:25.473.319,49.800 us,1 B,,SP,4B,Read Transaction,01*
0,4055,0:25.473.370,70.100 us,2 B,,SP,4B,Write Transaction,82 01
0,4056,0:25.473.441,322.000 us,11 B,,SP,4B,Read Transaction,01 29 12 02 06 01 01 16 00 00 00*
0,4057,0:25.733.363,70.100 us,2 B,,SP,4B,Write Transaction,82 01
0,4058,0:25.733.435,49.800 us,1 B,,SP,4B,Read Transaction,01*
0,4059,0:25.733.486,70.100 us,2 B,,SP,4B,Write Transaction,82 01
0,4060,0:25.733.557,325.100 us,11 B,,SP,4B,Read Transaction,01 30 94 0C 00 15 00 0C 00 00 00*
0,4061,0:25.784.494,70.100 us,2 B,,SP,4B,Write Transaction,82 01
0,4062,0:25.784.566,49.800 us,1 B,,SP,4B,Read Transaction,01*
0,4063,0:25.784.617,70.100 us,2 B,,SP,4B,Write Transaction,82 01
0,4064,0:25.784.688,325.100 us,11 B,,SP,4B,Read Transaction,01 30 90 0C 00 15 00 11 00 00 00*
0,4065,0:25.850.421,70.100 us,2 B,,SP,4B,Write Transaction,82 01
0,4066,0:25.850.493,49.700 us,1 B,,SP,4B,Read Transaction,01*
0,4067,0:25.850.544,70.200 us,2 B,,SP,4B,Write Transaction,82 01
0,4068,0:25.850.615,325.100 us,11 B,,SP,4B,Read Transaction,01 30 90 0C 00 15 00 16 00 00 00*
0,4069,0:25.934.513,70.200 us,2 B,,SP,4B,Write Transaction,82 01
0,4070,0:25.934.584,49.800 us,1 B,,SP,4B,Read Transaction,01*
0,4071,0:25.934.635,70.100 us,2 B,,SP,4B,Write Transaction,82 01
0,4072,0:25.934.707,325.300 us,11 B,,SP,4B,Read Transaction,01 30 91 19 00 12 00 1D 00 00 00*
0,4073,0:25.951.103,70.200 us,2 B,,SP,4B,Write Transaction,82 01
0,4074,0:25.951.175,49.700 us,1 B,,SP,4B,Read Transaction,01*
0,4075,0:25.951.226,70.200 us,2 B,,SP,4B,Write Transaction,82 01
0,4076,0:25.951.297,324.700 us,11 B,,SP,4B,Read Transaction,01 30 91 1D 00 12 00 1D 00 00 00*
0,4077,0:25.967.526,70.100 us,2 B,,SP,4B,Write Transaction,82 01
0,4078,0:25.967.598,49.800 us,1 B,,SP,4B,Read Transaction,01*
0,4079,0:25.967.649,70.100 us,2 B,,SP,4B,Write Transaction,82 01
0,4080,0:25.967.720,325.300 us,11 B,,SP,4B,Read Transaction,01 30 91 22 00 12 00 1D 00 00 00*
0,4081,0:25.983.995,70.100 us,2 B,,SP,4B,Write Transaction,82 01
0,4082,0:25.984.066,49.800 us,1 B,,SP,4B,Read Transaction,01*
0,4083,0:25.984.117,70.100 us,2 B,,SP,4B,Write Transaction,82 01
0,4084,0:25.984.189,325.100 us,11 B,,SP,4B,Read Transaction,01 30 91 27 00 12 00 1D 00 00 00*
0,4085,0:26.000.491,70.100 us,2 B,,SP,4B,Write Transaction,82 01
0,4086,0:26.000.562,49.800 us,1 B,,SP,4B,Read Transaction,01*
0,4087,0:26.000.613,70.100 us,2 B,,SP,4B,Write Transaction,82 01
0,4088,0:26.000.685,325.100 us,11 B,,SP,4B,Read Transaction,01 30 91 2C 00 12 00 1D 00 00 00*
0,4089,0:26.016.958,70.200 us,2 B,,SP,4B,Write Transaction,82 01
0,4090,0:26.017.030,49.800 us,1 B,,SP,4B,Read Transaction,01*
0,4091,0:26.017.081,70.200 us,2 B,,SP,4B,Write Transaction,82 01
0,4092,0:26.017.152,325.500 us,11 B,,SP,4B,Read Transaction,01 30 91 31 00 12 00 22 00 00 00*
0,4093,0:26.033.428,70.100 us,2 B,,SP,4B,Write Transaction,82 01
0,4094,0:26.033.500,49.800 us,1 B,,SP,4B,Read Transaction,01*
0,4095,0:26.033.551,70.100 us,2 B,,SP,4B,Write Transaction,82 01
0,4096,0:26.033.622,325.500 us,11 B,,SP,4B,Read Transaction,01 30 91 36 00 11 00 22 00 00 00*
0,4097,0:26.049.899,70.100 us,2 B,,SP,4B,Write Transaction,82 01
0,4098,0:26.049.970,49.800 us,1 B,,SP,4B,Read Transaction,01*
0,4099,0:26.050.022,70.100 us,2 B,,SP,4B,Write Transaction,82 01
0,4100,0:26.050.093,325.100 us,11 B,,SP,4B,Read Transaction,01 30 91 3C 00 11 00 22 00 00 00*
0,4101,0:26.066.391,70.100 us,2 B,,SP,4B,Write Transaction,82 01
0,4102,0:26.066.463,49.800 us,1 B,,SP,4B,Read Transaction,01*
0,4103,0:26.066.514,70.100 us,2 B,,SP,4B,Write Transaction,82 01
0,4104,0:26.066.585,325.100 us,11 B,,SP,4B,Read Transaction,01 30 91 41 00 11 00 22 00 00 00*
0,4105,0:26.082.887,70.200 us,2 B,,SP,4B,Write Transaction,82 01
0,4106,0:26.082.958,49.800 us,1 B,,SP,4B,Read Transaction,01*
0,4107,0:26.083.009,70.200 us,2 B,,SP,4B,Write Transaction,82 01
0,4108,0:26.083.081,325.300 us,11 B,,SP,4B,Read Transaction,01 30 91 46 00 11 00 28 00 00 00*
0,4109,0:26.100.952,70.100 us,2 B,,SP,4B,Write Transaction,82 01
0,4110,0:26.101.024,49.700 us,1 B,,SP,4B,Read Transaction,01*
0,4111,0:26.101.075,70.200 us,2 B,,SP,4B,Write Transaction,82 01
0,4112,0:26.101.146,325.100 us,11 B,,SP,4B,Read Transaction,01 30 91 4B 00 11 00 28 00 00 00*
0,4113,0:26.117.451,70.100 us,2 B,,SP,4B,Write Transaction,82 01
0,4114,0:26.117.523,49.800 us,1 B,,SP,4B,Read Transaction,01*
0,4115,0:26.117.574,70.100 us,2 B,,SP,4B,Write Transaction,82 01
0,4116,0:26.117.645,325.100 us,11 B,,SP,4B,Read Transaction,01 30 91 50 00 11 00 28 00 00 00*
0,4117,0:26.133.921,70.200 us,2 B,,SP,4B,Write Transaction,82 01
0,4118,0:26.133.993,49.700 us,1 B,,SP,4B,Read Transaction,01*
0,4119,0:26.134.044,70.200 us,2 B,,SP,4B,Write Transaction,82 01
0,4120,0:26.134.115,325.000 us,11 B,,SP,4B,Read Transaction,01 30 91 55 00 11 00 28 00 00 00*
0,4121,0:26.150.470,70.100 us,2 B,,SP,4B,Write Transaction,82 01
0,4122,0:26.150.541,49.800 us,1 B,,SP,4B,Read Transaction,01*
0,4123,0:26.150.592,70.100 us,2 B,,SP,4B,Write Transaction,82 01
0,4124,0:26.150.664,325.100 us,11 B,,SP,4B,Read Transaction,01 30 91 5A 00 11 00 2D 00 00 00*
0,4125,0:26.166.925,70.200 us,2 B,,SP,4B,Write Transaction,82 01
0,4126,0:26.166.996,49.700 us,1 B,,SP,4B,Read Transaction,01*
0,4127,0:26.167.047,70.100 us,2 B,,SP,4B,Write Transaction,82 01
0,4128,0:26.167.119,325.400 us,11 B,,SP,4B,Read Transaction,01 30 91 60 00 11 00 2D 00 00 00*
0,4129,0:26.183.414,70.100 us,2 B,,SP,4B,Write Transaction,82 01
0,4130,0:26.183.485,49.800 us,1 B,,SP,4B,Read Transaction,01*
0,4131,0:26.183.536,70.100 us,2 B,,SP,4B,Write Transaction,82 01
0,4132,0:26.183.608,325.300 us,11 B,,SP,4B,Read Transaction,01 30 91 64 00 11 00 2D 00 00 00*
0,4133,0:26.199.909,70.100 us,2 B,,SP,4B,Write Transaction,82 01
0,4134,0:26.199.980,49.800 us,1 B,,SP,4B,Read Transaction,01*
0,4135,0:26.200.031,70.100 us,2 B,,SP,4B,Write Transaction,82 01
0,4136,0:26.200.103,325.100 us,11 B,,SP,4B,Read Transaction,01 30 91 69 00 11 00 2D 00 00 00*
0,4137,0:26.216.377,70.100 us,2 B,,SP,4B,Write Transaction,82 01
0,4138,0:26.216.449,49.800 us,1 B,,SP,4B,Read Transaction,01*
0,4139,0:26.216.500,70.100 us,2 B,,SP,4B,Write Transaction,82 01
0,4140,0:26.216.571,325.100 us,11 B,,SP,4B,Read Transaction,01 30 91 6E 00 11 00 2D 00 00 00*
0,4141,0:26.232.847,70.200 us,2 B,,SP,4B,Write Transaction,82 01
0,4142,0:26.232.918,49.800 us,1 B,,SP,4B,Read Transaction,01*
0,4143,0:26.232.969,70.100 us,2 B,,SP,4B,Write Transaction,82 01
0,4144,0:26.233.041,325.300 us,11 B,,SP,4B,Read Transaction,01 30 91 72 00 11 00 2D 00 00 00*
0,4145,0:26.249.341,70.100 us,2 B,,SP,4B,Write Transaction,82 01
0,4146,0:26.249.412,49.800 us,1 B,,SP,4B,Read Transaction,01*
0,4147,0:26.249.463,70.100 us,2 B,,SP,4B,Write Transaction,82 01
0,4148,0:26.249.535,325.300 us,11 B,,SP,4B,Read Transaction,01 30 91 76 00 11 00 2D 00 00 00*
0,4149,0:26.267.404,70.100 us,2 B,,SP,4B,Write Transaction,82 01
0,4150,0:26.267.475,49.800 us,1 B,,SP,4B,Read Transaction,01*
0,4151,0:26.267.526,70.100 us,2 B,,SP,4B,Write Transaction,82 01
0,4152,0:26.267.598,325.300 us,11 B,,SP,4B,Read Transaction,01 30 91 79 00 11 00 2D 00 00 00*
0,4153,0:26.283.928,70.100 us,2 B,,SP,4B,Write Transaction,82 01
0,4154,0:26.283.999,49.800 us,1 B,,SP,4B,Read Transaction,01*
0,4155,0:26.284.050,70.100 us,2 B,,SP,4B,Write Transaction,82 01
0,4156,0:26.284.121,325.100 us,11 B,,SP,4B,Read Transaction,01 30 91 7D 00 11 00 33 00 00 00*
0,4157,0:26.300.420,70.100 us,2 B,,SP,4B,Write Transaction,82 01
0,4158,0:26.300.491,49.800 us,1 B,,SP,4B,Read Transaction,01*
0,4159,0:26.300.542,70.100 us,2 B,,SP,4B,Write Transaction,82 01
0,4160,0:26.300.614,325.400 us,11 B,,SP,4B,Read Transaction,01 30 91 82 00 12 00 33 00 00 00*
0,4161,0:26.316.910,70.100 us,2 B,,SP,4B,Write Transaction,82 01
0,4162,0:26.316.981,49.800 us,1 B,,SP,4B,Read Transaction,01*
0,4163,0:26.317.032,70.100 us,2 B,,SP,4B,Write Transaction,82 01
0,4164,0:26.317.104,325.400 us,11 B,,SP,4B,Read Transaction,01 30 91 86 00 13 00 39 00 00 00*
0,4165,0:26.333.378,70.100 us,2 B,,SP,4B,Write Transaction,82 01
0,4166,0:26.333.449,49.800 us,1 B,,SP,4B,Read Transaction,01*
0,4167,0:26.333.500,70.100 us,2 B,,SP,4B,Write Transaction,82 01
0,4168,0:26.333.572,325.000 us,11 B,,SP,4B,Read Transaction,01 30 91 8B 00 14 00 39 00 00 00*
0,4169,0:26.349.934,70.100 us,2 B,,SP,4B,Write Transaction,82 01
0,4170,0:26.350.006,49.800 us,1 B,,SP,4B,Read Transaction,01*
0,4171,0:26.350.057,70.100 us,2 B,,SP,4B,Write Transaction,82 01
0,4172,0:26.350.128,325.400 us,11 B,,SP,4B,Read Transaction,01 30 91 90 00 15 00 39 00 00 00*
0,4173,0:26.366.368,70.100 us,2 B,,SP,4B,Write Transaction,82 01
0,4174,0:26.366.439,49.800 us,1 B,,SP,4B,Read Transaction,01*
0,4175,0:26.366.491,70.100 us,2 B,,SP,4B,Write Transaction,82 01
0,4176,0:26.366.562,325.200 us,11 B,,SP,4B,Read Transaction,01 30 91 95 00 16 00 3E 00 00 00*
0,4177,0:26.382.835,70.200 us,2 B,,SP,4B,Write Transaction,82 01
0,4178,0:26.382.907,49.800 us,1 B,,SP,4B,Read Transaction,01*
0,4179,0:26.382.958,70.100 us,2 B,,SP,4B,Write Transaction,82 01
0,4180,0:26.383.029,325.200 us,11 B,,SP,4B,Read Transaction,01 30 91 99 00 18 00 3E 00 00 00*
0,4181,0:26.399.329,70.200 us,2 B,,SP,4B,Write Transaction,82 01
0,4182,0:26.399.400,49.800 us,1 B,,SP,4B,Read Transaction,01*
0,4183,0:26.399.452,70.100 us,2 B,,SP,4B,Write Transaction,82 01
0,4184,0:26.399.523,325.500 us,11 B,,SP,4B,Read Transaction,01 30 91 9E 00 18 00 3E 00 00 00*
0,4185,0:26.415.826,70.200 us,2 B,,SP,4B,Write Transaction,82 01
0,4186,0:26.415.897,49.800 us,1 B,,SP,4B,Read Transaction,01*
0,4187,0:26.415.948,70.100 us,2 B,,SP,4B,Write Transaction,82 01
0,4188,0:26.416.020,325.300 us,11 B,,SP,4B,Read Transaction,01 30 91 A3 00 1A 00 3E 00 00 00*
0,4189,0:26.433.925,70.100 us,2 B,,SP,4B,Write Transaction,82 01
0,4190,0:26.433.996,49.800 us,1 B,,SP,4B,Read Transaction,01*
0,4191,0:26.434.047,70.100 us,2 B,,SP,4B,Write Transaction,82 01
0,4192,0:26.434.119,325.300 us,11 B,,SP,4B,Read Transaction,01 30 91 A7 00 1A 00 44 00 00 00*
0,4193,0:26.450.421,70.200 us,2 B,,SP,4B,Write Transaction,82 01
0,4194,0:26.450.493,49.800 us,1 B,,SP,4B,Read Transaction,01*
0,4195,0:26.450.544,70.200 us,2 B,,SP,4B,Write Transaction,82 01
0,4196,0:26.450.615,325.200 us,11 B,,SP,4B,Read Transaction,01 30 91 AB 00 1B 00 44 00 00 00*
0,4197,0:26.466.918,70.200 us,2 B,,SP,4B,Write Transaction,82 01
0,4198,0:26.466.990,49.800 us,1 B,,SP,4B,Read Transaction,01*
0,4199,0:26.467.041,70.200 us,2 B,,SP,4B,Write Transaction,82 01
0,4200,0:26.467.112,325.300 us,11 B,,SP,4B,Read Transaction,01 30 91 AF 00 1D 00 44 00 00 00*
0,4201,0:26.483.409,70.200 us,2 B,,SP,4B,Write Transaction,82 01
0,4202,0:26.483.481,49.800 us,1 B,,SP,4B,Read Transaction,01*
0,4203,0:26.483.532,70.100 us,2 B,,SP,4B,Write Transaction,82 01
0,4204,0:26.483.603,325.400 us,11 B,,SP,4B,Read Transaction,01 30 91 B4 00 1E 00 44 00 00 00*
0,4205,0:26.499.905,70.200 us,2 B,,SP,4B,Write Transaction,82 01
0,4206,0:26.499.977,49.800 us,1 B,,SP,4B,Read Transaction,01*
0,4207,0:26.500.028,70.100 us,2 B,,SP,4B,Write Transaction,82 01
0,4208,0:26.500.099,325.100 us,11 B,,SP,4B,Read Transaction,01 30 91 B9 00 20 00 4A 00 00 00*
0,4209,0:26.516.390,70.200 us,2 B,,SP,4B,Write Transaction,82 01
0,4210,0:26.516.461,49.800 us,1 B,,SP,4B,Read Transaction,01*
0,4211,0:26.516.513,70.200 us,2 B,,SP,4B,Write Transaction,82 01
0,4212,0:26.516.584,325.400 us,11 B,,SP,4B,Read Transaction,01 30 91 BE 00 21 00 4A 00 00 00*
0,4213,0:26.532.884,70.100 us,2 B,,SP,4B,Write Transaction,82 01
0,4214,0:26.532.955,49.800 us,1 B,,SP,4B,Read Transaction,01*
0,4215,0:26.533.006,70.100 us,2 B,,SP,4B,Write Transaction,82 01
0,4216,0:26.533.078,325.100 us,11 B,,SP,4B,Read Transaction,01 30 91 C3 00 22 00 4A 00 00 00*
0,4217,0:26.549.460,70.100 us,2 B,,SP,4B,Write Transaction,82 01
0,4218,0:26.549.532,49.800 us,1 B,,SP,4B,Read Transaction,01*
0,4219,0:26.549.583,70.100 us,2 B,,SP,4B,Write Transaction,82 01
0,4220,0:26.549.654,325.200 us,11 B,,SP,4B,Read Transaction,01 30 91 C9 00 25 00 4A 00 00 00*
0,4221,0:26.565.888,70.100 us,2 B,,SP,4B,Write Transaction,82 01
0,4222,0:26.565.959,49.800 us,1 B,,SP,4B,Read Transaction,01*
0,4223,0:26.566.010,70.100 us,2 B,,SP,4B,Write Transaction,82 01
0,4224,0:26.566.082,325.300 us,11 B,,SP,4B,Read Transaction,01 30 91 CF 00 27 00 4A 00 00 00*
0,4225,0:26.582.384,70.200 us,2 B,,SP,4B,Write Transaction,82 01
0,4226,0:26.582.455,49.800 us,1 B,,SP,4B,Read Transaction,01*
0,4227,0:26.582.506,70.200 us,2 B,,SP,4B,Write Transaction,82 01
0,4228,0:26.582.578,325.100 us,11 B,,SP,4B,Read Transaction,01 30 91 D6 00 29 00 4A 00 00 00*
0,4229,0:26.600.483,70.100 us,2 B,,SP,4B,Write Transaction,82 01
0,4230,0:26.600.554,49.800 us,1 B,,SP,4B,Read Transaction,01*
0,4231,0:26.600.606,70.100 us,2 B,,SP,4B,Write Transaction,82 01
0,4232,0:26.600.677,325.200 us,11 B,,SP,4B,Read Transaction,01 30 91 DC 00 2A 00 4A 00 00 00*
0,4233,0:26.617.004,70.100 us,2 B,,SP,4B,Write Transaction,82 01
0,4234,0:26.617.076,49.800 us,1 B,,SP,4B,Read Transaction,01*
0,4235,0:26.617.127,70.100 us,2 B,,SP,4B,Write Transaction,82 01
0,4236,0:26.617.198,325.300 us,11 B,,SP,4B,Read Transaction,01 30 91 E3 00 2D 00 50 00 00 00*
0,4237,0:26.633.501,70.100 us,2 B,,SP,4B,Write Transaction,82 01
0,4238,0:26.633.572,49.800 us,1 B,,SP,4B,Read Transaction,01*
0,4239,0:26.633.623,70.200 us,2 B,,SP,4B,Write Transaction,82 01
0,4240,0:26.633.695,325.300 us,11 B,,SP,4B,Read Transaction,01 30 91 E9 00 2E 00 50 00 00 00*
0,4241,0:26.649.992,70.100 us,2 B,,SP,4B,Write Transaction,82 01
0,4242,0:26.650.064,49.800 us,1 B,,SP,4B,Read Transaction,01*
0,4243,0:26.650.115,70.200 us,2 B,,SP,4B,Write Transaction,82 01
0,4244,0:26.650.186,325.200 us,11 B,,SP,4B,Read Transaction,01 30 91 EF 00 30 00 50 00 00 00*
0,4245,0:26.666.484,70.100 us,2 B,,SP,4B,Write Transaction,82 01
0,4246,0:26.666.555,49.800 us,1 B,,SP,4B,Read Transaction,01*
0,4247,0:26.666.606,70.100 us,2 B,,SP,4B,Write Transaction,82 01
0,4248,0:26.666.677,324.900 us,11 B,,SP,4B,Read Transaction,01 30 91 F6 00 31 00 55 00 00 00*
0,4249,0:26.682.969,70.100 us,2 B,,SP,4B,Write Transaction,82 01
0,4250,0:26.683.040,49.800 us,1 B,,SP,4B,Read Transaction,01*
0,4251,0:26.683.091,70.100 us,2 B,,SP,4B,Write Transaction,82 01
0,4252,0:26.683.162,325.600 us,11 B,,SP,4B,Read Transaction,01 30 91 FC 00 32 00 55 00 00 00*
0,4253,0:26.699.437,70.100 us,2 B,,SP,4B,Write Transaction,82 01
0,4254,0:26.699.509,49.800 us,1 B,,SP,4B,Read Transaction,01*
0,4255,0:26.699.560,70.100 us,2 B,,SP,4B,Write Transaction,82 01
0,4256,0:26.699.631,325.100 us,11 B,,SP,4B,Read Transaction,01 30 91 02 01 34 00 55 00 00 00*
0,4257,0:26.715.936,70.200 us,2 B,,SP,4B,Write Transaction,82 01
0,4258,0:26.716.007,49.800 us,1 B,,SP,4B,Read Transaction,01*
0,4259,0:26.716.058,70.100 us,2 B,,SP,4B,Write Transaction,82 01
0,4260,0:26.716.130,325.300 us,11 B,,SP,4B,Read Transaction,01 30 91 07 01 36 00 55 00 00 00*
0,4261,0:26.732.500,70.100 us,2 B,,SP,4B,Write Transaction,82 01
0,4262,0:26.732.571,49.800 us,1 B,,SP,4B,Read Transaction,01*
0,4263,0:26.732.622,70.100 us,2 B,,SP,4B,Write Transaction,82 01
0,4264,0:26.732.693,325.300 us,11 B,,SP,4B,Read Transaction,01 30 91 0D 01 38 00 55 00 00 00*
0,4265,0:26.748.925,70.100 us,2 B,,SP,4B,Write Transaction,82 01
0,4266,0:26.748.997,49.800 us,1 B,,SP,4B,Read Transaction,01*
0,4267,0:26.749.048,70.100 us,2 B,,SP,4B,Write Transaction,82 01
0,4268,0:26.749.119,325.300 us,11 B,,SP,4B,Read Transaction,01 30 91 11 01 39 00 55 00 00 00*
0,4269,0:26.767.080,70.200 us,2 B,,SP,4B,Write Transaction,82 01
0,4270,0:26.767.152,49.800 us,1 B,,SP,4B,Read Transaction,01*
0,4271,0:26.767.203,70.100 us,2 B,,SP,4B,Write Transaction,82 01
0,4272,0:26.767.274,325.100 us,11 B,,SP,4B,Read Transaction,01 30 91 15 01 3A 00 5A 00 00 00*
0,4273,0:26.783.605,70.200 us,2 B,,SP,4B,Write Transaction,82 01
0,4274,0:26.783.677,49.700 us,1 B,,SP,4B,Read Transaction,01*
0,4275,0:26.783.728,70.200 us,2 B,,SP,4B,Write Transaction,82 01
0,4276,0:26.783.799,325.300 us,11 B,,SP,4B,Read Transaction,01 30 91 19 01 3C 00 5A 00 00 00*
0,4277,0:26.800.071,70.200 us,2 B,,SP,4B,Write Transaction,82 01
0,4278,0:26.800.142,49.800 us,1 B,,SP,4B,Read Transaction,01*
0,4279,0:26.800.193,70.100 us,2 B,,SP,4B,Write Transaction,82 01
0,4280,0:26.800.265,324.900 us,11 B,,SP,4B,Read Transaction,01 30 91 1D 01 3D 00 5A 00 00 00*
0,4281,0:26.816.537,70.100 us,2 B,,SP,4B,Write Transaction,82 01
0,4282,0:26.816.608,49.800 us,1 B,,SP,4B,Read Transaction,01*
0,4283,0:26.816.659,70.100 us,2 B,,SP,4B,Write Transaction,82 01
0,4284,0:26.816.731,325.200 us,11 B,,SP,4B,Read Transaction,01 30 91 20 01 3F 00 5A 00 00 00*
0,4285,0:26.833.030,70.100 us,2 B,,SP,4B,Write Transaction,82 01
0,4286,0:26.833.102,49.800 us,1 B,,SP,4B,Read Transaction,01*
0,4287,0:26.833.153,70.100 us,2 B,,SP,4B,Write Transaction,82 01
0,4288,0:26.833.224,325.000 us,11 B,,SP,4B,Read Transaction,01 30 91 23 01 40 00 5A 00 00 00*
0,4289,0:26.849.498,70.200 us,2 B,,SP,4B,Write Transaction,82 01
0,4290,0:26.849.570,49.700 us,1 B,,SP,4B,Read Transaction,01*
0,4291,0:26.849.621,70.200 us,2 B,,SP,4B,Write Transaction,82 01
0,4292,0:26.849.692,325.400 us,11 B,,SP,4B,Read Transaction,01 30 91 26 01 42 00 5A 00 00 00*
0,4293,0:26.865.965,70.200 us,2 B,,SP,4B,Write Transaction,82 01
0,4294,0:26.866.037,49.800 us,1 B,,SP,4B,Read Transaction,01*
0,4295,0:26.866.088,70.200 us,2 B,,SP,4B,Write Transaction,82 01
0,4296,0:26.866.159,325.100 us,11 B,,SP,4B,Read Transaction,01 30 91 29 01 42 00 5A 00 00 00*
0,4297,0:26.882.458,70.100 us,2 B,,SP,4B,Write Transaction,82 01
0,4298,0:26.882.530,49.800 us,1 B,,SP,4B,Read Transaction,01*
0,4299,0:26.882.581,70.100 us,2 B,,SP,4B,Write Transaction,82 01
0,4300,0:26.882.652,325.400 us,11 B,,SP,4B,Read Transaction,01 30 91 2C 01 44 00 5A 00 00 00*
0,4301,0:26.898.955,70.100 us,2 B,,SP,4B,Write Transaction,82 01
0,4302,0:26.899.026,49.800 us,1 B,,SP,4B,Read Transaction,01*
0,4303,0:26.899.078,70.100 us,2 B,,SP,4B,Write Transaction,82 01
0,4304,0:26.899.149,325.100 us,11 B,,SP,4B,Read Transaction,01 30 91 2F 01 45 00 5A 00 00 00*
0,4305,0:26.915.458,70.100 us,2 B,,SP,4B,Write Transaction,82 01
0,4306,0:26.915.529,49.800 us,1 B,,SP,4B,Read Transaction,01*
0,4307,0:26.915.580,70.100 us,2 B,,SP,4B,Write Transaction,82 01
0,4308,0:26.915.652,325.200 us,11 B,,SP,4B,Read Transaction,01 30 91 32 01 46 00 5A 00 00 00*
0,4309,0:26.933.610,70.200 us,2 B,,SP,4B,Write Transaction,82 01
0,4310,0:26.933.681,49.800 us,1 B,,SP,4B,Read Transaction,01*
0,4311,0:26.933.732,70.200 us,2 B,,SP,4B,Write Transaction,82 01
0,4312,0:26.933.804,325.400 us,11 B,,SP,4B,Read Transaction,01 30 91 35 01 48 00 5A 00 00 00*
0,4313,0:26.950.044,70.100 us,2 B,,SP,4B,Write Transaction,82 01
0,4314,0:26.950.116,49.800 us,1 B,,SP,4B,Read Transaction,01*
0,4315,0:26.950.167,70.100 us,2 B,,SP,4B,Write Transaction,82 01
0,4316,0:26.950.238,325.200 us,11 B,,SP,4B,Read Transaction,01 30 91 37 01 49 00 5A 00 00 00*
0,4317,0:26.966.534,70.100 us,2 B,,SP,4B,Write Transaction,82 01
0,4318,0:26.966.605,49.800 us,1 B,,SP,4B,Read Transaction,01*
0,4319,0:26.966.656,70.100 us,2 B,,SP,4B,Write Transaction,82 01
0,4320,0:26.966.728,325.400 us,11 B,,SP,4B,Read Transaction,01 30 91 3B 01 4A 00 5A 00 00 00*
0,4321,0:26.983.001,70.100 us,2 B,,SP,4B,Write Transaction,82 01
0,4322,0:26.983.072,49.800 us,1 B,,SP,4B,Read Transaction,01*
0,4323,0:26.983.123,70.100 us,2 B,,SP,4B,Write Transaction,82 01
0,4324,0:26.983.195,325.200 us,11 B,,SP,4B,Read Transaction,01 30 91 3E 01 4D 00 5A 00 00 00*
0,4325,0:26.999.465,70.100 us,2 B,,SP,4B,Write Transaction,82 01
0,4326,0:26.999.537,49.800 us,1 B,,SP,4B,Read Transaction,01*
0,4327,0:26.999.588,70.100 us,2 B,,SP,4B,Write Transaction,82 01
0,4328,0:26.999.659,325.400 us,11 B,,SP,4B,Read Transaction,01 30 91 42 01 4E 00 5A 00 00 00*
0,4329,0:27.015.928,70.100 us,2 B,,SP,4B,Write Transaction,82 01
0,4330,0:27.016.000,49.800 us,1 B,,SP,4B,Read Transaction,01*
0,4331,0:27.016.051,70.100 us,2 B,,SP,4B,Write Transaction,82 01
0,4332,0:27.016.122,325.000 us,11 B,,SP,4B,Read Transaction,01 30 91 46 01 50 00 5A 00 00 00*
0,4333,0:27.032.398,70.100 us,2 B,,SP,4B,Write Transaction,82 01
0,4334,0:27.032.469,49.800 us,1 B,,SP,4B,Read Transaction,01*
0,4335,0:27.032.520,70.100 us,2 B,,SP,4B,Write Transaction,82 01
0,4336,0:27.032.591,325.200 us,11 B,,SP,4B,Read Transaction,01 30 91 4B 01 53 00 5A 00 00 00*
0,4337,0:27.048.891,70.200 us,2 B,,SP,4B,Write Transaction,82 01
0,4338,0:27.048.962,49.800 us,1 B,,SP,4B,Read Transaction,01*
0,4339,0:27.049.013,70.200 us,2 B,,SP,4B,Write Transaction,82 01
0,4340,0:27.049.085,325.200 us,11 B,,SP,4B,Read Transaction,01 30 91 51 01 55 00 66 00 00 00*
0,4341,0:27.065.359,70.100 us,2 B,,SP,4B,Write Transaction,82 01
0,4342,0:27.065.430,49.800 us,1 B,,SP,4B,Read Transaction,01*
0,4343,0:27.065.481,70.100 us,2 B,,SP,4B,Write Transaction,82 01
0,4344,0:27.065.553,325.200 us,11 B,,SP,4B,Read Transaction,01 30 91 56 01 58 00 66 00 00 00*
0,4345,0:27.081.851,70.100 us,2 B,,SP,4B,Write Transaction,82 01
0,4346,0:27.081.923,49.800 us,1 B,,SP,4B,Read Transaction,01*
0,4347,0:27.081.974,70.100 us,2 B,,SP,4B,Write Transaction,82 01
0,4348,0:27.082.045,325.000 us,11 B,,SP,4B,Read Transaction,01 30 91 5B 01 5A 00 66 00 00 00*
0,4349,0:27.099.911,70.100 us,2 B,,SP,4B,Write Transaction,82 01
0,4350,0:27.099.983,49.800 us,1 B,,SP,4B,Read Transaction,01*
0,4351,0:27.100.034,70.100 us,2 B,,SP,4B,Write Transaction,82 01
0,4352,0:27.100.105,325.400 us,11 B,,SP,4B,Read Transaction,01 30 91 60 01 5D 00 66 00 00 00*
0,4353,0:27.116.410,70.200 us,2 B,,SP,4B,Write Transaction,82 01
0,4354,0:27.116.481,49.700 us,1 B,,SP,4B,Read Transaction,01*
0,4355,0:27.116.532,70.200 us,2 B,,SP,4B,Write Transaction,82 01
0,4356,0:27.116.604,325.200 us,11 B,,SP,4B,Read Transaction,01 30 91 65 01 5F 00 66 00 00 00*
0,4357,0:27.132.990,70.100 us,2 B,,SP,4B,Write Transaction,82 01
0,4358,0:27.133.062,49.700 us,1 B,,SP,4B,Read Transaction,01*
0,4359,0:27.133.113,70.200 us,2 B,,SP,4B,Write Transaction,82 01
0,4360,0:27.133.184,325.100 us,11 B,,SP,4B,Read Transaction,01 30 91 6B 01 62 00 6B 00 00 00*
0,4361,0:27.149.398,70.100 us,2 B,,SP,4B,Write Transaction,82 01
0,4362,0:27.149.469,49.800 us,1 B,,SP,4B,Read Transaction,01*
0,4363,0:27.149.520,70.100 us,2 B,,SP,4B,Write Transaction,82 01
0,4364,0:27.149.592,325.300 us,11 B,,SP,4B,Read Transaction,01 30 91 70 01 65 00 6B 00 00 00*
0,4365,0:27.165.892,70.100 us,2 B,,SP,4B,Write Transaction,82 01
0,4366,0:27.165.964,49.800 us,1 B,,SP,4B,Read Transaction,01*
0,4367,0:27.166.015,70.100 us,2 B,,SP,4B,Write Transaction,82 01
0,4368,0:27.166.086,325.400 us,11 B,,SP,4B,Read Transaction,01 30 91 76 01 68 00 6B 00 00 00*
0,4369,0:27.182.383,70.200 us,2 B,,SP,4B,Write Transaction,82 01
0,4370,0:27.182.454,49.800 us,1 B,,SP,4B,Read Transaction,01*
0,4371,0:27.182.506,70.100 us,2 B,,SP,4B,Write Transaction,82 01
0,4372,0:27.182.577,325.300 us,11 B,,SP,4B,Read Transaction,01 30 91 7B 01 6A 00 6B 00 00 00*
0,4373,0:27.198.848,70.200 us,2 B,,SP,4B,Write Transaction,82 01
0,4374,0:27.198.920,49.800 us,1 B,,SP,4B,Read Transaction,01*
0,4375,0:27.198.971,70.200 us,2 B,,SP,4B,Write Transaction,82 01
0,4376,0:27.199.042,324.700 us,11 B,,SP,4B,Read Transaction,01 30 91 80 01 6D 00 6B 00 00 00*
0,4377,0:27.215.315,70.100 us,2 B,,SP,4B,Write Transaction,82 01
0,4378,0:27.215.387,49.800 us,1 B,,SP,4B,Read Transaction,01*
0,4379,0:27.215.438,70.100 us,2 B,,SP,4B,Write Transaction,82 01
0,4380,0:27.215.509,325.200 us,11 B,,SP,4B,Read Transaction,01 30 91 85 01 70 00 6B 00 00 00*
0,4381,0:27.231.778,70.100 us,2 B,,SP,4B,Write Transaction,82 01
0,4382,0:27.231.850,49.800 us,1 B,,SP,4B,Read Transaction,01*
0,4383,0:27.231.901,70.100 us,2 B,,SP,4B,Write Transaction,82 01
0,4384,0:27.231.972,325.100 us,11 B,,SP,4B,Read Transaction,01 30 91 8A 01 72 00 6B 00 00 00*
0,4385,0:27.248.272,70.200 us,2 B,,SP,4B,Write Transaction,82 01
0,4386,0:27.248.343,49.700 us,1 B,,SP,4B,Read Transaction,01*
0,4387,0:27.248.394,70.100 us,2 B,,SP,4B,Write Transaction,82 01
0,4388,0:27.248.466,325.100 us,11 B,,SP,4B,Read Transaction,01 30 91 8E 01 75 00 6B 00 00 00*
0,4389,0:27.266.369,70.200 us,2 B,,SP,4B,Write Transaction,82 01
0,4390,0:27.266.440,49.700 us,1 B,,SP,4B,Read Transaction,01*
0,4391,0:27.266.491,70.200 us,2 B,,SP,4B,Write Transaction,82 01
0,4392,0:27.266.563,325.400 us,11 B,,SP,4B,Read Transaction,01 30 91 93 01 78 00 6B 00 00 00*
0,4393,0:27.282.894,70.100 us,2 B,,SP,4B,Write Transaction,82 01
0,4394,0:27.282.965,49.800 us,1 B,,SP,4B,Read Transaction,01*
0,4395,0:27.283.017,70.200 us,2 B,,SP,4B,Write Transaction,82 01
0,4396,0:27.283.088,325.400 us,11 B,,SP,4B,Read Transaction,01 30 91 98 01 7A 00 6B 00 00 00*
0,4397,0:27.299.404,70.100 us,2 B,,SP,4B,Write Transaction,82 01
0,4398,0:27.299.475,49.800 us,1 B,,SP,4B,Read Transaction,01*
0,4399,0:27.299.527,70.100 us,2 B,,SP,4B,Write Transaction,82 01
0,4400,0:27.299.598,325.000 us,11 B,,SP,4B,Read Transaction,01 30 91 9D 01 7E 00 6B 00 00 00*
0,4401,0:27.315.000,70.200 us,2 B,,SP,4B,Write Transaction,82 01
0,4402,0:27.315.072,49.700 us,1 B,,SP,4B,Read Transaction,01*
0,4403,0:27.315.123,70.100 us,2 B,,SP,4B,Write Transaction,82 01
0,4404,0:27.315.194,318.500 us,11 B,,SP,4B,Read Transaction,01 29 12 02 06 01 00 16 00 00 00*
0,4405,0:27.316.040,70.100 us,2 B,,SP,4B,Write Transaction,82 01
0,4406,0:27.316.112,49.800 us,1 B,,SP,4B,Read Transaction,01*
0,4407,0:27.316.163,70.100 us,2 B,,SP,4B,Write Transaction,82 01
0,4408,0:27.316.234,325.000 us,11 B,,SP,4B,Read Transaction,01 30 91 A2 01 82 00 6B 00 00 00*
0,4409,0:27.332.536,70.100 us,2 B,,SP,4B,Write Transaction,82 01
0,4410,0:27.332.607,49.800 us,1 B,,SP,4B,Read Transaction,01*
0,4411,0:27.332.658,70.100 us,2 B,,SP,4B,Write Transaction,82 01
0,4412,0:27.332.730,325.400 us,11 B,,SP,4B,Read Transaction,01 30 91 A7 01 85 00 6B 00 00 00*
0,4413,0:27.348.937,70.100 us,2 B,,SP,4B,Write Transaction,82 01
0,4414,0:27.349.008,49.800 us,1 B,,SP,4B,Read Transaction,01*
0,4415,0:27.349.059,70.100 us,2 B,,SP,4B,Write Transaction,82 01
0,4416,0:27.349.131,325.200 us,11 B,,SP,4B,Read Transaction,01 30 91 AC 01 88 00 6B 00 00 00*
0,4417,0:27.365.434,70.100 us,2 B,,SP,4B,Write Transaction,82 01
0,4418,0:27.365.505,49.800 us,1 B,,SP,4B,Read Transaction,01*
0,4419,0:27.365.556,70.100 us,2 B,,SP,4B,Write Transaction,82 01
0,4420,0:27.365.628,325.200 us,11 B,,SP,4B,Read Transaction,01 30 91 B0 01 8B 00 6B 00 00 00*
0,4421,0:27.381.930,70.200 us,2 B,,SP,4B,Write Transaction,82 01
0,4422,0:27.382.001,49.900 us,1 B,,SP,4B,Read Transaction,01*
0,4423,0:27.382.052,70.100 us,2 B,,SP,4B,Write Transaction,82 01
0,4424,0:27.382.124,325.300 us,11 B,,SP,4B,Read Transaction,01 30 91 B4 01 8E 00 6B 00 00 00*
0,4425,0:27.398.420,70.100 us,2 B,,SP,4B,Write Transaction,82 01
0,4426,0:27.398.491,49.800 us,1 B,,SP,4B,Read Transaction,01*
0,4427,0:27.398.542,70.100 us,2 B,,SP,4B,Write Transaction,82 01
0,4428,0:27.398.614,325.400 us,11 B,,SP,4B,Read Transaction,01 30 91 B9 01 91 00 6B 00 00 00*
0,4429,0:27.414.915,70.200 us,2 B,,SP,4B,Write Transaction,82 01
0,4430,0:27.414.986,49.700 us,1 B,,SP,4B,Read Transaction,01*
0,4431,0:27.415.037,70.200 us,2 B,,SP,4B,Write Transaction,82 01
0,4432,0:27.415.109,325.300 us,11 B,,SP,4B,Read Transaction,01 30 91 BF 01 95 00 6B 00 00 00*
0,4433,0:27.433.000,70.100 us,2 B,,SP,4B,Write Transaction,82 01
0,4434,0:27.433.072,49.700 us,1 B,,SP,4B,Read Transaction,01*
0,4435,0:27.433.123,70.200 us,2 B,,SP,4B,Write Transaction,82 01
0,4436,0:27.433.194,325.100 us,11 B,,SP,4B,Read Transaction,01 30 91 C4 01 98 00 6B 00 00 00*
0,4437,0:27.449.524,70.100 us,2 B,,SP,4B,Write Transaction,82 01
0,4438,0:27.449.596,49.800 us,1 B,,SP,4B,Read Transaction,01*
0,4439,0:27.449.647,70.100 us,2 B,,SP,4B,Write Transaction,82 01
0,4440,0:27.449.718,325.300 us,11 B,,SP,4B,Read Transaction,01 30 91 C9 01 9B 00 70 00 00 00*
0,4441,0:27.466.019,70.100 us,2 B,,SP,4B,Write Transaction,82 01
0,4442,0:27.466.090,49.800 us,1 B,,SP,4B,Read Transaction,01*
0,4443,0:27.466.142,70.100 us,2 B,,SP,4B,Write Transaction,82 01
0,4444,0:27.466.213,325.100 us,11 B,,SP,4B,Read Transaction,01 30 91 CE 01 9E 00 70 00 00 00*
0,4445,0:27.482.507,70.100 us,2 B,,SP,4B,Write Transaction,82 01
0,4446,0:27.482.578,49.800 us,1 B,,SP,4B,Read Transaction,01*
0,4447,0:27.482.629,70.100 us,2 B,,SP,4B,Write Transaction,82 01
0,4448,0:27.482.701,325.200 us,11 B,,SP,4B,Read Transaction,01 30 91 D3 01 A1 00 70 00 00 00*
0,4449,0:27.498.973,70.100 us,2 B,,SP,4B,Write Transaction,82 01
0,4450,0:27.499.045,49.800 us,1 B,,SP,4B,Read Transaction,01*
0,4451,0:27.499.096,70.100 us,2 B,,SP,4B,Write Transaction,82 01
0,4452,0:27.499.167,325.400 us,11 B,,SP,4B,Read Transaction,01 30 91 D7 01 A4 00 70 00 00 00*
0,4453,0:27.515.551,70.100 us,2 B,,SP,4B,Write Transaction,82 01
0,4454,0:27.515.622,49.800 us,1 B,,SP,4B,Read Transaction,01*
0,4455,0:27.515.674,70.100 us,2 B,,SP,4B,Write Transaction,82 01
0,4456,0:27.515.745,325.100 us,11 B,,SP,4B,Read Transaction,01 30 91 DB 01 A6 00 70 00 00 00*
0,4457,0:27.531.933,70.100 us,2 B,,SP,4B,Write Transaction,82 01
0,4458,0:27.532.004,49.800 us,1 B,,SP,4B,Read Transaction,01*
0,4459,0:27.532.055,70.100 us,2 B,,SP,4B,Write Transaction,82 01
0,4460,0:27.532.127,325.100 us,11 B,,SP,4B,Read Transaction,01 30 91 DF 01 A9 00 70 00 00 00*
0,4461,0:27.548.444,70.100 us,2 B,,SP,4B,Write Transaction,82 01
0,4462,0:27.548.515,49.800 us,1 B,,SP,4B,Read Transaction,01*
0,4463,0:27.548.566,70.100 us,2 B,,SP,4B,Write Transaction,82 01
0,4464,0:27.548.637,325.100 us,11 B,,SP,4B,Read Transaction,01 30 91 E2 01 AC 00 70 00 00 00*
0,4465,0:27.564.937,70.200 us,2 B,,SP,4B,Write Transaction,82 01
0,4466,0:27.565.009,49.700 us,1 B,,SP,4B,Read Transaction,01*
0,4467,0:27.565.060,70.200 us,2 B,,SP,4B,Write Transaction,82 01
0,4468,0:27.565.131,324.900 us,11 B,,SP,4B,Read Transaction,01 30 91 E6 01 AF 00 70 00 00 00*
0,4469,0:27.581.402,70.200 us,2 B,,SP,4B,Write Transaction,82 01
0,4470,0:27.581.473,49.800 us,1 B,,SP,4B,Read Transaction,01*
0,4471,0:27.581.524,70.200 us,2 B,,SP,4B,Write Transaction,82 01
0,4472,0:27.581.596,325.400 us,11 B,,SP,4B,Read Transaction,01 30 91 EB 01 B2 00 70 00 00 00*
0,4473,0:27.599.555,70.100 us,2 B,,SP,4B,Write Transaction,82 01
0,4474,0:27.599.626,49.700 us,1 B,,SP,4B,Read Transaction,01*
0,4475,0:27.599.677,70.200 us,2 B,,SP,4B,Write Transaction,82 01
0,4476,0:27.599.749,325.000 us,11 B,,SP,4B,Read Transaction,01 30 91 EF 01 B5 00 70 00 00 00*
0,4477,0:27.616.079,70.100 us,2 B,,SP,4B,Write Transaction,82 01
0,4478,0:27.616.150,49.800 us,1 B,,SP,4B,Read Transaction,01*
0,4479,0:27.616.201,70.100 us,2 B,,SP,4B,Write Transaction,82 01
0,4480,0:27.616.272,325.100 us,11 B,,SP,4B,Read Transaction,01 30 91 F3 01 B8 00 70 00 00 00*
0,4481,0:27.632.568,70.100 us,2 B,,SP,4B,Write Transaction,82 01
0,4482,0:27.632.640,49.800 us,1 B,,SP,4B,Read Transaction,01*
0,4483,0:27.632.691,70.100 us,2 B,,SP,4B,Write Transaction,82 01
0,4484,0:27.632.762,325.200 us,11 B,,SP,4B,Read Transaction,01 30 91 F7 01 BC 00 70 00 00 00*
0,4485,0:27.649.070,70.200 us,2 B,,SP,4B,Write Transaction,82 01
0,4486,0:27.649.142,49.800 us,1 B,,SP,4B,Read Transaction,01*
0,4487,0:27.649.193,70.100 us,2 B,,SP,4B,Write Transaction,82 01
0,4488,0:27.649.264,325.200 us,11 B,,SP,4B,Read Transaction,01 30 91 FB 01 BF 00 70 00 00 00*
0,4489,0:27.665.536,70.100 us,2 B,,SP,4B,Write Transaction,82 01
0,4490,0:27.665.607,49.800 us,1 B,,SP,4B,Read Transaction,01*
0,4491,0:27.665.659,70.100 us,2 B,,SP,4B,Write Transaction,82 01
0,4492,0:27.665.730,325.100 us,11 B,,SP,4B,Read Transaction,01 30 91 FF 01 C2 00 70 00 00 00*
0,4493,0:27.682.032,70.100 us,2 B,,SP,4B,Write Transaction,82 01
0,4494,0:27.682.103,49.800 us,1 B,,SP,4B,Read Transaction,01*
0,4495,0:27.682.154,70.100 us,2 B,,SP,4B,Write Transaction,82 01
0,4496,0:27.682.226,325.300 us,11 B,,SP,4B,Read Transaction,01 30 91 03 02 C6 00 70 00 00 00*
0,4497,0:27.698.526,70.100 us,2 B,,SP,4B,Write Transaction,82 01
0,4498,0:27.698.597,49.800 us,1 B,,SP,4B,Read Transaction,01*
0,4499,0:27.698.648,70.100 us,2 B,,SP,4B,Write Transaction,82 01
0,4500,0:27.698.720,325.100 us,11 B,,SP,4B,Read Transaction,01 30 91 07 02 CA 00 70 00 00 00*
0,4501,0:27.715.129,70.100 us,2 B,,SP,4B,Write Transaction,82 01
0,4502,0:27.715.201,49.800 us,1 B,,SP,4B,Read Transaction,01*
0,4503,0:27.715.252,70.100 us,2 B,,SP,4B,Write Transaction,82 01
0,4504,0:27.715.323,325.200 us,11 B,,SP,4B,Read Transaction,01 30 91 0B 02 CD 00 70 00 00 00*
0,4505,0:27.731.513,70.100 us,2 B,,SP,4B,Write Transaction,82 01
0,4506,0:27.731.584,49.800 us,1 B,,SP,4B,Read Transaction,01*
0,4507,0:27.731.635,70.100 us,2 B,,SP,4B,Write Transaction,82 01
0,4508,0:27.731.707,325.400 us,11 B,,SP,4B,Read Transaction,01 30 91 0F 02 D1 00 70 00 00 00*
0,4509,0:27.748.011,70.100 us,2 B,,SP,4B,Write Transaction,82 01
0,4510,0:27.748.082,49.800 us,1 B,,SP,4B,Read Transaction,01*
0,4511,0:27.748.133,70.100 us,2 B,,SP,4B,Write Transaction,82 01
0,4512,0:27.748.205,325.100 us,11 B,,SP,4B,Read Transaction,01 30 91 14 02 D5 00 70 00 00 00*
0,4513,0:27.766.078,70.100 us,2 B,,SP,4B,Write Transaction,82 01
0,4514,0:27.766.149,49.800 us,1 B,,SP,4B,Read Transaction,01*
0,4515,0:27.766.200,70.100 us,2 B,,SP,4B,Write Transaction,82 01
0,4516,0:27.766.272,325.200 us,11 B,,SP,4B,Read Transaction,01 30 91 18 02 D8 00 6B 00 00 00*
0,4517,0:27.782.605,70.100 us,2 B,,SP,4B,Write Transaction,82 01
0,4518,0:27.782.676,49.800 us,1 B,,SP,4B,Read Transaction,01*
0,4519,0:27.782.727,70.100 us,2 B,,SP,4B,Write Transaction,82 01
0,4520,0:27.782.799,325.300 us,11 B,,SP,4B,Read Transaction,01 30 91 1C 02 DB 00 6B 00 00 00*
0,4521,0:27.799.076,70.200 us,2 B,,SP,4B,Write Transaction,82 01
0,4522,0:27.799.147,49.800 us,1 B,,SP,4B,Read Transaction,01*
0,4523,0:27.799.198,70.200 us,2 B,,SP,4B,Write Transaction,82 01
0,4524,0:27.799.270,325.400 us,11 B,,SP,4B,Read Transaction,01 30 91 20 02 DF 00 6B 00 00 00*
0,4525,0:27.815.547,70.200 us,2 B,,SP,4B,Write Transaction,82 01
0,4526,0:27.815.619,49.700 us,1 B,,SP,4B,Read Transaction,01*
0,4527,0:27.815.670,70.200 us,2 B,,SP,4B,Write Transaction,82 01
0,4528,0:27.815.741,325.200 us,11 B,,SP,4B,Read Transaction,01 30 91 24 02 E2 00 6B 00 00 00*
0,4529,0:27.832.041,70.200 us,2 B,,SP,4B,Write Transaction,82 01
0,4530,0:27.832.113,49.800 us,1 B,,SP,4B,Read Transaction,01*
0,4531,0:27.832.164,70.200 us,2 B,,SP,4B,Write Transaction,82 01
0,4532,0:27.832.235,325.400 us,11 B,,SP,4B,Read Transaction,01 30 91 28 02 E5 00 6B 00 00 00*
0,4533,0:27.848.534,70.100 us,2 B,,SP,4B,Write Transaction,82 01
0,4534,0:27.848.606,49.800 us,1 B,,SP,4B,Read Transaction,01*
0,4535,0:27.848.657,70.100 us,2 B,,SP,4B,Write Transaction,82 01
0,4536,0:27.848.728,325.100 us,11 B,,SP,4B,Read Transaction,01 30 91 2C 02 E8 00 6B 00 00 00*
0,4537,0:27.864.998,70.100 us,2 B,,SP,4B,Write Transaction,82 01
0,4538,0:27.865.070,49.800 us,1 B,,SP,4B,Read Transaction,01*
0,4539,0:27.865.121,70.100 us,2 B,,SP,4B,Write Transaction,82 01
0,4540,0:27.865.192,325.500 us,11 B,,SP,4B,Read Transaction,01 30 91 30 02 EA 00 6B 00 00 00*
0,4541,0:27.881.464,70.100 us,2 B,,SP,4B,Write Transaction,82 01
0,4542,0:27.881.535,49.800 us,1 B,,SP,4B,Read Transaction,01*
0,4543,0:27.881.586,70.100 us,2 B,,SP,4B,Write Transaction,82 01
0,4544,0:27.881.658,325.400 us,11 B,,SP,4B,Read Transaction,01 30 91 34 02 ED 00 6B 00 00 00*
0,4545,0:27.897.929,70.100 us,2 B,,SP,4B,Write Transaction,82 01
0,4546,0:27.898.001,49.800 us,1 B,,SP,4B,Read Transaction,01*
0,4547,0:27.898.052,70.100 us,2 B,,SP,4B,Write Transaction,82 01
0,4548,0:27.898.123,325.200 us,11 B,,SP,4B,Read Transaction,01 30 91 38 02 F1 00 6B 00 00 00*
0,4549,0:27.914.516,70.100 us,2 B,,SP,4B,Write Transaction,82 01
0,4550,0:27.914.587,49.800 us,1 B,,SP,4B,Read Transaction,01*
0,4551,0:27.914.638,70.100 us,2 B,,SP,4B,Write Transaction,82 01
0,4552,0:27.914.710,325.300 us,11 B,,SP,4B,Read Transaction,01 30 91 3C 02 F4 00 6B 00 00 00*
0,4553,0:27.932.487,70.200 us,2 B,,SP,4B,Write Transaction,82 01
0,4554,0:27.932.559,49.800 us,1 B,,SP,4B,Read Transaction,01*
0,4555,0:27.932.610,70.200 us,2 B,,SP,4B,Write Transaction,82 01
0,4556,0:27.932.681,325.400 us,11 B,,SP,4B,Read Transaction,01 30 91 3F 02 F7 00 6B 00 00 00*
0,4557,0:27.949.012,70.200 us,2 B,,SP,4B,Write Transaction,82 01
0,4558,0:27.949.083,49.700 us,1 B,,SP,4B,Read Transaction,01*
0,4559,0:27.949.134,70.100 us,2 B,,SP,4B,Write Transaction,82 01
0,4560,0:27.949.206,325.000 us,11 B,,SP,4B,Read Transaction,01 30 91 43 02 FA 00 6B 00 00 00*
0,4561,0:27.965.505,70.100 us,2 B,,SP,4B,Write Transaction,82 01
0,4562,0:27.965.577,49.800 us,1 B,,SP,4B,Read Transaction,01*
0,4563,0:27.965.628,70.100 us,2 B,,SP,4B,Write Transaction,82 01
0,4564,0:27.965.699,325.400 us,11 B,,SP,4B,Read Transaction,01 30 91 47 02 FD 00 6B 00 00 00*
0,4565,0:27.982.002,70.100 us,2 B,,SP,4B,Write Transaction,82 01
0,4566,0:27.982.073,49.800 us,1 B,,SP,4B,Read Transaction,01*
0,4567,0:27.982.124,70.100 us,2 B,,SP,4B,Write Transaction,82 01
0,4568,0:27.982.196,325.100 us,11 B,,SP,4B,Read Transaction,01 30 91 4A 02 01 01 6B 00 00 00*
0,4569,0:27.998.510,70.100 us,2 B,,SP,4B,Write Transaction,82 01
0,4570,0:27.998.582,49.700 us,1 B,,SP,4B,Read Transaction,01*
0,4571,0:27.998.633,70.100 us,2 B,,SP,4B,Write Transaction,82 01
0,4572,0:27.998.704,325.200 us,11 B,,SP,4B,Read Transaction,01 30 91 4E 02 05 01 6B 00 00 00*
0,4573,0:28.014.990,70.100 us,2 B,,SP,4B,Write Transaction,82 01
0,4574,0:28.015.062,49.800 us,1 B,,SP,4B,Read Transaction,01*
0,4575,0:28.015.113,70.100 us,2 B,,SP,4B,Write Transaction,82 01
0,4576,0:28.015.184,324.900 us,11 B,,SP,4B,Read Transaction,01 30 91 52 02 08 01 6B 00 00 00*
0,4577,0:28.031.482,70.200 us,2 B,,SP,4B,Write Transaction,82 01
0,4578,0:28.031.554,49.800 us,1 B,,SP,4B,Read Transaction,01*
0,4579,0:28.031.605,70.200 us,2 B,,SP,4B,Write Transaction,82 01
0,4580,0:28.031.676,325.100 us,11 B,,SP,4B,Read Transaction,01 30 91 55 02 0C 01 6B 00 00 00*
0,4581,0:28.047.972,70.100 us,2 B,,SP,4B,Write Transaction,82 01
0,4582,0:28.048.043,49.800 us,1 B,,SP,4B,Read Transaction,01*
0,4583,0:28.048.094,70.200 us,2 B,,SP,4B,Write Transaction,82 01
0,4584,0:28.048.165,325.400 us,11 B,,SP,4B,Read Transaction,01 30 91 58 02 10 01 70 00 00 00*
0,4585,0:28.064.435,70.100 us,2 B,,SP,4B,Write Transaction,82 01
0,4586,0:28.064.507,49.800 us,1 B,,SP,4B,Read Transaction,01*
0,4587,0:28.064.558,70.100 us,2 B,,SP,4B,Write Transaction,82 01
0,4588,0:28.064.629,325.300 us,11 B,,SP,4B,Read Transaction,01 30 91 5C 02 15 01 70 00 00 00*
0,4589,0:28.080.929,70.100 us,2 B,,SP,4B,Write Transaction,82 01
0,4590,0:28.081.000,49.800 us,1 B,,SP,4B,Read Transaction,01*
0,4591,0:28.081.051,70.100 us,2 B,,SP,4B,Write Transaction,82 01
0,4592,0:28.081.123,325.100 us,11 B,,SP,4B,Read Transaction,01 30 91 5F 02 18 01 70 00 00 00*
0,4593,0:28.098.993,70.100 us,2 B,,SP,4B,Write Transaction,82 01
0,4594,0:28.099.064,49.700 us,1 B,,SP,4B,Read Transaction,01*
0,4595,0:28.099.115,70.200 us,2 B,,SP,4B,Write Transaction,82 01
0,4596,0:28.099.186,325.300 us,11 B,,SP,4B,Read Transaction,01 30 91 63 02 1D 01 70 00 00 00*
0,4597,0:28.115.610,70.100 us,2 B,,SP,4B,Write Transaction,82 01
0,4598,0:28.115.681,49.800 us,1 B,,SP,4B,Read Transaction,01*
0,4599,0:28.115.733,70.100 us,2 B,,SP,4B,Write Transaction,82 01
0,4600,0:28.115.804,325.200 us,11 B,,SP,4B,Read Transaction,01 30 91 66 02 20 01 70 00 00 00*
0,4601,0:28.132.017,70.100 us,2 B,,SP,4B,Write Transaction,82 01
0,4602,0:28.132.088,49.800 us,1 B,,SP,4B,Read Transaction,01*
0,4603,0:28.132.140,70.100 us,2 B,,SP,4B,Write Transaction,82 01
0,4604,0:28.132.211,325.000 us,11 B,,SP,4B,Read Transaction,01 30 91 69 02 25 01 70 00 00 00*
0,4605,0:28.148.509,70.100 us,2 B,,SP,4B,Write Transaction,82 01
0,4606,0:28.148.580,49.800 us,1 B,,SP,4B,Read Transaction,01*
0,4607,0:28.148.632,70.100 us,2 B,,SP,4B,Write Transaction,82 01
0,4608,0:28.148.703,325.500 us,11 B,,SP,4B,Read Transaction,01 30 91 6C 02 29 01 70 00 00 00*
0,4609,0:28.165.003,70.200 us,2 B,,SP,4B,Write Transaction,82 01
0,4610,0:28.165.075,49.700 us,1 B,,SP,4B,Read Transaction,01*
0,4611,0:28.165.126,70.200 us,2 B,,SP,4B,Write Transaction,82 01
0,4612,0:28.165.197,325.000 us,11 B,,SP,4B,Read Transaction,01 30 91 6F 02 2D 01 70 00 00 00*
0,4613,0:28.181.469,70.100 us,2 B,,SP,4B,Write Transaction,82 01
0,4614,0:28.181.540,49.800 us,1 B,,SP,4B,Read Transaction,01*
0,4615,0:28.181.592,70.100 us,2 B,,SP,4B,Write Transaction,82 01
0,4616,0:28.181.663,325.300 us,11 B,,SP,4B,Read Transaction,01 30 91 73 02 32 01 70 00 00 00*
0,4617,0:28.197.964,70.200 us,2 B,,SP,4B,Write Transaction,82 01
0,4618,0:28.198.035,49.800 us,1 B,,SP,4B,Read Transaction,01*
0,4619,0:28.198.086,70.100 us,2 B,,SP,4B,Write Transaction,82 01
0,4620,0:28.198.158,325.200 us,11 B,,SP,4B,Read Transaction,01 30 91 76 02 35 01 70 00 00 00*
0,4621,0:28.214.431,70.100 us,2 B,,SP,4B,Write Transaction,82 01
0,4622,0:28.214.502,49.800 us,1 B,,SP,4B,Read Transaction,01*
0,4623,0:28.214.553,70.100 us,2 B,,SP,4B,Write Transaction,82 01
0,4624,0:28.214.624,325.100 us,11 B,,SP,4B,Read Transaction,01 30 91 7A 02 3A 01 70 00 00 00*
0,4625,0:28.230.928,70.100 us,2 B,,SP,4B,Write Transaction,82 01
0,4626,0:28.231.000,49.800 us,1 B,,SP,4B,Read Transaction,01*
0,4627,0:28.231.051,70.100 us,2 B,,SP,4B,Write Transaction,82 01
0,4628,0:28.231.122,325.400 us,11 B,,SP,4B,Read Transaction,01 30 91 7D 02 3E 01 70 00 00 00*
0,4629,0:28.247.396,70.100 us,2 B,,SP,4B,Write Transaction,82 01
0,4630,0:28.247.467,49.700 us,1 B,,SP,4B,Read Transaction,01*
0,4631,0:28.247.518,70.100 us,2 B,,SP,4B,Write Transaction,82 01
0,4632,0:28.247.590,325.100 us,11 B,,SP,4B,Read Transaction,01 30 91 80 02 42 01 70 00 00 00*
0,4633,0:28.265.474,70.100 us,2 B,,SP,4B,Write Transaction,82 01
0,4634,0:28.265.545,49.800 us,1 B,,SP,4B,Read Transaction,01*
0,4635,0:28.265.596,70.100 us,2 B,,SP,4B,Write Transaction,82 01
0,4636,0:28.265.667,325.100 us,11 B,,SP,4B,Read Transaction,01 30 91 83 02 46 01 70 00 00 00*
0,4637,0:28.281.971,70.100 us,2 B,,SP,4B,Write Transaction,82 01
0,4638,0:28.282.042,49.800 us,1 B,,SP,4B,Read Transaction,01*
0,4639,0:28.282.094,70.100 us,2 B,,SP,4B,Write Transaction,82 01
0,4640,0:28.282.165,325.300 us,11 B,,SP,4B,Read Transaction,01 30 91 86 02 4A 01 70 00 00 00*
0,4641,0:28.298.466,70.100 us,2 B,,SP,4B,Write Transaction,82 01
0,4642,0:28.298.537,49.800 us,1 B,,SP,4B,Read Transaction,01*
0,4643,0:28.298.588,70.100 us,2 B,,SP,4B,Write Transaction,82 01
0,4644,0:28.298.660,324.800 us,11 B,,SP,4B,Read Transaction,01 30 91 8B 02 4F 01 70 00 00 00*
0,4645,0:28.315.059,70.200 us,2 B,,SP,4B,Write Transaction,82 01
0,4646,0:28.315.131,49.700 us,1 B,,SP,4B,Read Transaction,01*
0,4647,0:28.315.182,70.200 us,2 B,,SP,4B,Write Transaction,82 01
0,4648,0:28.315.253,325.200 us,11 B,,SP,4B,Read Transaction,01 30 91 8F 02 54 01 70 00 00 00*
0,4649,0:28.331.483,70.100 us,2 B,,SP,4B,Write Transaction,82 01
0,4650,0:28.331.554,49.800 us,1 B,,SP,4B,Read Transaction,01*
0,4651,0:28.331.605,70.100 us,2 B,,SP,4B,Write Transaction,82 01
0,4652,0:28.331.676,325.300 us,11 B,,SP,4B,Read Transaction,01 30 91 94 02 58 01 70 00 00 00*
0,4653,0:28.347.980,70.200 us,2 B,,SP,4B,Write Transaction,82 01
0,4654,0:28.348.051,49.800 us,1 B,,SP,4B,Read Transaction,01*
0,4655,0:28.348.103,70.200 us,2 B,,SP,4B,Write Transaction,82 01
0,4656,0:28.348.174,325.300 us,11 B,,SP,4B,Read Transaction,01 30 91 98 02 5D 01 70 00 00 00*
0,4657,0:28.364.479,70.100 us,2 B,,SP,4B,Write Transaction,82 01
0,4658,0:28.364.550,49.800 us,1 B,,SP,4B,Read Transaction,01*
0,4659,0:28.364.601,70.100 us,2 B,,SP,4B,Write Transaction,82 01
0,4660,0:28.364.673,325.300 us,11 B,,SP,4B,Read Transaction,01 30 91 9D 02 62 01 70 00 00 00*
0,4661,0:28.380.984,70.200 us,2 B,,SP,4B,Write Transaction,82 01
0,4662,0:28.381.055,49.800 us,1 B,,SP,4B,Read Transaction,01*
0,4663,0:28.381.106,70.200 us,2 B,,SP,4B,Write Transaction,82 01
0,4664,0:28.381.178,325.300 us,11 B,,SP,4B,Read Transaction,01 30 91 A2 02 67 01 70 00 00 00*
0,4665,0:28.397.453,70.100 us,2 B,,SP,4B,Write Transaction,82 01
0,4666,0:28.397.524,49.800 us,1 B,,SP,4B,Read Transaction,01*
0,4667,0:28.397.575,70.100 us,2 B,,SP,4B,Write Transaction,82 01
0,4668,0:28.397.646,325.700 us,11 B,,SP,4B,Read Transaction,01 30 91 A6 02 6B 01 70 00 00 00*
0,4669,0:28.413.947,70.100 us,2 B,,SP,4B,Write Transaction,82 01
0,4670,0:28.414.019,49.800 us,1 B,,SP,4B,Read Transaction,01*
0,4671,0:28.414.070,70.100 us,2 B,,SP,4B,Write Transaction,82 01
0,4672,0:28.414.141,325.300 us,11 B,,SP,4B,Read Transaction,01 30 91 AB 02 70 01 70 00 00 00*
0,4673,0:28.432.078,70.200 us,2 B,,SP,4B,Write Transaction,82 01
0,4674,0:28.432.150,49.700 us,1 B,,SP,4B,Read Transaction,01*
0,4675,0:28.432.201,70.200 us,2 B,,SP,4B,Write Transaction,82 01
0,4676,0:28.432.272,325.300 us,11 B,,SP,4B,Read Transaction,01 30 91 AE 02 74 01 70 00 00 00*
0,4677,0:28.448.603,70.100 us,2 B,,SP,4B,Write Transaction,82 01
0,4678,0:28.448.674,49.700 us,1 B,,SP,4B,Read Transaction,01*
0,4679,0:28.448.725,70.200 us,2 B,,SP,4B,Write Transaction,82 01
0,4680,0:28.448.797,325.300 us,11 B,,SP,4B,Read Transaction,01 30 91 B2 02 78 01 70 00 00 00*
0,4681,0:28.465.073,70.100 us,2 B,,SP,4B,Write Transaction,82 01
0,4682,0:28.465.144,49.800 us,1 B,,SP,4B,Read Transaction,01*
0,4683,0:28.465.195,70.100 us,2 B,,SP,4B,Write Transaction,82 01
0,4684,0:28.465.267,325.200 us,11 B,,SP,4B,Read Transaction,01 30 91 B6 02 7D 01 70 00 00 00*
0,4685,0:28.481.569,70.100 us,2 B,,SP,4B,Write Transaction,82 01
0,4686,0:28.481.640,49.800 us,1 B,,SP,4B,Read Transaction,01*
0,4687,0:28.481.692,70.100 us,2 B,,SP,4B,Write Transaction,82 01
0,4688,0:28.481.763,325.300 us,11 B,,SP,4B,Read Transaction,01 30 91 BA 02 81 01 70 00 00 00*
0,4689,0:28.498.158,70.100 us,2 B,,SP,4B,Write Transaction,82 01
0,4690,0:28.498.230,49.800 us,1 B,,SP,4B,Read Transaction,01*
0,4691,0:28.498.281,70.100 us,2 B,,SP,4B,Write Transaction,82 01
0,4692,0:28.498.352,325.500 us,11 B,,SP,4B,Read Transaction,01 30 91 BD 02 85 01 70 00 00 00*
0,4693,0:28.514.561,70.100 us,2 B,,SP,4B,Write Transaction,82 01
0,4694,0:28.514.632,49.800 us,1 B,,SP,4B,Read Transaction,01*
0,4695,0:28.514.683,70.100 us,2 B,,SP,4B,Write Transaction,82 01
0,4696,0:28.514.755,325.400 us,11 B,,SP,4B,Read Transaction,01 30 91 C1 02 8A 01 70 00 00 00*
0,4697,0:28.531.058,70.200 us,2 B,,SP,4B,Write Transaction,82 01
0,4698,0:28.531.130,49.800 us,1 B,,SP,4B,Read Transaction,01*
0,4699,0:28.531.181,70.200 us,2 B,,SP,4B,Write Transaction,82 01
0,4700,0:28.531.252,325.100 us,11 B,,SP,4B,Read Transaction,01 30 91 C5 02 8E 01 70 00 00 00*
0,4701,0:28.547.528,70.100 us,2 B,,SP,4B,Write Transaction,82 01
0,4702,0:28.547.600,49.800 us,1 B,,SP,4B,Read Transaction,01*
0,4703,0:28.547.651,70.100 us,2 B,,SP,4B,Write Transaction,82 01
0,4704,0:28.547.722,325.300 us,11 B,,SP,4B,Read Transaction,01 30 91 C9 02 92 01 70 00 00 00*
0,4705,0:28.564.019,70.200 us,2 B,,SP,4B,Write Transaction,82 01
0,4706,0:28.564.091,49.700 us,1 B,,SP,4B,Read Transaction,01*
0,4707,0:28.564.142,70.200 us,2 B,,SP,4B,Write Transaction,82 01
0,4708,0:28.564.213,324.900 us,11 B,,SP,4B,Read Transaction,01 30 91 CD 02 97 01 70 00 00 00*
0,4709,0:28.580.521,70.100 us,2 B,,SP,4B,Write Transaction,82 01
0,4710,0:28.580.592,49.800 us,1 B,,SP,4B,Read Transaction,01*
0,4711,0:28.580.643,70.100 us,2 B,,SP,4B,Write Transaction,82 01
0,4712,0:28.580.715,325.200 us,11 B,,SP,4B,Read Transaction,01 30 91 D0 02 9C 01 70 00 00 00*
0,4713,0:28.598.588,70.200 us,2 B,,SP,4B,Write Transaction,82 01
0,4714,0:28.598.659,49.700 us,1 B,,SP,4B,Read Transaction,01*
0,4715,0:28.598.710,70.200 us,2 B,,SP,4B,Write Transaction,82 01
0,4716,0:28.598.782,324.900 us,11 B,,SP,4B,Read Transaction,01 30 91 D4 02 A0 01 70 00 00 00*
0,4717,0:28.615.115,70.100 us,2 B,,SP,4B,Write Transaction,82 01
0,4718,0:28.615.187,49.800 us,1 B,,SP,4B,Read Transaction,01*
0,4719,0:28.615.238,70.100 us,2 B,,SP,4B,Write Transaction,82 01
0,4720,0:28.615.309,325.200 us,11 B,,SP,4B,Read Transaction,01 30 91 D8 02 A5 01 6B 00 00 00*
0,4721,0:28.631.610,70.100 us,2 B,,SP,4B,Write Transaction,82 01
0,4722,0:28.631.681,49.800 us,1 B,,SP,4B,Read Transaction,01*
0,4723,0:28.631.732,70.100 us,2 B,,SP,4B,Write Transaction,82 01
0,4724,0:28.631.803,325.400 us,11 B,,SP,4B,Read Transaction,01 30 91 DC 02 AB 01 6B 00 00 00*
0,4725,0:28.648.116,70.100 us,2 B,,SP,4B,Write Transaction,82 01
0,4726,0:28.648.187,49.800 us,1 B,,SP,4B,Read Transaction,01*
0,4727,0:28.648.238,70.200 us,2 B,,SP,4B,Write Transaction,82 01
0,4728,0:28.648.310,325.000 us,11 B,,SP,4B,Read Transaction,01 30 91 E0 02 B0 01 6B 00 00 00*
0,4729,0:28.664.597,70.200 us,2 B,,SP,4B,Write Transaction,82 01
0,4730,0:28.664.669,49.800 us,1 B,,SP,4B,Read Transaction,01*
0,4731,0:28.664.720,70.200 us,2 B,,SP,4B,Write Transaction,82 01
0,4732,0:28.664.791,325.300 us,11 B,,SP,4B,Read Transaction,01 30 91 E5 02 B6 01 6B 00 00 00*
0,4733,0:28.681.067,70.100 us,2 B,,SP,4B,Write Transaction,82 01
0,4734,0:28.681.139,49.800 us,1 B,,SP,4B,Read Transaction,01*
0,4735,0:28.681.190,70.100 us,2 B,,SP,4B,Write Transaction,82 01
0,4736,0:28.681.261,325.300 us,11 B,,SP,4B,Read Transaction,01 30 91 E9 02 BB 01 6B 00 00 00*
0,4737,0:28.697.673,70.100 us,2 B,,SP,4B,Write Transaction,82 01
0,4738,0:28.697.744,49.800 us,1 B,,SP,4B,Read Transaction,01*
0,4739,0:28.697.795,70.100 us,2 B,,SP,4B,Write Transaction,82 01
0,4740,0:28.697.867,325.100 us,11 B,,SP,4B,Read Transaction,01 30 91 ED 02 C0 01 6B 00 00 00*
0,4741,0:28.714.060,70.200 us,2 B,,SP,4B,Write Transaction,82 01
0,4742,0:28.714.132,49.700 us,1 B,,SP,4B,Read Transaction,01*
0,4743,0:28.714.183,70.200 us,2 B,,SP,4B,Write Transaction,82 01
0,4744,0:28.714.254,325.100 us,11 B,,SP,4B,Read Transaction,01 30 91 F2 02 C6 01 6B 00 00 00*
0,4745,0:28.730.554,70.100 us,2 B,,SP,4B,Write Transaction,82 01
0,4746,0:28.730.625,49.800 us,1 B,,SP,4B,Read Transaction,01*
0,4747,0:28.730.677,70.100 us,2 B,,SP,4B,Write Transaction,82 01
0,4748,0:28.730.748,325.400 us,11 B,,SP,4B,Read Transaction,01 30 91 F7 02 CB 01 6B 00 00 00*
0,4749,0:28.747.022,70.100 us,2 B,,SP,4B,Write Transaction,82 01
0,4750,0:28.747.094,49.800 us,1 B,,SP,4B,Read Transaction,01*
0,4751,0:28.747.145,70.100 us,2 B,,SP,4B,Write Transaction,82 01
0,4752,0:28.747.216,325.300 us,11 B,,SP,4B,Read Transaction,01 30 91 FB 02 D0 01 6B 00 00 00*
0,4753,0:28.765.088,70.200 us,2 B,,SP,4B,Write Transaction,82 01
0,4754,0:28.765.159,49.800 us,1 B,,SP,4B,Read Transaction,01*
0,4755,0:28.765.210,70.100 us,2 B,,SP,4B,Write Transaction,82 01
0,4756,0:28.765.282,325.300 us,11 B,,SP,4B,Read Transaction,01 30 91 00 03 D5 01 6B 00 00 00*
0,4757,0:28.781.614,70.100 us,2 B,,SP,4B,Write Transaction,82 01
0,4758,0:28.781.685,49.800 us,1 B,,SP,4B,Read Transaction,01*
0,4759,0:28.781.736,70.100 us,2 B,,SP,4B,Write Transaction,82 01
0,4760,0:28.781.808,325.400 us,11 B,,SP,4B,Read Transaction,01 30 91 05 03 DA 01 70 00 00 00*
0,4761,0:28.798.112,70.100 us,2 B,,SP,4B,Write Transaction,82 01
0,4762,0:28.798.183,49.800 us,1 B,,SP,4B,Read Transaction,01*
0,4763,0:28.798.234,70.100 us,2 B,,SP,4B,Write Transaction,82 01
0,4764,0:28.798.306,325.200 us,11 B,,SP,4B,Read Transaction,01 30 91 09 03 DE 01 70 00 00 00*
0,4765,0:28.814.584,70.100 us,2 B,,SP,4B,Write Transaction,82 01
0,4766,0:28.814.655,49.800 us,1 B,,SP,4B,Read Transaction,01*
0,4767,0:28.814.706,70.100 us,2 B,,SP,4B,Write Transaction,82 01
0,4768,0:28.814.778,325.000 us,11 B,,SP,4B,Read Transaction,01 30 91 0D 03 E2 01 70 00 00 00*
0,4769,0:28.831.073,70.200 us,2 B,,SP,4B,Write Transaction,82 01
0,4770,0:28.831.145,49.800 us,1 B,,SP,4B,Read Transaction,01*
0,4771,0:28.831.196,70.200 us,2 B,,SP,4B,Write Transaction,82 01
0,4772,0:28.831.267,325.200 us,11 B,,SP,4B,Read Transaction,01 30 91 11 03 E7 01 70 00 00 00*
0,4773,0:28.847.563,70.100 us,2 B,,SP,4B,Write Transaction,82 01
0,4774,0:28.847.635,49.800 us,1 B,,SP,4B,Read Transaction,01*
0,4775,0:28.847.686,70.100 us,2 B,,SP,4B,Write Transaction,82 01
0,4776,0:28.847.757,325.300 us,11 B,,SP,4B,Read Transaction,01 30 91 15 03 EB 01 70 00 00 00*
0,4777,0:28.864.058,70.200 us,2 B,,SP,4B,Write Transaction,82 01
0,4778,0:28.864.129,49.900 us,1 B,,SP,4B,Read Transaction,01*
0,4779,0:28.864.181,70.100 us,2 B,,SP,4B,Write Transaction,82 01
0,4780,0:28.864.252,325.200 us,11 B,,SP,4B,Read Transaction,01 30 91 19 03 EF 01 70 00 00 00*
0,4781,0:28.880.524,70.100 us,2 B,,SP,4B,Write Transaction,82 01
0,4782,0:28.880.595,49.800 us,1 B,,SP,4B,Read Transaction,01*
0,4783,0:28.880.646,70.100 us,2 B,,SP,4B,Write Transaction,82 01
0,4784,0:28.880.718,324.800 us,11 B,,SP,4B,Read Transaction,01 30 91 1C 03 F3 01 70 00 00 00*
0,4785,0:28.897.116,70.100 us,2 B,,SP,4B,Write Transaction,82 01
0,4786,0:28.897.188,49.800 us,1 B,,SP,4B,Read Transaction,01*
0,4787,0:28.897.239,70.100 us,2 B,,SP,4B,Write Transaction,82 01
0,4788,0:28.897.310,325.200 us,11 B,,SP,4B,Read Transaction,01 30 91 20 03 F7 01 70 00 00 00*
0,4789,0:28.913.516,70.100 us,2 B,,SP,4B,Write Transaction,82 01
0,4790,0:28.913.587,49.800 us,1 B,,SP,4B,Read Transaction,01*
0,4791,0:28.913.638,70.100 us,2 B,,SP,4B,Write Transaction,82 01
0,4792,0:28.913.710,324.900 us,11 B,,SP,4B,Read Transaction,01 30 91 23 03 FA 01 70 00 00 00*
0,4793,0:28.931.582,70.100 us,2 B,,SP,4B,Write Transaction,82 01
0,4794,0:28.931.654,49.800 us,1 B,,SP,4B,Read Transaction,01*
0,4795,0:28.931.705,70.100 us,2 B,,SP,4B,Write Transaction,82 01
0,4796,0:28.931.776,325.300 us,11 B,,SP,4B,Read Transaction,01 30 91 26 03 FE 01 70 00 00 00*
0,4797,0:28.948.110,70.100 us,2 B,,SP,4B,Write Transaction,82 01
0,4798,0:28.948.181,49.800 us,1 B,,SP,4B,Read Transaction,01*
0,4799,0:28.948.232,70.100 us,2 B,,SP,4B,Write Transaction,82 01
0,4800,0:28.948.303,325.000 us,11 B,,SP,4B,Read Transaction,01 30 91 29 03 01 02 70 00 00 00*
0,4801,0:28.964.602,70.100 us,2 B,,SP,4B,Write Transaction,82 01
0,4802,0:28.964.674,49.800 us,1 B,,SP,4B,Read Transaction,01*
0,4803,0:28.964.725,70.100 us,2 B,,SP,4B,Write Transaction,82 01
0,4804,0:28.964.796,325.100 us,11 B,,SP,4B,Read Transaction,01 30 91 2C 03 05 02 70 00 00 00*
0,4805,0:28.981.096,70.100 us,2 B,,SP,4B,Write Transaction,82 01
0,4806,0:28.981.167,49.800 us,1 B,,SP,4B,Read Transaction,01*
0,4807,0:28.981.218,70.100 us,2 B,,SP,4B,Write Transaction,82 01
0,4808,0:28.981.290,325.100 us,11 B,,SP,4B,Read Transaction,01 30 91 2F 03 08 02 70 00 00 00*
0,4809,0:28.997.573,70.100 us,2 B,,SP,4B,Write Transaction,82 01
0,4810,0:28.997.645,49.800 us,1 B,,SP,4B,Read Transaction,01*
0,4811,0:28.997.696,70.100 us,2 B,,SP,4B,Write Transaction,82 01
0,4812,0:28.997.767,325.200 us,11 B,,SP,4B,Read Transaction,01 30 91 31 03 0B 02 70 00 00 00*
0,4813,0:29.014.040,70.100 us,2 B,,SP,4B,Write Transaction,82 01
0,4814,0:29.014.111,49.800 us,1 B,,SP,4B,Read Transaction,01*
0,4815,0:29.014.162,70.100 us,2 B,,SP,4B,Write Transaction,82 01
0,4816,0:29.014.234,325.200 us,11 B,,SP,4B,Read Transaction,01 30 91 34 03 0E 02 75 00 00 00*
0,4817,0:29.030.507,70.200 us,2 B,,SP,4B,Write Transaction,82 01
0,4818,0:29.030.578,49.800 us,1 B,,SP,4B,Read Transaction,01*
0,4819,0:29.030.629,70.200 us,2 B,,SP,4B,Write Transaction,82 01
0,4820,0:29.030.701,325.100 us,11 B,,SP,4B,Read Transaction,01 30 91 36 03 11 02 75 00 00 00*
0,4821,0:29.046.972,70.100 us,2 B,,SP,4B,Write Transaction,82 01
0,4822,0:29.047.043,49.800 us,1 B,,SP,4B,Read Transaction,01*
0,4823,0:29.047.094,70.200 us,2 B,,SP,4B,Write Transaction,82 01
0,4824,0:29.047.165,325.300 us,11 B,,SP,4B,Read Transaction,01 30 91 38 03 13 02 75 00 00 00*
0,4825,0:29.063.466,70.200 us,2 B,,SP,4B,Write Transaction,82 01
0,4826,0:29.063.538,49.800 us,1 B,,SP,4B,Read Transaction,01*
0,4827,0:29.063.589,70.100 us,2 B,,SP,4B,Write Transaction,82 01
0,4828,0:29.063.660,325.100 us,11 B,,SP,4B,Read Transaction,01 30 91 3A 03 16 02 75 00 00 00*
0,4829,0:29.079.960,70.100 us,2 B,,SP,4B,Write Transaction,82 01
0,4830,0:29.080.032,49.800 us,1 B,,SP,4B,Read Transaction,01*
0,4831,0:29.080.083,70.100 us,2 B,,SP,4B,Write Transaction,82 01
0,4832,0:29.080.154,325.100 us,11 B,,SP,4B,Read Transaction,01 30 91 3C 03 18 02 75 00 00 00*
0,4833,0:29.098.138,70.100 us,2 B,,SP,4B,Write Transaction,82 01
0,4834,0:29.098.209,49.800 us,1 B,,SP,4B,Read Transaction,01*
0,4835,0:29.098.260,70.100 us,2 B,,SP,4B,Write Transaction,82 01
0,4836,0:29.098.332,325.100 us,11 B,,SP,4B,Read Transaction,01 30 91 3E 03 1A 02 75 00 00 00*
0,4837,0:29.114.580,70.100 us,2 B,,SP,4B,Write Transaction,82 01
0,4838,0:29.114.652,49.800 us,1 B,,SP,4B,Read Transaction,01*
0,4839,0:29.114.703,70.100 us,2 B,,SP,4B,Write Transaction,82 01
0,4840,0:29.114.774,325.100 us,11 B,,SP,4B,Read Transaction,01 30 91 40 03 1D 02 75 00 00 00*
0,4841,0:29.131.094,70.100 us,2 B,,SP,4B,Write Transaction,82 01
0,4842,0:29.131.166,49.800 us,1 B,,SP,4B,Read Transaction,01*
0,4843,0:29.131.217,70.100 us,2 B,,SP,4B,Write Transaction,82 01
0,4844,0:29.131.288,325.200 us,11 B,,SP,4B,Read Transaction,01 30 91 42 03 20 02 75 00 00 00*
0,4845,0:29.147.587,70.200 us,2 B,,SP,4B,Write Transaction,82 01
0,4846,0:29.147.658,49.800 us,1 B,,SP,4B,Read Transaction,01*
0,4847,0:29.147.709,70.200 us,2 B,,SP,4B,Write Transaction,82 01
0,4848,0:29.147.781,325.000 us,11 B,,SP,4B,Read Transaction,01 30 91 44 03 22 02 75 00 00 00*
0,4849,0:29.164.058,70.100 us,2 B,,SP,4B,Write Transaction,82 01
0,4850,0:29.164.129,49.800 us,1 B,,SP,4B,Read Transaction,01*
0,4851,0:29.164.180,70.100 us,2 B,,SP,4B,Write Transaction,82 01
0,4852,0:29.164.252,325.100 us,11 B,,SP,4B,Read Transaction,01 30 91 46 03 24 02 75 00 00 00*
0,4853,0:29.180.543,70.200 us,2 B,,SP,4B,Write Transaction,82 01
0,4854,0:29.180.614,49.800 us,1 B,,SP,4B,Read Transaction,01*
0,4855,0:29.180.665,70.200 us,2 B,,SP,4B,Write Transaction,82 01
0,4856,0:29.180.737,325.100 us,11 B,,SP,4B,Read Transaction,01 30 91 47 03 26 02 75 00 00 00*
0,4857,0:29.197.054,70.100 us,2 B,,SP,4B,Write Transaction,82 01
0,4858,0:29.197.125,49.800 us,1 B,,SP,4B,Read Transaction,01*
0,4859,0:29.197.177,70.100 us,2 B,,SP,4B,Write Transaction,82 01
0,4860,0:29.197.248,325.200 us,11 B,,SP,4B,Read Transaction,01 30 91 49 03 28 02 75 00 00 00*
0,4861,0:29.213.546,70.100 us,2 B,,SP,4B,Write Transaction,82 01
0,4862,0:29.213.617,49.800 us,1 B,,SP,4B,Read Transaction,01*
0,4863,0:29.213.668,70.100 us,2 B,,SP,4B,Write Transaction,82 01
0,4864,0:29.213.740,324.900 us,11 B,,SP,4B,Read Transaction,01 30 91 4B 03 2A 02 75 00 00 00*
0,4865,0:29.230.012,70.200 us,2 B,,SP,4B,Write Transaction,82 01
0,4866,0:29.230.083,49.700 us,1 B,,SP,4B,Read Transaction,01*
0,4867,0:29.230.134,70.100 us,2 B,,SP,4B,Write Transaction,82 01
0,4868,0:29.230.206,325.100 us,11 B,,SP,4B,Read Transaction,01 30 91 4D 03 2D 02 70 00 00 00*
0,4869,0:29.246.479,70.100 us,2 B,,SP,4B,Write Transaction,82 01
0,4870,0:29.246.551,49.800 us,1 B,,SP,4B,Read Transaction,01*
0,4871,0:29.246.602,70.100 us,2 B,,SP,4B,Write Transaction,82 01
0,4872,0:29.246.673,325.100 us,11 B,,SP,4B,Read Transaction,01 30 91 4F 03 30 02 70 00 00 00*
0,4873,0:29.263.729,70.200 us,2 B,,SP,4B,Write Transaction,82 01
0,4874,0:29.263.801,49.800 us,1 B,,SP,4B,Read Transaction,01*
0,4875,0:29.263.852,70.200 us,2 B,,SP,4B,Write Transaction,82 01
0,4876,0:29.263.923,318.500 us,11 B,,SP,4B,Read Transaction,01 29 12 02 06 01 01 16 00 00 00*
0,4877,0:29.264.786,70.100 us,2 B,,SP,4B,Write Transaction,82 01
0,4878,0:29.264.858,49.700 us,1 B,,SP,4B,Read Transaction,01*
0,4879,0:29.264.909,70.200 us,2 B,,SP,4B,Write Transaction,82 01
0,4880,0:29.264.980,325.000 us,11 B,,SP,4B,Read Transaction,01 30 91 51 03 32 02 70 00 00 00*
0,4881,0:29.281.334,70.100 us,2 B,,SP,4B,Write Transaction,82 01
0,4882,0:29.281.405,49.800 us,1 B,,SP,4B,Read Transaction,01*
0,4883,0:29.281.456,70.100 us,2 B,,SP,4B,Write Transaction,82 01
0,4884,0:29.281.527,325.200 us,11 B,,SP,4B,Read Transaction,01 30 91 53 03 34 02 70 00 00 00*
0,4885,0:29.297.712,70.100 us,2 B,,SP,4B,Write Transaction,82 01
0,4886,0:29.297.783,49.800 us,1 B,,SP,4B,Read Transaction,01*
0,4887,0:29.297.834,70.100 us,2 B,,SP,4B,Write Transaction,82 01
0,4888,0:29.297.906,325.000 us,11 B,,SP,4B,Read Transaction,01 30 91 55 03 37 02 70 00 00 00*
0,4889,0:29.314.200,70.100 us,2 B,,SP,4B,Write Transaction,82 01
0,4890,0:29.314.271,49.800 us,1 B,,SP,4B,Read Transaction,01*
0,4891,0:29.314.322,70.200 us,2 B,,SP,4B,Write Transaction,82 01
0,4892,0:29.314.394,325.200 us,11 B,,SP,4B,Read Transaction,01 30 91 57 03 3A 02 70 00 00 00*
0,4893,0:29.330.689,70.100 us,2 B,,SP,4B,Write Transaction,82 01
0,4894,0:29.330.760,49.800 us,1 B,,SP,4B,Read Transaction,01*
0,4895,0:29.330.811,70.100 us,2 B,,SP,4B,Write Transaction,82 01
0,4896,0:29.330.883,324.900 us,11 B,,SP,4B,Read Transaction,01 30 91 59 03 3C 02 70 00 00 00*
0,4897,0:29.347.179,70.200 us,2 B,,SP,4B,Write Transaction,82 01
0,4898,0:29.347.250,49.700 us,1 B,,SP,4B,Read Transaction,01*
0,4899,0:29.347.301,70.100 us,2 B,,SP,4B,Write Transaction,82 01
0,4900,0:29.347.373,324.800 us,11 B,,SP,4B,Read Transaction,01 30 91 5B 03 3F 02 70 00 00 00*
0,4901,0:29.363.669,70.100 us,2 B,,SP,4B,Write Transaction,82 01
0,4902,0:29.363.741,49.800 us,1 B,,SP,4B,Read Transaction,01*
0,4903,0:29.363.792,70.100 us,2 B,,SP,4B,Write Transaction,82 01
0,4904,0:29.363.863,325.200 us,11 B,,SP,4B,Read Transaction,01 30 91 5D 03 41 02 6B 00 00 00*
0,4905,0:29.380.161,70.100 us,2 B,,SP,4B,Write Transaction,82 01
0,4906,0:29.380.232,49.800 us,1 B,,SP,4B,Read Transaction,01*
0,4907,0:29.380.283,70.100 us,2 B,,SP,4B,Write Transaction,82 01
0,4908,0:29.380.355,325.000 us,11 B,,SP,4B,Read Transaction,01 30 91 60 03 44 02 6B 00 00 00*
0,4909,0:29.396.650,70.100 us,2 B,,SP,4B,Write Transaction,82 01
0,4910,0:29.396.722,49.800 us,1 B,,SP,4B,Read Transaction,01*
0,4911,0:29.396.773,70.100 us,2 B,,SP,4B,Write Transaction,82 01
0,4912,0:29.396.844,325.000 us,11 B,,SP,4B,Read Transaction,01 30 91 62 03 46 02 6B 00 00 00*
0,4913,0:29.413.145,70.200 us,2 B,,SP,4B,Write Transaction,82 01
0,4914,0:29.413.217,49.800 us,1 B,,SP,4B,Read Transaction,01*
0,4915,0:29.413.268,70.100 us,2 B,,SP,4B,Write Transaction,82 01
0,4916,0:29.413.339,325.300 us,11 B,,SP,4B,Read Transaction,01 30 91 64 03 48 02 6B 00 00 00*
0,4917,0:29.431.201,70.100 us,2 B,,SP,4B,Write Transaction,82 01
0,4918,0:29.431.272,49.700 us,1 B,,SP,4B,Read Transaction,01*
0,4919,0:29.431.323,70.100 us,2 B,,SP,4B,Write Transaction,82 01
0,4920,0:29.431.395,325.200 us,11 B,,SP,4B,Read Transaction,01 30 91 66 03 4A 02 6B 00 00 00*
0,4921,0:29.447.721,70.100 us,2 B,,SP,4B,Write Transaction,82 01
0,4922,0:29.447.792,49.800 us,1 B,,SP,4B,Read Transaction,01*
0,4923,0:29.447.843,70.100 us,2 B,,SP,4B,Write Transaction,82 01
0,4924,0:29.447.915,325.000 us,11 B,,SP,4B,Read Transaction,01 30 91 67 03 4D 02 6B 00 00 00*
0,4925,0:29.464.215,70.100 us,2 B,,SP,4B,Write Transaction,82 01
0,4926,0:29.464.286,49.800 us,1 B,,SP,4B,Read Transaction,01*
0,4927,0:29.464.337,70.100 us,2 B,,SP,4B,Write Transaction,82 01
0,4928,0:29.464.409,325.200 us,11 B,,SP,4B,Read Transaction,01 30 91 69 03 4E 02 6B 00 00 00*
0,4929,0:29.480.824,70.200 us,2 B,,SP,4B,Write Transaction,82 01
0,4930,0:29.480.895,49.800 us,1 B,,SP,4B,Read Transaction,01*
0,4931,0:29.480.946,70.200 us,2 B,,SP,4B,Write Transaction,82 01
0,4932,0:29.481.018,325.200 us,11 B,,SP,4B,Read Transaction,01 30 91 6B 03 50 02 6B 00 00 00*
0,4933,0:29.497.198,70.200 us,2 B,,SP,4B,Write Transaction,82 01
0,4934,0:29.497.269,49.800 us,1 B,,SP,4B,Read Transaction,01*
0,4935,0:29.497.320,70.200 us,2 B,,SP,4B,Write Transaction,82 01
0,4936,0:29.497.392,325.200 us,11 B,,SP,4B,Read Transaction,01 30 91 6C 03 52 02 6B 00 00 00*
0,4937,0:29.513.689,70.100 us,2 B,,SP,4B,Write Transaction,82 01
0,4938,0:29.513.761,49.800 us,1 B,,SP,4B,Read Transaction,01*
0,4939,0:29.513.812,70.100 us,2 B,,SP,4B,Write Transaction,82 01
0,4940,0:29.513.883,325.000 us,11 B,,SP,4B,Read Transaction,01 30 91 6D 03 53 02 6B 00 00 00*
0,4941,0:29.530.182,70.200 us,2 B,,SP,4B,Write Transaction,82 01
0,4942,0:29.530.254,49.800 us,1 B,,SP,4B,Read Transaction,01*
0,4943,0:29.530.305,70.200 us,2 B,,SP,4B,Write Transaction,82 01
0,4944,0:29.530.376,325.100 us,11 B,,SP,4B,Read Transaction,01 30 91 6F 03 55 02 6B 00 00 00*
0,4945,0:29.546.649,70.200 us,2 B,,SP,4B,Write Transaction,82 01
0,4946,0:29.546.720,49.700 us,1 B,,SP,4B,Read Transaction,01*
0,4947,0:29.546.771,70.200 us,2 B,,SP,4B,Write Transaction,82 01
0,4948,0:29.546.842,325.200 us,11 B,,SP,4B,Read Transaction,01 30 91 71 03 57 02 6B 00 00 00*
0,4949,0:29.563.115,70.200 us,2 B,,SP,4B,Write Transaction,82 01
0,4950,0:29.563.186,49.800 us,1 B,,SP,4B,Read Transaction,01*
0,4951,0:29.563.237,70.200 us,2 B,,SP,4B,Write Transaction,82 01
0,4952,0:29.563.309,324.900 us,11 B,,SP,4B,Read Transaction,01 30 91 72 03 59 02 6B 00 00 00*
0,4953,0:29.579.581,70.200 us,2 B,,SP,4B,Write Transaction,82 01
0,4954,0:29.579.652,49.800 us,1 B,,SP,4B,Read Transaction,01*
0,4955,0:29.579.704,70.200 us,2 B,,SP,4B,Write Transaction,82 01
0,4956,0:29.579.775,325.100 us,11 B,,SP,4B,Read Transaction,01 30 91 74 03 5A 02 6B 00 00 00*
0,4957,0:29.597.646,70.100 us,2 B,,SP,4B,Write Transaction,82 01
0,4958,0:29.597.717,49.800 us,1 B,,SP,4B,Read Transaction,01*
0,4959,0:29.597.769,70.100 us,2 B,,SP,4B,Write Transaction,82 01
0,4960,0:29.597.840,325.300 us,11 B,,SP,4B,Read Transaction,01 30 91 76 03 5D 02 6B 00 00 00*
0,4961,0:29.614.168,70.100 us,2 B,,SP,4B,Write Transaction,82 01
0,4962,0:29.614.240,49.800 us,1 B,,SP,4B,Read Transaction,01*
0,4963,0:29.614.291,70.100 us,2 B,,SP,4B,Write Transaction,82 01
0,4964,0:29.614.362,325.400 us,11 B,,SP,4B,Read Transaction,01 30 91 78 03 5F 02 6B 00 00 00*
0,4965,0:29.630.632,70.100 us,2 B,,SP,4B,Write Transaction,82 01
0,4966,0:29.630.704,49.800 us,1 B,,SP,4B,Read Transaction,01*
0,4967,0:29.630.755,70.100 us,2 B,,SP,4B,Write Transaction,82 01
0,4968,0:29.630.826,325.000 us,11 B,,SP,4B,Read Transaction,01 30 91 7A 03 61 02 6B 00 00 00*
0,4969,0:29.647.125,70.100 us,2 B,,SP,4B,Write Transaction,82 01
0,4970,0:29.647.197,49.800 us,1 B,,SP,4B,Read Transaction,01*
0,4971,0:29.647.248,70.100 us,2 B,,SP,4B,Write Transaction,82 01
0,4972,0:29.647.319,325.100 us,11 B,,SP,4B,Read Transaction,01 30 91 7C 03 64 02 6B 00 00 00*
0,4973,0:29.663.582,70.100 us,2 B,,SP,4B,Write Transaction,82 01
0,4974,0:29.663.654,49.800 us,1 B,,SP,4B,Read Transaction,01*
0,4975,0:29.663.705,70.100 us,2 B,,SP,4B,Write Transaction,82 01
0,4976,0:29.663.776,325.300 us,11 B,,SP,4B,Read Transaction,01 30 91 7E 03 67 02 6B 00 00 00*
0,4977,0:29.680.177,70.100 us,2 B,,SP,4B,Write Transaction,82 01
0,4978,0:29.680.248,49.800 us,1 B,,SP,4B,Read Transaction,01*
0,4979,0:29.680.299,70.100 us,2 B,,SP,4B,Write Transaction,82 01
0,4980,0:29.680.371,324.900 us,11 B,,SP,4B,Read Transaction,01 30 91 81 03 6A 02 6B 00 00 00*
0,4981,0:29.696.543,70.100 us,2 B,,SP,4B,Write Transaction,82 01
0,4982,0:29.696.614,49.800 us,1 B,,SP,4B,Read Transaction,01*
0,4983,0:29.696.665,70.100 us,2 B,,SP,4B,Write Transaction,82 01
0,4984,0:29.696.737,325.300 us,11 B,,SP,4B,Read Transaction,01 30 91 83 03 6D 02 6B 00 00 00*
0,4985,0:29.713.008,70.100 us,2 B,,SP,4B,Write Transaction,82 01
0,4986,0:29.713.079,49.800 us,1 B,,SP,4B,Read Transaction,01*
0,4987,0:29.713.130,70.100 us,2 B,,SP,4B,Write Transaction,82 01
0,4988,0:29.713.202,325.000 us,11 B,,SP,4B,Read Transaction,01 30 91 86 03 70 02 6B 00 00 00*
0,4989,0:29.729.499,70.100 us,2 B,,SP,4B,Write Transaction,82 01
0,4990,0:29.729.570,49.700 us,1 B,,SP,4B,Read Transaction,01*
0,4991,0:29.729.621,70.200 us,2 B,,SP,4B,Write Transaction,82 01
0,4992,0:29.729.693,325.300 us,11 B,,SP,4B,Read Transaction,01 30 91 88 03 75 02 6B 00 00 00*
0,4993,0:29.745.966,70.200 us,2 B,,SP,4B,Write Transaction,82 01
0,4994,0:29.746.037,49.800 us,1 B,,SP,4B,Read Transaction,01*
0,4995,0:29.746.088,70.200 us,2 B,,SP,4B,Write Transaction,82 01
0,4996,0:29.746.160,325.200 us,11 B,,SP,4B,Read Transaction,01 30 91 8B 03 78 02 70 00 00 00*
0,4997,0:29.764.059,70.100 us,2 B,,SP,4B,Write Transaction,82 01
0,4998,0:29.764.130,49.800 us,1 B,,SP,4B,Read Transaction,01*
0,4999,0:29.764.181,70.100 us,2 B,,SP,4B,Write Transaction,82 01
0,5000,0:29.764.253,324.900 us,11 B,,SP,4B,Read Transaction,01 30 91 8E 03 7D 02 70 00 00 00*
0,5001,0:29.780.581,70.100 us,2 B,,SP,4B,Write Transaction,82 01
0,5002,0:29.780.652,49.800 us,1 B,,SP,4B,Read Transaction,01*
0,5003,0:29.780.704,70.100 us,2 B,,SP,4B,Write Transaction,82 01
0,5004,0:29.780.775,325.000 us,11 B,,SP,4B,Read Transaction,01 30 91 91 03 81 02 70 00 00 00*
0,5005,0:29.797.072,70.100 us,2 B,,SP,4B,Write Transaction,82 01
0,5006,0:29.797.144,49.800 us,1 B,,SP,4B,Read Transaction,01*
0,5007,0:29.797.195,70.100 us,2 B,,SP,4B,Write Transaction,82 01
0,5008,0:29.797.266,325.300 us,11 B,,SP,4B,Read Transaction,01 30 91 94 03 86 02 70 00 00 00*
0,5009,0:29.813.569,70.100 us,2 B,,SP,4B,Write Transaction,82 01
0,5010,0:29.813.640,49.800 us,1 B,,SP,4B,Read Transaction,01*
0,5011,0:29.813.691,70.100 us,2 B,,SP,4B,Write Transaction,82 01
0,5012,0:29.813.763,325.000 us,11 B,,SP,4B,Read Transaction,01 30 91 97 03 8A 02 70 00 00 00*
0,5013,0:29.830.061,70.100 us,2 B,,SP,4B,Write Transaction,82 01
0,5014,0:29.830.133,49.800 us,1 B,,SP,4B,Read Transaction,01*
0,5015,0:29.830.184,70.100 us,2 B,,SP,4B,Write Transaction,82 01
0,5016,0:29.830.255,324.600 us,11 B,,SP,4B,Read Transaction,01 30 91 9B 03 8F 02 70 00 00 00*
0,5017,0:29.846.529,70.100 us,2 B,,SP,4B,Write Transaction,82 01
0,5018,0:29.846.601,49.800 us,1 B,,SP,4B,Read Transaction,01*
0,5019,0:29.846.652,70.100 us,2 B,,SP,4B,Write Transaction,82 01
0,5020,0:29.846.723,324.900 us,11 B,,SP,4B,Read Transaction,01 30 91 9D 03 93 02 70 00 00 00*
0,5021,0:29.863.019,70.200 us,2 B,,SP,4B,Write Transaction,82 01
0,5022,0:29.863.090,49.800 us,1 B,,SP,4B,Read Transaction,01*
0,5023,0:29.863.141,70.200 us,2 B,,SP,4B,Write Transaction,82 01
0,5024,0:29.863.213,325.000 us,11 B,,SP,4B,Read Transaction,01 30 91 A0 03 98 02 70 00 00 00*
0,5025,0:29.879.602,70.100 us,2 B,,SP,4B,Write Transaction,82 01
0,5026,0:29.879.674,49.800 us,1 B,,SP,4B,Read Transaction,01*
0,5027,0:29.879.725,70.100 us,2 B,,SP,4B,Write Transaction,82 01
0,5028,0:29.879.796,325.600 us,11 B,,SP,4B,Read Transaction,01 30 91 A3 03 9C 02 70 00 00 00*
0,5029,0:29.895.975,70.100 us,2 B,,SP,4B,Write Transaction,82 01
0,5030,0:29.896.047,49.800 us,1 B,,SP,4B,Read Transaction,01*
0,5031,0:29.896.098,70.100 us,2 B,,SP,4B,Write Transaction,82 01
0,5032,0:29.896.169,325.100 us,11 B,,SP,4B,Read Transaction,01 30 91 A5 03 A0 02 70 00 00 00*
0,5033,0:29.912.464,70.100 us,2 B,,SP,4B,Write Transaction,82 01
0,5034,0:29.912.536,49.800 us,1 B,,SP,4B,Read Transaction,01*
0,5035,0:29.912.587,70.100 us,2 B,,SP,4B,Write Transaction,82 01
0,5036,0:29.912.658,324.900 us,11 B,,SP,4B,Read Transaction,01 30 91 A8 03 A4 02 70 00 00 00*
0,5037,0:29.930.556,70.100 us,2 B,,SP,4B,Write Transaction,82 01
0,5038,0:29.930.627,49.800 us,1 B,,SP,4B,Read Transaction,01*
0,5039,0:29.930.678,70.100 us,2 B,,SP,4B,Write Transaction,82 01
0,5040,0:29.930.750,325.200 us,11 B,,SP,4B,Read Transaction,01 30 91 AB 03 A8 02 70 00 00 00*
0,5041,0:29.947.051,70.100 us,2 B,,SP,4B,Write Transaction,82 01
0,5042,0:29.947.123,49.800 us,1 B,,SP,4B,Read Transaction,01*
0,5043,0:29.947.174,70.100 us,2 B,,SP,4B,Write Transaction,82 01
0,5044,0:29.947.245,324.900 us,11 B,,SP,4B,Read Transaction,01 30 91 AD 03 AD 02 70 00 00 00*
0,5045,0:29.963.519,70.200 us,2 B,,SP,4B,Write Transaction,82 01
0,5046,0:29.963.591,49.800 us,1 B,,SP,4B,Read Transaction,01*
0,5047,0:29.963.642,70.200 us,2 B,,SP,4B,Write Transaction,82 01
0,5048,0:29.963.713,324.900 us,11 B,,SP,4B,Read Transaction,01 30 91 B1 03 B2 02 70 00 00 00*
0,5049,0:29.979.984,70.100 us,2 B,,SP,4B,Write Transaction,82 01
0,5050,0:29.980.055,49.800 us,1 B,,SP,4B,Read Transaction,01*
0,5051,0:29.980.106,70.100 us,2 B,,SP,4B,Write Transaction,82 01
0,5052,0:29.980.178,325.300 us,11 B,,SP,4B,Read Transaction,01 30 91 B4 03 B7 02 70 00 00 00*
0,5053,0:29.996.450,70.200 us,2 B,,SP,4B,Write Transaction,82 01
0,5054,0:29.996.522,49.800 us,1 B,,SP,4B,Read Transaction,01*
0,5055,0:29.996.573,70.100 us,2 B,,SP,4B,Write Transaction,82 01
0,5056,0:29.996.644,325.100 us,11 B,,SP,4B,Read Transaction,01 30 91 B6 03 BB 02 70 00 00 00*
0,5057,0:30.012.902,70.100 us,2 B,,SP,4B,Write Transaction,82 01
0,5058,0:30.012.973,49.800 us,1 B,,SP,4B,Read Transaction,01*
0,5059,0:30.013.024,70.100 us,2 B,,SP,4B,Write Transaction,82 01
0,5060,0:30.013.096,325.100 us,11 B,,SP,4B,Read Transaction,01 30 91 BA 03 C0 02 70 00 00 00*
0,5061,0:30.029.366,70.200 us,2 B,,SP,4B,Write Transaction,82 01
0,5062,0:30.029.437,49.700 us,1 B,,SP,4B,Read Transaction,01*
0,5063,0:30.029.488,70.200 us,2 B,,SP,4B,Write Transaction,82 01
0,5064,0:30.029.560,325.300 us,11 B,,SP,4B,Read Transaction,01 30 91 BE 03 C5 02 70 00 00 00*
0,5065,0:30.045.837,70.200 us,2 B,,SP,4B,Write Transaction,82 01
0,5066,0:30.045.908,49.800 us,1 B,,SP,4B,Read Transaction,01*
0,5067,0:30.045.960,70.200 us,2 B,,SP,4B,Write Transaction,82 01
0,5068,0:30.046.031,324.900 us,11 B,,SP,4B,Read Transaction,01 30 91 C1 03 CA 02 70 00 00 00*
0,5069,0:30.062.465,70.100 us,2 B,,SP,4B,Write Transaction,82 01
0,5070,0:30.062.536,49.800 us,1 B,,SP,4B,Read Transaction,01*
0,5071,0:30.062.587,70.100 us,2 B,,SP,4B,Write Transaction,82 01
0,5072,0:30.062.659,325.300 us,11 B,,SP,4B,Read Transaction,01 30 91 C6 03 D0 02 70 00 00 00*
0,5073,0:30.078.826,70.200 us,2 B,,SP,4B,Write Transaction,82 01
0,5074,0:30.078.897,49.800 us,1 B,,SP,4B,Read Transaction,01*
0,5075,0:30.078.949,70.100 us,2 B,,SP,4B,Write Transaction,82 01
0,5076,0:30.079.020,325.300 us,11 B,,SP,4B,Read Transaction,01 30 91 CB 03 D7 02 70 00 00 00*
0,5077,0:30.096.956,70.200 us,2 B,,SP,4B,Write Transaction,82 01
0,5078,0:30.097.027,49.800 us,1 B,,SP,4B,Read Transaction,01*
0,5079,0:30.097.078,70.200 us,2 B,,SP,4B,Write Transaction,82 01
0,5080,0:30.097.149,325.000 us,11 B,,SP,4B,Read Transaction,01 30 91 D0 03 DD 02 70 00 00 00*
0,5081,0:30.113.449,70.100 us,2 B,,SP,4B,Write Transaction,82 01
0,5082,0:30.113.520,49.800 us,1 B,,SP,4B,Read Transaction,01*
0,5083,0:30.113.571,70.100 us,2 B,,SP,4B,Write Transaction,82 01
0,5084,0:30.113.643,325.200 us,11 B,,SP,4B,Read Transaction,01 30 91 D6 03 E4 02 70 00 00 00*
0,5085,0:30.129.920,70.200 us,2 B,,SP,4B,Write Transaction,82 01
0,5086,0:30.129.991,49.800 us,1 B,,SP,4B,Read Transaction,01*
0,5087,0:30.130.042,70.100 us,2 B,,SP,4B,Write Transaction,82 01
0,5088,0:30.130.114,324.900 us,11 B,,SP,4B,Read Transaction,01 30 91 DB 03 EA 02 70 00 00 00*
0,5089,0:30.146.379,70.200 us,2 B,,SP,4B,Write Transaction,82 01
0,5090,0:30.146.450,49.700 us,1 B,,SP,4B,Read Transaction,01*
0,5091,0:30.146.501,70.200 us,2 B,,SP,4B,Write Transaction,82 01
0,5092,0:30.146.573,325.300 us,11 B,,SP,4B,Read Transaction,01 30 91 E0 03 F2 02 70 00 00 00*
0,5093,0:30.162.845,70.100 us,2 B,,SP,4B,Write Transaction,82 01
0,5094,0:30.162.916,49.800 us,1 B,,SP,4B,Read Transaction,01*
0,5095,0:30.162.967,70.100 us,2 B,,SP,4B,Write Transaction,82 01
0,5096,0:30.163.039,324.900 us,11 B,,SP,4B,Read Transaction,01 30 91 E6 03 F8 02 70 00 00 00*
0,5097,0:30.179.306,70.100 us,2 B,,SP,4B,Write Transaction,82 01
0,5098,0:30.179.378,49.800 us,1 B,,SP,4B,Read Transaction,01*
0,5099,0:30.179.429,70.100 us,2 B,,SP,4B,Write Transaction,82 01
0,5100,0:30.179.500,325.100 us,11 B,,SP,4B,Read Transaction,01 30 91 EA 03 FF 02 70 00 00 00*
0,5101,0:30.195.772,70.200 us,2 B,,SP,4B,Write Transaction,82 01
0,5102,0:30.195.843,49.800 us,1 B,,SP,4B,Read Transaction,01*
0,5103,0:30.195.894,70.200 us,2 B,,SP,4B,Write Transaction,82 01
0,5104,0:30.195.966,325.400 us,11 B,,SP,4B,Read Transaction,01 30 91 EF 03 05 03 70 00 00 00*
0,5105,0:30.212.232,70.100 us,2 B,,SP,4B,Write Transaction,82 01
0,5106,0:30.212.304,49.800 us,1 B,,SP,4B,Read Transaction,01*
0,5107,0:30.212.355,70.100 us,2 B,,SP,4B,Write Transaction,82 01
0,5108,0:30.212.426,325.100 us,11 B,,SP,4B,Read Transaction,01 30 91 F4 03 0B 03 70 00 00 00*
0,5109,0:30.228.698,70.100 us,2 B,,SP,4B,Write Transaction,82 01
0,5110,0:30.228.769,49.800 us,1 B,,SP,4B,Read Transaction,01*
0,5111,0:30.228.820,70.100 us,2 B,,SP,4B,Write Transaction,82 01
0,5112,0:30.228.892,325.100 us,11 B,,SP,4B,Read Transaction,01 30 91 F8 03 12 03 70 00 00 00*
0,5113,0:30.245.162,70.200 us,2 B,,SP,4B,Write Transaction,82 01
0,5114,0:30.245.234,49.800 us,1 B,,SP,4B,Read Transaction,01*
0,5115,0:30.245.285,70.200 us,2 B,,SP,4B,Write Transaction,82 01
0,5116,0:30.245.356,325.100 us,11 B,,SP,4B,Read Transaction,01 30 91 FC 03 18 03 70 00 00 00*
0,5117,0:30.263.334,70.100 us,2 B,,SP,4B,Write Transaction,82 01
0,5118,0:30.263.405,49.800 us,1 B,,SP,4B,Read Transaction,01*
0,5119,0:30.263.456,70.100 us,2 B,,SP,4B,Write Transaction,82 01
0,5120,0:30.263.528,324.800 us,11 B,,SP,4B,Read Transaction,01 30 91 00 04 1E 03 70 00 00 00*
0,5121,0:30.279.743,70.100 us,2 B,,SP,4B,Write Transaction,82 01
0,5122,0:30.279.814,49.800 us,1 B,,SP,4B,Read Transaction,01*
0,5123,0:30.279.865,70.100 us,2 B,,SP,4B,Write Transaction,82 01
0,5124,0:30.279.936,325.100 us,11 B,,SP,4B,Read Transaction,01 30 91 04 04 24 03 70 00 00 00*
0,5125,0:30.296.203,70.100 us,2 B,,SP,4B,Write Transaction,82 01
0,5126,0:30.296.274,49.800 us,1 B,,SP,4B,Read Transaction,01*
0,5127,0:30.296.325,70.100 us,2 B,,SP,4B,Write Transaction,82 01
0,5128,0:30.296.396,325.100 us,11 B,,SP,4B,Read Transaction,01 30 91 07 04 29 03 70 00 00 00*
0,5129,0:30.312.667,70.100 us,2 B,,SP,4B,Write Transaction,82 01
0,5130,0:30.312.738,49.800 us,1 B,,SP,4B,Read Transaction,01*
0,5131,0:30.312.790,70.100 us,2 B,,SP,4B,Write Transaction,82 01
0,5132,0:30.312.861,325.000 us,11 B,,SP,4B,Read Transaction,01 30 91 0A 04 2E 03 70 00 00 00*
0,5133,0:30.329.137,70.100 us,2 B,,SP,4B,Write Transaction,82 01
0,5134,0:30.329.208,49.800 us,1 B,,SP,4B,Read Transaction,01*
0,5135,0:30.329.259,70.100 us,2 B,,SP,4B,Write Transaction,82 01
0,5136,0:30.329.331,325.200 us,11 B,,SP,4B,Read Transaction,01 30 91 0D 04 33 03 70 00 00 00*
0,5137,0:30.345.598,70.200 us,2 B,,SP,4B,Write Transaction,82 01
0,5138,0:30.345.670,49.800 us,1 B,,SP,4B,Read Transaction,01*
0,5139,0:30.345.721,70.100 us,2 B,,SP,4B,Write Transaction,82 01
0,5140,0:30.345.792,325.100 us,11 B,,SP,4B,Read Transaction,01 30 91 10 04 38 03 70 00 00 00*
0,5141,0:30.362.063,70.200 us,2 B,,SP,4B,Write Transaction,82 01
0,5142,0:30.362.135,49.800 us,1 B,,SP,4B,Read Transaction,01*
0,5143,0:30.362.186,70.200 us,2 B,,SP,4B,Write Transaction,82 01
0,5144,0:30.362.257,325.100 us,11 B,,SP,4B,Read Transaction,01 30 91 13 04 3D 03 70 00 00 00*
0,5145,0:30.378.527,70.200 us,2 B,,SP,4B,Write Transaction,82 01
0,5146,0:30.378.598,49.800 us,1 B,,SP,4B,Read Transaction,01*
0,5147,0:30.378.649,70.100 us,2 B,,SP,4B,Write Transaction,82 01
0,5148,0:30.378.721,325.400 us,11 B,,SP,4B,Read Transaction,01 30 91 15 04 40 03 70 00 00 00*
0,5149,0:30.394.994,70.100 us,2 B,,SP,4B,Write Transaction,82 01
0,5150,0:30.395.065,49.700 us,1 B,,SP,4B,Read Transaction,01*
0,5151,0:30.395.116,70.200 us,2 B,,SP,4B,Write Transaction,82 01
0,5152,0:30.395.188,324.900 us,11 B,,SP,4B,Read Transaction,01 30 91 17 04 44 03 70 00 00 00*
0,5153,0:30.411.460,70.100 us,2 B,,SP,4B,Write Transaction,82 01
0,5154,0:30.411.531,49.800 us,1 B,,SP,4B,Read Transaction,01*
0,5155,0:30.411.582,70.100 us,2 B,,SP,4B,Write Transaction,82 01
0,5156,0:30.411.654,325.100 us,11 B,,SP,4B,Read Transaction,01 30 91 1A 04 48 03 70 00 00 00*
0,5157,0:30.429.526,70.100 us,2 B,,SP,4B,Write Transaction,82 01
0,5158,0:30.429.598,49.800 us,1 B,,SP,4B,Read Transaction,01*
0,5159,0:30.429.649,70.100 us,2 B,,SP,4B,Write Transaction,82 01
0,5160,0:30.429.720,325.100 us,11 B,,SP,4B,Read Transaction,01 30 91 1B 04 4B 03 70 00 00 00*
0,5161,0:30.446.022,70.200 us,2 B,,SP,4B,Write Transaction,82 01
0,5162,0:30.446.094,49.700 us,1 B,,SP,4B,Read Transaction,01*
0,5163,0:30.446.145,70.200 us,2 B,,SP,4B,Write Transaction,82 01
0,5164,0:30.446.216,325.200 us,11 B,,SP,4B,Read Transaction,01 30 91 1D 04 4E 03 70 00 00 00*
0,5165,0:30.462.611,70.100 us,2 B,,SP,4B,Write Transaction,82 01
0,5166,0:30.462.683,49.800 us,1 B,,SP,4B,Read Transaction,01*
0,5167,0:30.462.734,70.100 us,2 B,,SP,4B,Write Transaction,82 01
0,5168,0:30.462.805,324.800 us,11 B,,SP,4B,Read Transaction,01 30 91 1F 04 52 03 70 00 00 00*
0,5169,0:30.478.981,70.100 us,2 B,,SP,4B,Write Transaction,82 01
0,5170,0:30.479.052,49.800 us,1 B,,SP,4B,Read Transaction,01*
0,5171,0:30.479.103,70.100 us,2 B,,SP,4B,Write Transaction,82 01
0,5172,0:30.479.175,325.100 us,11 B,,SP,4B,Read Transaction,01 30 91 21 04 55 03 70 00 00 00*
0,5173,0:30.495.450,70.100 us,2 B,,SP,4B,Write Transaction,82 01
0,5174,0:30.495.521,49.800 us,1 B,,SP,4B,Read Transaction,01*
0,5175,0:30.495.572,70.100 us,2 B,,SP,4B,Write Transaction,82 01
0,5176,0:30.495.644,325.100 us,11 B,,SP,4B,Read Transaction,01 30 91 24 04 59 03 70 00 00 00*
0,5177,0:30.511.918,70.200 us,2 B,,SP,4B,Write Transaction,82 01
0,5178,0:30.511.990,49.800 us,1 B,,SP,4B,Read Transaction,01*
0,5179,0:30.512.041,70.200 us,2 B,,SP,4B,Write Transaction,82 01
0,5180,0:30.512.112,325.000 us,11 B,,SP,4B,Read Transaction,01 30 91 26 04 5D 03 70 00 00 00*
0,5181,0:30.528.389,70.100 us,2 B,,SP,4B,Write Transaction,82 01
0,5182,0:30.528.460,49.800 us,1 B,,SP,4B,Read Transaction,01*
0,5183,0:30.528.511,70.100 us,2 B,,SP,4B,Write Transaction,82 01
0,5184,0:30.528.583,325.100 us,11 B,,SP,4B,Read Transaction,01 30 91 28 04 60 03 70 00 00 00*
0,5185,0:30.544.882,70.200 us,2 B,,SP,4B,Write Transaction,82 01
0,5186,0:30.544.953,49.800 us,1 B,,SP,4B,Read Transaction,01*
0,5187,0:30.545.004,70.200 us,2 B,,SP,4B,Write Transaction,82 01
0,5188,0:30.545.076,325.300 us,11 B,,SP,4B,Read Transaction,01 30 91 2A 04 64 03 70 00 00 00*
0,5189,0:30.561.371,70.100 us,2 B,,SP,4B,Write Transaction,82 01
0,5190,0:30.561.442,49.700 us,1 B,,SP,4B,Read Transaction,01*
0,5191,0:30.561.493,70.100 us,2 B,,SP,4B,Write Transaction,82 01
0,5192,0:30.561.565,325.000 us,11 B,,SP,4B,Read Transaction,01 30 91 2D 04 68 03 70 00 00 00*
0,5193,0:30.577.836,70.200 us,2 B,,SP,4B,Write Transaction,82 01
0,5194,0:30.577.908,49.800 us,1 B,,SP,4B,Read Transaction,01*
0,5195,0:30.577.959,70.100 us,2 B,,SP,4B,Write Transaction,82 01
0,5196,0:30.578.030,324.900 us,11 B,,SP,4B,Read Transaction,01 30 91 2F 04 6B 03 70 00 00 00*
0,5197,0:30.595.885,70.100 us,2 B,,SP,4B,Write Transaction,82 01
0,5198,0:30.595.956,49.800 us,1 B,,SP,4B,Read Transaction,01*
0,5199,0:30.596.007,70.100 us,2 B,,SP,4B,Write Transaction,82 01
0,5200,0:30.596.078,325.200 us,11 B,,SP,4B,Read Transaction,01 30 91 32 04 6F 03 70 00 00 00*
0,5201,0:30.612.382,70.100 us,2 B,,SP,4B,Write Transaction,82 01
0,5202,0:30.612.453,49.800 us,1 B,,SP,4B,Read Transaction,01*
0,5203,0:30.612.504,70.100 us,2 B,,SP,4B,Write Transaction,82 01
0,5204,0:30.612.576,325.200 us,11 B,,SP,4B,Read Transaction,01 30 91 35 04 73 03 70 00 00 00*
0,5205,0:30.628.873,70.200 us,2 B,,SP,4B,Write Transaction,82 01
0,5206,0:30.628.945,49.800 us,1 B,,SP,4B,Read Transaction,01*
0,5207,0:30.628.996,70.100 us,2 B,,SP,4B,Write Transaction,82 01
0,5208,0:30.629.067,325.100 us,11 B,,SP,4B,Read Transaction,01 30 91 38 04 77 03 70 00 00 00*
0,5209,0:30.645.366,70.200 us,2 B,,SP,4B,Write Transaction,82 01
0,5210,0:30.645.437,49.700 us,1 B,,SP,4B,Read Transaction,01*
0,5211,0:30.645.488,70.200 us,2 B,,SP,4B,Write Transaction,82 01
0,5212,0:30.645.560,325.000 us,11 B,,SP,4B,Read Transaction,01 30 91 3C 04 7B 03 70 00 00 00*
0,5213,0:30.661.956,70.100 us,2 B,,SP,4B,Write Transaction,82 01
0,5214,0:30.662.028,49.800 us,1 B,,SP,4B,Read Transaction,01*
0,5215,0:30.662.079,70.100 us,2 B,,SP,4B,Write Transaction,82 01
0,5216,0:30.662.150,324.900 us,11 B,,SP,4B,Read Transaction,01 30 91 3F 04 7F 03 70 00 00 00*
0,5217,0:30.678.354,70.100 us,2 B,,SP,4B,Write Transaction,82 01
0,5218,0:30.678.425,49.800 us,1 B,,SP,4B,Read Transaction,01*
0,5219,0:30.678.477,70.100 us,2 B,,SP,4B,Write Transaction,82 01
0,5220,0:30.678.548,325.000 us,11 B,,SP,4B,Read Transaction,01 30 91 42 04 83 03 70 00 00 00*
0,5221,0:30.694.826,70.200 us,2 B,,SP,4B,Write Transaction,82 01
0,5222,0:30.694.897,49.700 us,1 B,,SP,4B,Read Transaction,01*
0,5223,0:30.694.948,70.100 us,2 B,,SP,4B,Write Transaction,82 01
0,5224,0:30.695.020,325.000 us,11 B,,SP,4B,Read Transaction,01 30 91 45 04 87 03 70 00 00 00*
0,5225,0:30.711.287,70.100 us,2 B,,SP,4B,Write Transaction,82 01
0,5226,0:30.711.359,49.800 us,1 B,,SP,4B,Read Transaction,01*
0,5227,0:30.711.410,70.200 us,2 B,,SP,4B,Write Transaction,82 01
0,5228,0:30.711.481,325.600 us,11 B,,SP,4B,Read Transaction,01 30 91 48 04 8A 03 70 00 00 00*
0,5229,0:30.727.750,70.200 us,2 B,,SP,4B,Write Transaction,82 01
0,5230,0:30.727.821,49.800 us,1 B,,SP,4B,Read Transaction,01*
0,5231,0:30.727.872,70.200 us,2 B,,SP,4B,Write Transaction,82 01
0,5232,0:30.727.944,325.200 us,11 B,,SP,4B,Read Transaction,01 30 91 4B 04 8D 03 70 00 00 00*
0,5233,0:30.744.211,70.100 us,2 B,,SP,4B,Write Transaction,82 01
0,5234,0:30.744.283,49.800 us,1 B,,SP,4B,Read Transaction,01*
0,5235,0:30.744.334,70.100 us,2 B,,SP,4B,Write Transaction,82 01
0,5236,0:30.744.405,325.100 us,11 B,,SP,4B,Read Transaction,01 30 91 4E 04 90 03 70 00 00 00*
0,5237,0:30.762.309,70.100 us,2 B,,SP,4B,Write Transaction,82 01
0,5238,0:30.762.381,49.700 us,1 B,,SP,4B,Read Transaction,01*
0,5239,0:30.762.432,70.100 us,2 B,,SP,4B,Write Transaction,82 01
0,5240,0:30.762.503,324.900 us,11 B,,SP,4B,Read Transaction,01 30 91 50 04 93 03 70 00 00 00*
0,5241,0:30.778.805,70.100 us,2 B,,SP,4B,Write Transaction,82 01
0,5242,0:30.778.877,49.800 us,1 B,,SP,4B,Read Transaction,01*
0,5243,0:30.778.928,70.100 us,2 B,,SP,4B,Write Transaction,82 01
0,5244,0:30.778.999,324.800 us,11 B,,SP,4B,Read Transaction,01 30 91 53 04 96 03 70 00 00 00*
0,5245,0:30.795.290,70.100 us,2 B,,SP,4B,Write Transaction,82 01
0,5246,0:30.795.361,49.800 us,1 B,,SP,4B,Read Transaction,01*
0,5247,0:30.795.413,70.100 us,2 B,,SP,4B,Write Transaction,82 01
0,5248,0:30.795.484,325.200 us,11 B,,SP,4B,Read Transaction,01 30 91 55 04 99 03 70 00 00 00*
0,5249,0:30.811.751,70.100 us,2 B,,SP,4B,Write Transaction,82 01
0,5250,0:30.811.822,49.800 us,1 B,,SP,4B,Read Transaction,01*
0,5251,0:30.811.873,70.100 us,2 B,,SP,4B,Write Transaction,82 01
0,5252,0:30.811.944,325.200 us,11 B,,SP,4B,Read Transaction,01 30 91 58 04 9C 03 70 00 00 00*
0,5253,0:30.828.216,70.100 us,2 B,,SP,4B,Write Transaction,82 01
0,5254,0:30.828.288,49.800 us,1 B,,SP,4B,Read Transaction,01*
0,5255,0:30.828.339,70.100 us,2 B,,SP,4B,Write Transaction,82 01
0,5256,0:30.828.410,325.300 us,11 B,,SP,4B,Read Transaction,01 30 91 5A 04 9F 03 70 00 00 00*
0,5257,0:30.844.679,70.100 us,2 B,,SP,4B,Write Transaction,82 01
0,5258,0:30.844.751,49.800 us,1 B,,SP,4B,Read Transaction,01*
0,5259,0:30.844.802,70.100 us,2 B,,SP,4B,Write Transaction,82 01
0,5260,0:30.844.873,324.900 us,11 B,,SP,4B,Read Transaction,01 30 91 5C 04 A2 03 70 00 00 00*
0,5261,0:30.861.266,70.100 us,2 B,,SP,4B,Write Transaction,82 01
0,5262,0:30.861.338,49.700 us,1 B,,SP,4B,Read Transaction,01*
0,5263,0:30.861.389,70.200 us,2 B,,SP,4B,Write Transaction,82 01
0,5264,0:30.861.460,325.000 us,11 B,,SP,4B,Read Transaction,01 30 91 5E 04 A5 03 70 00 00 00*
0,5265,0:30.877.663,70.200 us,2 B,,SP,4B,Write Transaction,82 01
0,5266,0:30.877.735,49.800 us,1 B,,SP,4B,Read Transaction,01*
0,5267,0:30.877.786,70.200 us,2 B,,SP,4B,Write Transaction,82 01
0,5268,0:30.877.857,325.200 us,11 B,,SP,4B,Read Transaction,01 30 91 60 04 A7 03 70 00 00 00*
0,5269,0:30.894.131,70.200 us,2 B,,SP,4B,Write Transaction,82 01
0,5270,0:30.894.202,49.800 us,1 B,,SP,4B,Read Transaction,01*
0,5271,0:30.894.253,70.200 us,2 B,,SP,4B,Write Transaction,82 01
0,5272,0:30.894.325,325.200 us,11 B,,SP,4B,Read Transaction,01 30 91 62 04 A9 03 70 00 00 00*
0,5273,0:30.910.600,70.100 us,2 B,,SP,4B,Write Transaction,82 01
0,5274,0:30.910.672,49.800 us,1 B,,SP,4B,Read Transaction,01*
0,5275,0:30.910.723,70.100 us,2 B,,SP,4B,Write Transaction,82 01
0,5276,0:30.910.794,325.200 us,11 B,,SP,4B,Read Transaction,01 30 91 64 04 AC 03 70 00 00 00*
0,5277,0:30.928.727,70.100 us,2 B,,SP,4B,Write Transaction,82 01
0,5278,0:30.928.799,49.800 us,1 B,,SP,4B,Read Transaction,01*
0,5279,0:30.928.850,70.100 us,2 B,,SP,4B,Write Transaction,82 01
0,5280,0:30.928.921,325.300 us,11 B,,SP,4B,Read Transaction,01 30 91 66 04 AE 03 70 00 00 00*
0,5281,0:30.945.253,70.100 us,2 B,,SP,4B,Write Transaction,82 01
0,5282,0:30.945.324,49.800 us,1 B,,SP,4B,Read Transaction,01*
0,5283,0:30.945.375,70.100 us,2 B,,SP,4B,Write Transaction,82 01
0,5284,0:30.945.447,325.200 us,11 B,,SP,4B,Read Transaction,01 30 91 68 04 B1 03 70 00 00 00*
0,5285,0:30.961.716,70.100 us,2 B,,SP,4B,Write Transaction,82 01
0,5286,0:30.961.787,49.800 us,1 B,,SP,4B,Read Transaction,01*
0,5287,0:30.961.838,70.100 us,2 B,,SP,4B,Write Transaction,82 01
0,5288,0:30.961.910,325.000 us,11 B,,SP,4B,Read Transaction,01 30 91 6A 04 B4 03 70 00 00 00*
0,5289,0:30.978.185,70.100 us,2 B,,SP,4B,Write Transaction,82 01
0,5290,0:30.978.256,49.800 us,1 B,,SP,4B,Read Transaction,01*
0,5291,0:30.978.308,70.100 us,2 B,,SP,4B,Write Transaction,82 01
0,5292,0:30.978.379,325.000 us,11 B,,SP,4B,Read Transaction,01 30 91 6C 04 B7 03 70 00 00 00*
0,5293,0:30.994.680,70.100 us,2 B,,SP,4B,Write Transaction,82 01
0,5294,0:30.994.751,49.700 us,1 B,,SP,4B,Read Transaction,01*
0,5295,0:30.994.802,70.200 us,2 B,,SP,4B,Write Transaction,82 01
0,5296,0:30.994.874,324.900 us,11 B,,SP,4B,Read Transaction,01 30 91 6E 04 B9 03 70 00 00 00*
0,5297,0:31.011.175,70.100 us,2 B,,SP,4B,Write Transaction,82 01
0,5298,0:31.011.246,49.800 us,1 B,,SP,4B,Read Transaction,01*
0,5299,0:31.011.297,70.100 us,2 B,,SP,4B,Write Transaction,82 01
0,5300,0:31.011.369,325.400 us,11 B,,SP,4B,Read Transaction,01 30 91 70 04 BD 03 70 00 00 00*
0,5301,0:31.027.666,70.100 us,2 B,,SP,4B,Write Transaction,82 01
0,5302,0:31.027.737,49.800 us,1 B,,SP,4B,Read Transaction,01*
0,5303,0:31.027.788,70.100 us,2 B,,SP,4B,Write Transaction,82 01
0,5304,0:31.027.860,325.100 us,11 B,,SP,4B,Read Transaction,01 30 91 72 04 BF 03 70 00 00 00*
0,5305,0:31.044.261,70.100 us,2 B,,SP,4B,Write Transaction,82 01
0,5306,0:31.044.332,49.700 us,1 B,,SP,4B,Read Transaction,01*
0,5307,0:31.044.383,70.100 us,2 B,,SP,4B,Write Transaction,82 01
0,5308,0:31.044.455,325.300 us,11 B,,SP,4B,Read Transaction,01 30 91 74 04 C3 03 70 00 00 00*
0,5309,0:31.060.624,70.100 us,2 B,,SP,4B,Write Transaction,82 01
0,5310,0:31.060.696,49.800 us,1 B,,SP,4B,Read Transaction,01*
0,5311,0:31.060.747,70.100 us,2 B,,SP,4B,Write Transaction,82 01
0,5312,0:31.060.818,324.900 us,11 B,,SP,4B,Read Transaction,01 30 91 76 04 C6 03 70 00 00 00*
0,5313,0:31.077.115,70.100 us,2 B,,SP,4B,Write Transaction,82 01
0,5314,0:31.077.186,49.800 us,1 B,,SP,4B,Read Transaction,01*
0,5315,0:31.077.237,70.100 us,2 B,,SP,4B,Write Transaction,82 01
0,5316,0:31.077.309,325.300 us,11 B,,SP,4B,Read Transaction,01 30 91 79 04 CA 03 70 00 00 00*
0,5317,0:31.095.184,70.100 us,2 B,,SP,4B,Write Transaction,82 01
0,5318,0:31.095.255,49.800 us,1 B,,SP,4B,Read Transaction,01*
0,5319,0:31.095.306,70.100 us,2 B,,SP,4B,Write Transaction,82 01
0,5320,0:31.095.378,325.000 us,11 B,,SP,4B,Read Transaction,01 30 91 7B 04 CF 03 70 00 00 00*
0,5321,0:31.111.678,70.200 us,2 B,,SP,4B,Write Transaction,82 01
0,5322,0:31.111.749,49.800 us,1 B,,SP,4B,Read Transaction,01*
0,5323,0:31.111.800,70.200 us,2 B,,SP,4B,Write Transaction,82 01
0,5324,0:31.111.872,325.200 us,11 B,,SP,4B,Read Transaction,01 30 91 7E 04 D2 03 70 00 00 00*
0,5325,0:31.128.169,70.100 us,2 B,,SP,4B,Write Transaction,82 01
0,5326,0:31.128.241,49.700 us,1 B,,SP,4B,Read Transaction,01*
0,5327,0:31.128.292,70.100 us,2 B,,SP,4B,Write Transaction,82 01
0,5328,0:31.128.363,325.000 us,11 B,,SP,4B,Read Transaction,01 30 91 80 04 D7 03 6B 00 00 00*
0,5329,0:31.144.638,70.200 us,2 B,,SP,4B,Write Transaction,82 01
0,5330,0:31.144.710,49.800 us,1 B,,SP,4B,Read Transaction,01*
0,5331,0:31.144.761,70.200 us,2 B,,SP,4B,Write Transaction,82 01
0,5332,0:31.144.832,325.200 us,11 B,,SP,4B,Read Transaction,01 30 91 83 04 DB 03 6B 00 00 00*
0,5333,0:31.161.144,70.100 us,2 B,,SP,4B,Write Transaction,82 01
0,5334,0:31.161.216,49.800 us,1 B,,SP,4B,Read Transaction,01*
0,5335,0:31.161.267,70.100 us,2 B,,SP,4B,Write Transaction,82 01
0,5336,0:31.161.338,325.100 us,11 B,,SP,4B,Read Transaction,01 30 91 86 04 DF 03 6B 00 00 00*
0,5337,0:31.177.619,70.100 us,2 B,,SP,4B,Write Transaction,82 01
0,5338,0:31.177.691,49.800 us,1 B,,SP,4B,Read Transaction,01*
0,5339,0:31.177.742,70.100 us,2 B,,SP,4B,Write Transaction,82 01
0,5340,0:31.177.813,325.500 us,11 B,,SP,4B,Read Transaction,01 30 91 88 04 E4 03 6B 00 00 00*
0,5341,0:31.193.217,70.100 us,2 B,,SP,4B,Write Transaction,82 01
0,5342,0:31.193.288,49.800 us,1 B,,SP,4B,Read Transaction,01*
0,5343,0:31.193.339,70.100 us,2 B,,SP,4B,Write Transaction,82 01
0,5344,0:31.193.411,318.400 us,11 B,,SP,4B,Read Transaction,01 29 12 02 07 01 01 16 00 00 00*
0,5345,0:31.194.271,70.200 us,2 B,,SP,4B,Write Transaction,82 01
0,5346,0:31.194.343,49.800 us,1 B,,SP,4B,Read Transaction,01*
0,5347,0:31.194.394,70.200 us,2 B,,SP,4B,Write Transaction,82 01
0,5348,0:31.194.465,324.900 us,11 B,,SP,4B,Read Transaction,01 30 91 8A 04 E8 03 6B 00 00 00*
0,5349,0:31.210.674,70.100 us,2 B,,SP,4B,Write Transaction,82 01
0,5350,0:31.210.745,49.800 us,1 B,,SP,4B,Read Transaction,01*
0,5351,0:31.210.796,70.100 us,2 B,,SP,4B,Write Transaction,82 01
0,5352,0:31.210.867,325.300 us,11 B,,SP,4B,Read Transaction,01 30 91 8D 04 ED 03 6B 00 00 00*
0,5353,0:31.227.140,70.100 us,2 B,,SP,4B,Write Transaction,82 01
0,5354,0:31.227.212,49.800 us,1 B,,SP,4B,Read Transaction,01*
0,5355,0:31.227.263,70.100 us,2 B,,SP,4B,Write Transaction,82 01
0,5356,0:31.227.334,325.200 us,11 B,,SP,4B,Read Transaction,01 30 91 90 04 F0 03 6B 00 00 00*
0,5357,0:31.243.745,70.100 us,2 B,,SP,4B,Write Transaction,82 01
0,5358,0:31.243.816,49.700 us,1 B,,SP,4B,Read Transaction,01*
0,5359,0:31.243.867,70.200 us,2 B,,SP,4B,Write Transaction,82 01
0,5360,0:31.243.939,325.200 us,11 B,,SP,4B,Read Transaction,01 30 91 92 04 F4 03 6B 00 00 00*
0,5361,0:31.261.702,70.100 us,2 B,,SP,4B,Write Transaction,82 01
0,5362,0:31.261.774,49.800 us,1 B,,SP,4B,Read Transaction,01*
0,5363,0:31.261.825,70.100 us,2 B,,SP,4B,Write Transaction,82 01
0,5364,0:31.261.896,325.300 us,11 B,,SP,4B,Read Transaction,01 30 91 94 04 F7 03 6B 00 00 00*
0,5365,0:31.278.225,70.100 us,2 B,,SP,4B,Write Transaction,82 01
0,5366,0:31.278.297,49.800 us,1 B,,SP,4B,Read Transaction,01*
0,5367,0:31.278.348,70.100 us,2 B,,SP,4B,Write Transaction,82 01
0,5368,0:31.278.419,325.100 us,11 B,,SP,4B,Read Transaction,01 30 91 96 04 FB 03 6B 00 00 00*
0,5369,0:31.294.716,70.100 us,2 B,,SP,4B,Write Transaction,82 01
0,5370,0:31.294.788,49.800 us,1 B,,SP,4B,Read Transaction,01*
0,5371,0:31.294.839,70.100 us,2 B,,SP,4B,Write Transaction,82 01
0,5372,0:31.294.910,325.400 us,11 B,,SP,4B,Read Transaction,01 30 91 99 04 FF 03 6B 00 00 00*
0,5373,0:31.311.211,70.100 us,2 B,,SP,4B,Write Transaction,82 01
0,5374,0:31.311.282,49.800 us,1 B,,SP,4B,Read Transaction,01*
0,5375,0:31.311.334,70.100 us,2 B,,SP,4B,Write Transaction,82 01
0,5376,0:31.311.405,325.200 us,11 B,,SP,4B,Read Transaction,01 30 91 9B 04 02 04 6B 00 00 00*
0,5377,0:31.327.705,70.200 us,2 B,,SP,4B,Write Transaction,82 01
0,5378,0:31.327.776,49.800 us,1 B,,SP,4B,Read Transaction,01*
0,5379,0:31.327.827,70.100 us,2 B,,SP,4B,Write Transaction,82 01
0,5380,0:31.327.899,324.900 us,11 B,,SP,4B,Read Transaction,01 30 91 9D 04 05 04 6B 00 00 00*
0,5381,0:31.344.170,70.200 us,2 B,,SP,4B,Write Transaction,82 01
0,5382,0:31.344.241,49.800 us,1 B,,SP,4B,Read Transaction,01*
0,5383,0:31.344.292,70.200 us,2 B,,SP,4B,Write Transaction,82 01
0,5384,0:31.344.364,325.000 us,11 B,,SP,4B,Read Transaction,01 30 91 9F 04 07 04 6B 00 00 00*
0,5385,0:31.360.634,70.100 us,2 B,,SP,4B,Write Transaction,82 01
0,5386,0:31.360.705,49.800 us,1 B,,SP,4B,Read Transaction,01*
0,5387,0:31.360.756,70.100 us,2 B,,SP,4B,Write Transaction,82 01
0,5388,0:31.360.828,325.000 us,11 B,,SP,4B,Read Transaction,01 30 91 A1 04 0A 04 6B 00 00 00*
0,5389,0:31.377.102,70.100 us,2 B,,SP,4B,Write Transaction,82 01
0,5390,0:31.377.174,49.800 us,1 B,,SP,4B,Read Transaction,01*
0,5391,0:31.377.225,70.100 us,2 B,,SP,4B,Write Transaction,82 01
0,5392,0:31.377.296,325.400 us,11 B,,SP,4B,Read Transaction,01 30 91 A2 04 0D 04 6B 00 00 00*
0,5393,0:31.393.571,70.100 us,2 B,,SP,4B,Write Transaction,82 01
0,5394,0:31.393.642,49.800 us,1 B,,SP,4B,Read Transaction,01*
0,5395,0:31.393.693,70.100 us,2 B,,SP,4B,Write Transaction,82 01
0,5396,0:31.393.765,324.900 us,11 B,,SP,4B,Read Transaction,01 30 91 A4 04 0F 04 6B 00 00 00*
0,5397,0:31.410.037,70.100 us,2 B,,SP,4B,Write Transaction,82 01
0,5398,0:31.410.109,49.800 us,1 B,,SP,4B,Read Transaction,01*
0,5399,0:31.410.160,70.100 us,2 B,,SP,4B,Write Transaction,82 01
0,5400,0:31.410.231,325.300 us,11 B,,SP,4B,Read Transaction,01 30 91 A6 04 11 04 6B 00 00 00*
0,5401,0:31.428.103,70.100 us,2 B,,SP,4B,Write Transaction,82 01
0,5402,0:31.428.175,49.700 us,1 B,,SP,4B,Read Transaction,01*
0,5403,0:31.428.226,70.200 us,2 B,,SP,4B,Write Transaction,82 01
0,5404,0:31.428.297,325.000 us,11 B,,SP,4B,Read Transaction,01 30 91 A7 04 13 04 6B 00 00 00*
0,5405,0:31.444.764,70.100 us,2 B,,SP,4B,Write Transaction,82 01
0,5406,0:31.444.835,49.800 us,1 B,,SP,4B,Read Transaction,01*
0,5407,0:31.444.886,70.100 us,2 B,,SP,4B,Write Transaction,82 01
0,5408,0:31.444.958,325.000 us,11 B,,SP,4B,Read Transaction,01 30 91 A9 04 15 04 6B 00 00 00*
0,5409,0:31.461.119,70.100 us,2 B,,SP,4B,Write Transaction,82 01
0,5410,0:31.461.190,49.800 us,1 B,,SP,4B,Read Transaction,01*
0,5411,0:31.461.241,70.100 us,2 B,,SP,4B,Write Transaction,82 01
0,5412,0:31.461.313,325.000 us,11 B,,SP,4B,Read Transaction,01 30 91 AB 04 17 04 6B 00 00 00*
0,5413,0:31.477.583,70.200 us,2 B,,SP,4B,Write Transaction,82 01
0,5414,0:31.477.655,49.800 us,1 B,,SP,4B,Read Transaction,01*
0,5415,0:31.477.706,70.200 us,2 B,,SP,4B,Write Transaction,82 01
0,5416,0:31.477.777,325.200 us,11 B,,SP,4B,Read Transaction,01 30 91 AD 04 1A 04 6B 00 00 00*
0,5417,0:31.494.047,70.100 us,2 B,,SP,4B,Write Transaction,82 01
0,5418,0:31.494.118,49.800 us,1 B,,SP,4B,Read Transaction,01*
0,5419,0:31.494.169,70.100 us,2 B,,SP,4B,Write Transaction,82 01
0,5420,0:31.494.241,325.000 us,11 B,,SP,4B,Read Transaction,01 30 91 AF 04 1D 04 6B 00 00 00*
0,5421,0:31.510.514,70.100 us,2 B,,SP,4B,Write Transaction,82 01
0,5422,0:31.510.585,49.800 us,1 B,,SP,4B,Read Transaction,01*
0,5423,0:31.510.637,70.100 us,2 B,,SP,4B,Write Transaction,82 01
0,5424,0:31.510.708,325.100 us,11 B,,SP,4B,Read Transaction,01 30 91 B2 04 1F 04 70 00 00 00*
0,5425,0:31.526.969,70.100 us,2 B,,SP,4B,Write Transaction,82 01
0,5426,0:31.527.040,49.800 us,1 B,,SP,4B,Read Transaction,01*
0,5427,0:31.527.092,70.100 us,2 B,,SP,4B,Write Transaction,82 01
0,5428,0:31.527.163,324.800 us,11 B,,SP,4B,Read Transaction,01 30 91 B5 04 23 04 70 00 00 00*
0,5429,0:31.543.422,70.100 us,2 B,,SP,4B,Write Transaction,82 01
0,5430,0:31.543.493,49.800 us,1 B,,SP,4B,Read Transaction,01*
0,5431,0:31.543.545,70.100 us,2 B,,SP,4B,Write Transaction,82 01
0,5432,0:31.543.616,325.200 us,11 B,,SP,4B,Read Transaction,01 30 91 B8 04 27 04 70 00 00 00*
0,5433,0:31.559.886,70.200 us,2 B,,SP,4B,Write Transaction,82 01
0,5434,0:31.559.958,49.800 us,1 B,,SP,4B,Read Transaction,01*
0,5435,0:31.560.009,70.100 us,2 B,,SP,4B,Write Transaction,82 01
0,5436,0:31.560.080,325.300 us,11 B,,SP,4B,Read Transaction,01 30 91 BC 04 2C 04 70 00 00 00*
0,5437,0:31.576.354,70.200 us,2 B,,SP,4B,Write Transaction,82 01
0,5438,0:31.576.426,49.700 us,1 B,,SP,4B,Read Transaction,01*
0,5439,0:31.576.477,70.100 us,2 B,,SP,4B,Write Transaction,82 01
0,5440,0:31.576.548,325.000 us,11 B,,SP,4B,Read Transaction,01 30 91 C0 04 31 04 70 00 00 00*
0,5441,0:31.594.451,70.200 us,2 B,,SP,4B,Write Transaction,82 01
0,5442,0:31.594.523,49.700 us,1 B,,SP,4B,Read Transaction,01*
0,5443,0:31.594.574,70.200 us,2 B,,SP,4B,Write Transaction,82 01
0,5444,0:31.594.645,325.200 us,11 B,,SP,4B,Read Transaction,01 30 91 C5 04 37 04 70 00 00 00*
0,5445,0:31.610.964,70.100 us,2 B,,SP,4B,Write Transaction,82 01
0,5446,0:31.611.035,49.800 us,1 B,,SP,4B,Read Transaction,01*
0,5447,0:31.611.086,70.100 us,2 B,,SP,4B,Write Transaction,82 01
0,5448,0:31.611.158,325.100 us,11 B,,SP,4B,Read Transaction,01 30 91 CA 04 3D 04 70 00 00 00*
0,5449,0:31.627.426,70.100 us,2 B,,SP,4B,Write Transaction,82 01
0,5450,0:31.627.497,49.800 us,1 B,,SP,4B,Read Transaction,01*
0,5451,0:31.627.549,70.200 us,2 B,,SP,4B,Write Transaction,82 01
0,5452,0:31.627.620,325.300 us,11 B,,SP,4B,Read Transaction,01 30 91 CF 04 45 04 70 00 00 00*
0,5453,0:31.644.011,70.100 us,2 B,,SP,4B,Write Transaction,82 01
0,5454,0:31.644.083,49.700 us,1 B,,SP,4B,Read Transaction,01*
0,5455,0:31.644.134,70.200 us,2 B,,SP,4B,Write Transaction,82 01
0,5456,0:31.644.205,325.400 us,11 B,,SP,4B,Read Transaction,01 30 91 D4 04 4B 04 70 00 00 00*
0,5457,0:31.660.417,70.200 us,2 B,,SP,4B,Write Transaction,82 01
0,5458,0:31.660.488,49.700 us,1 B,,SP,4B,Read Transaction,01*
0,5459,0:31.660.539,70.200 us,2 B,,SP,4B,Write Transaction,82 01
0,5460,0:31.660.611,325.400 us,11 B,,SP,4B,Read Transaction,01 30 91 D8 04 51 04 70 00 00 00*
0,5461,0:31.676.879,70.100 us,2 B,,SP,4B,Write Transaction,82 01
0,5462,0:31.676.950,49.800 us,1 B,,SP,4B,Read Transaction,01*
0,5463,0:31.677.002,70.200 us,2 B,,SP,4B,Write Transaction,82 01
0,5464,0:31.677.073,325.000 us,11 B,,SP,4B,Read Transaction,01 30 91 DD 04 57 04 70 00 00 00*
0,5465,0:31.693.343,70.100 us,2 B,,SP,4B,Write Transaction,82 01
0,5466,0:31.693.415,49.800 us,1 B,,SP,4B,Read Transaction,01*
0,5467,0:31.693.466,70.100 us,2 B,,SP,4B,Write Transaction,82 01
0,5468,0:31.693.537,325.200 us,11 B,,SP,4B,Read Transaction,01 30 91 E0 04 5C 04 70 00 00 00*
0,5469,0:31.709.837,70.100 us,2 B,,SP,4B,Write Transaction,82 01
0,5470,0:31.709.908,49.800 us,1 B,,SP,4B,Read Transaction,01*
0,5471,0:31.709.959,70.100 us,2 B,,SP,4B,Write Transaction,82 01
0,5472,0:31.710.031,325.100 us,11 B,,SP,4B,Read Transaction,01 30 91 E3 04 60 04 70 00 00 00*
0,5473,0:31.726.305,70.100 us,2 B,,SP,4B,Write Transaction,82 01
0,5474,0:31.726.377,49.800 us,1 B,,SP,4B,Read Transaction,01*
0,5475,0:31.726.428,70.100 us,2 B,,SP,4B,Write Transaction,82 01
0,5476,0:31.726.499,325.200 us,11 B,,SP,4B,Read Transaction,01 30 91 E7 04 65 04 70 00 00 00*
0,5477,0:31.742.767,70.200 us,2 B,,SP,4B,Write Transaction,82 01
0,5478,0:31.742.839,49.800 us,1 B,,SP,4B,Read Transaction,01*
0,5479,0:31.742.890,70.200 us,2 B,,SP,4B,Write Transaction,82 01
0,5480,0:31.742.961,325.000 us,11 B,,SP,4B,Read Transaction,01 30 91 EA 04 69 04 70 00 00 00*
0,5481,0:31.760.916,70.100 us,2 B,,SP,4B,Write Transaction,82 01
0,5482,0:31.760.987,49.800 us,1 B,,SP,4B,Read Transaction,01*
0,5483,0:31.761.038,70.100 us,2 B,,SP,4B,Write Transaction,82 01
0,5484,0:31.761.109,325.000 us,11 B,,SP,4B,Read Transaction,01 30 91 EE 04 6D 04 70 00 00 00*
0,5485,0:31.777.432,70.100 us,2 B,,SP,4B,Write Transaction,82 01
0,5486,0:31.777.503,49.800 us,1 B,,SP,4B,Read Transaction,01*
0,5487,0:31.777.554,70.100 us,2 B,,SP,4B,Write Transaction,82 01
0,5488,0:31.777.626,325.100 us,11 B,,SP,4B,Read Transaction,01 30 91 F1 04 71 04 70 00 00 00*
0,5489,0:31.793.898,70.200 us,2 B,,SP,4B,Write Transaction,82 01
0,5490,0:31.793.969,49.800 us,1 B,,SP,4B,Read Transaction,01*
0,5491,0:31.794.020,70.100 us,2 B,,SP,4B,Write Transaction,82 01
0,5492,0:31.794.092,324.900 us,11 B,,SP,4B,Read Transaction,01 30 91 F3 04 75 04 70 00 00 00*
0,5493,0:31.810.364,70.100 us,2 B,,SP,4B,Write Transaction,82 01
0,5494,0:31.810.436,49.800 us,1 B,,SP,4B,Read Transaction,01*
0,5495,0:31.810.487,70.100 us,2 B,,SP,4B,Write Transaction,82 01
0,5496,0:31.810.558,325.100 us,11 B,,SP,4B,Read Transaction,01 30 91 F6 04 78 04 70 00 00 00*
0,5497,0:31.826.973,70.100 us,2 B,,SP,4B,Write Transaction,82 01
0,5498,0:31.827.044,49.800 us,1 B,,SP,4B,Read Transaction,01*
0,5499,0:31.827.095,70.100 us,2 B,,SP,4B,Write Transaction,82 01
0,5500,0:31.827.166,325.000 us,11 B,,SP,4B,Read Transaction,01 30 91 F9 04 7C 04 6B 00 00 00*
0,5501,0:31.843.324,70.100 us,2 B,,SP,4B,Write Transaction,82 01
0,5502,0:31.843.395,49.800 us,1 B,,SP,4B,Read Transaction,01*
0,5503,0:31.843.446,70.100 us,2 B,,SP,4B,Write Transaction,82 01
0,5504,0:31.843.518,324.900 us,11 B,,SP,4B,Read Transaction,01 30 91 FC 04 7F 04 6B 00 00 00*
0,5505,0:31.859.790,70.100 us,2 B,,SP,4B,Write Transaction,82 01
0,5506,0:31.859.861,49.800 us,1 B,,SP,4B,Read Transaction,01*
0,5507,0:31.859.913,70.100 us,2 B,,SP,4B,Write Transaction,82 01
0,5508,0:31.859.984,325.100 us,11 B,,SP,4B,Read Transaction,01 30 91 FE 04 82 04 6B 00 00 00*
0,5509,0:31.876.255,70.200 us,2 B,,SP,4B,Write Transaction,82 01
0,5510,0:31.876.326,49.800 us,1 B,,SP,4B,Read Transaction,01*
0,5511,0:31.876.378,70.200 us,2 B,,SP,4B,Write Transaction,82 01
0,5512,0:31.876.449,325.100 us,11 B,,SP,4B,Read Transaction,01 30 91 01 05 85 04 6B 00 00 00*
0,5513,0:31.892.742,70.100 us,2 B,,SP,4B,Write Transaction,82 01
0,5514,0:31.892.813,49.800 us,1 B,,SP,4B,Read Transaction,01*
0,5515,0:31.892.864,70.100 us,2 B,,SP,4B,Write Transaction,82 01
0,5516,0:31.892.936,325.000 us,11 B,,SP,4B,Read Transaction,01 30 91 04 05 89 04 6B 00 00 00*
0,5517,0:31.909.231,70.100 us,2 B,,SP,4B,Write Transaction,82 01
0,5518,0:31.909.302,49.800 us,1 B,,SP,4B,Read Transaction,01*
0,5519,0:31.909.353,70.100 us,2 B,,SP,4B,Write Transaction,82 01
0,5520,0:31.909.425,325.100 us,11 B,,SP,4B,Read Transaction,01 30 91 07 05 8C 04 6B 00 00 00*
0,5521,0:31.927.291,70.100 us,2 B,,SP,4B,Write Transaction,82 01
0,5522,0:31.927.362,49.800 us,1 B,,SP,4B,Read Transaction,01*
0,5523,0:31.927.413,70.100 us,2 B,,SP,4B,Write Transaction,82 01
0,5524,0:31.927.484,325.100 us,11 B,,SP,4B,Read Transaction,01 30 91 0A 05 8F 04 66 00 00 00*
0,5525,0:31.943.811,70.100 us,2 B,,SP,4B,Write Transaction,82 01
0,5526,0:31.943.882,49.800 us,1 B,,SP,4B,Read Transaction,01*
0,5527,0:31.943.933,70.100 us,2 B,,SP,4B,Write Transaction,82 01
0,5528,0:31.944.005,325.000 us,11 B,,SP,4B,Read Transaction,01 30 91 0D 05 92 04 66 00 00 00*
0,5529,0:31.960.273,70.100 us,2 B,,SP,4B,Write Transaction,82 01
0,5530,0:31.960.345,49.800 us,1 B,,SP,4B