# Total Phase Data Center(tm) v7.01
# (c) 2005-2021 Total Phase, Inc.
# www.totalphase.com
#
# 
#
# Level,Index,m:s.ms.us,Dur,Len,Err,S/P,Addr,Record,Data
0,0,0:00.000.000,,,,,,Capture started,[08/03/23 12:18:06]
0,1,0:00.584.709,70.200 us,2 B,,SP,4B,Write Transaction,82 01
0,2,0:00.584.780,49.800 us,1 B,,SP,4B,Read Transaction,01*
0,3,0:00.584.831,70.100 us,2 B,,SP,4B,Write Transaction,82 01
0,4,0:00.584.903,323.100 us,11 B,,SP,4B,Read Transaction,01 29 10 02 06 01 01 16 00 00 00*
0,5,0:01.724.105,70.200 us,2 B,,SP,4B,Write Transaction,82 01
0,6,0:01.724.177,49.800 us,1 B,,SP,4B,Read Transaction,01*
0,7,0:01.724.228,70.100 us,2 B,,SP,4B,Write Transaction,82 01
0,8,0:01.724.299,323.100 us,11 B,,SP,4B,Read Transaction,01 29 10 02 06 01 00 16 00 00 00*
0,9,0:02.863.418,70.100 us,2 B,,SP,4B,Write Transaction,82 01
0,10,0:02.863.490,49.800 us,1 B,,SP,4B,Read Transaction,01*
0,11,0:02.863.541,70.100 us,2 B,,SP,4B,Write Transaction,82 01
0,12,0:02.863.612,322.300 us,11 B,,SP,4B,Read Transaction,01 29 10 02 06 01 00 16 00 00 00*
0,13,0:04.002.009,70.100 us,2 B,,SP,4B,Write Transaction,82 01
0,14,0:04.002.081,49.700 us,1 B,,SP,4B,Read Transaction,01*
0,15,0:04.002.132,70.100 us,2 B,,SP,4B,Write Transaction,82 01
0,16,0:04.002.203,321.900 us,11 B,,SP,4B,Read Transaction,01 29 10 02 06 01 00 16 00 00 00*
0,17,0:05.156.007,70.100 us,2 B,,SP,4B,Write Transaction,82 01
0,18,0:05.156.079,49.700 us,1 B,,SP,4B,Read Transaction,01*
0,19,0:05.156.130,70.100 us,2 B,,SP,4B,Write Transaction,82 01
0,20,0:05.156.201,325.100 us,11 B,,SP,4B,Read Transaction,01 30 94 AA 00 2F 0F 13 00 00 00*
0,21,0:05.188.994,70.100 us,2 B,,SP,4B,Write Transaction,82 01
0,22,0:05.189.065,49.800 us,1 B,,SP,4B,Read Transaction,01*
0,23,0:05.189.117,70.100 us,2 B,,SP,4B,Write Transaction,82 01
0,24,0:05.189.188,325.300 us,11 B,,SP,4B,Read Transaction,01 30 91 B6 00 2F 0F 19 00 00 00*
0,25,0:05.205.464,70.200 us,2 B,,SP,4B,Write Transaction,82 01
0,26,0:05.205.536,49.800 us,1 B,,SP,4B,Read Transaction,01*
0,27,0:05.205.587,70.100 us,2 B,,SP,4B,Write Transaction,82 01
0,28,0:05.205.658,325.200 us,11 B,,SP,4B,Read Transaction,01 30 91 B9 00 30 0F 19 00 00 00*
0,29,0:05.221.959,70.100 us,2 B,,SP,4B,Write Transaction,82 01
0,30,0:05.222.031,49.800 us,1 B,,SP,4B,Read Transaction,01*
0,31,0:05.222.082,70.100 us,2 B,,SP,4B,Write Transaction,82 01
0,32,0:05.222.153,325.300 us,11 B,,SP,4B,Read Transaction,01 30 91 BD 00 30 0F 1E 00 00 00*
0,33,0:05.238.461,70.100 us,2 B,,SP,4B,Write Transaction,82 01
0,34,0:05.238.533,49.800 us,1 B,,SP,4B,Read Transaction,01*
0,35,0:05.238.584,70.100 us,2 B,,SP,4B,Write Transaction,82 01
0,36,0:05.238.655,325.200 us,11 B,,SP,4B,Read Transaction,01 30 91 C3 00 31 0F 1E 00 00 00*
0,37,0:05.254.962,70.100 us,2 B,,SP,4B,Write Transaction,82 01
0,38,0:05.255.034,49.800 us,1 B,,SP,4B,Read Transaction,01*
0,39,0:05.255.085,70.100 us,2 B,,SP,4B,Write Transaction,82 01
0,40,0:05.255.156,325.300 us,11 B,,SP,4B,Read Transaction,01 30 91 CB 00 32 0F 1E 00 00 00*
0,41,0:05.271.456,70.100 us,2 B,,SP,4B,Write Transaction,82 01
0,42,0:05.271.527,49.800 us,1 B,,SP,4B,Read Transaction,01*
0,43,0:05.271.579,70.100 us,2 B,,SP,4B,Write Transaction,82 01
0,44,0:05.271.650,325.400 us,11 B,,SP,4B,Read Transaction,01 30 91 D9 00 32 0F 25 00 00 00*
0,45,0:05.287.972,70.100 us,2 B,,SP,4B,Write Transaction,82 01
0,46,0:05.288.043,49.800 us,1 B,,SP,4B,Read Transaction,01*
0,47,0:05.288.094,70.100 us,2 B,,SP,4B,Write Transaction,82 01
0,48,0:05.288.166,325.500 us,11 B,,SP,4B,Read Transaction,01 30 91 E7 00 34 0F 25 00 00 00*
0,49,0:05.304.473,70.100 us,2 B,,SP,4B,Write Transaction,82 01
0,50,0:05.304.545,49.800 us,1 B,,SP,4B,Read Transaction,01*
0,51,0:05.304.596,70.100 us,2 B,,SP,4B,Write Transaction,82 01
0,52,0:05.304.667,325.200 us,11 B,,SP,4B,Read Transaction,01 30 91 F7 00 34 0F 2C 00 00 00*
0,53,0:05.322.543,70.100 us,2 B,,SP,4B,Write Transaction,82 01
0,54,0:05.322.614,49.800 us,1 B,,SP,4B,Read Transaction,01*
0,55,0:05.322.665,70.100 us,2 B,,SP,4B,Write Transaction,82 01
0,56,0:05.322.737,325.200 us,11 B,,SP,4B,Read Transaction,01 30 91 06 01 35 0F 2C 00 00 00*
0,57,0:05.339.049,70.200 us,2 B,,SP,4B,Write Transaction,82 01
0,58,0:05.339.121,49.700 us,1 B,,SP,4B,Read Transaction,01*
0,59,0:05.339.172,70.200 us,2 B,,SP,4B,Write Transaction,82 01
0,60,0:05.339.243,325.300 us,11 B,,SP,4B,Read Transaction,01 30 91 16 01 35 0F 2C 00 00 00*
0,61,0:05.355.524,70.100 us,2 B,,SP,4B,Write Transaction,82 01
0,62,0:05.355.596,49.800 us,1 B,,SP,4B,Read Transaction,01*
0,63,0:05.355.647,70.100 us,2 B,,SP,4B,Write Transaction,82 01
0,64,0:05.355.718,325.200 us,11 B,,SP,4B,Read Transaction,01 30 91 2C 01 35 0F 34 00 00 00*
0,65,0:05.371.121,70.200 us,2 B,,SP,4B,Write Transaction,82 01
0,66,0:05.371.192,49.700 us,1 B,,SP,4B,Read Transaction,01*
0,67,0:05.371.243,70.100 us,2 B,,SP,4B,Write Transaction,82 01
0,68,0:05.371.315,318.400 us,11 B,,SP,4B,Read Transaction,01 29 12 02 06 01 01 16 00 00 00*
0,69,0:05.372.237,70.100 us,2 B,,SP,4B,Write Transaction,82 01
0,70,0:05.372.309,49.800 us,1 B,,SP,4B,Read Transaction,01*
0,71,0:05.372.360,70.200 us,2 B,,SP,4B,Write Transaction,82 01
0,72,0:05.372.431,325.200 us,11 B,,SP,4B,Read Transaction,01 30 91 44 01 35 0F 39 00 00 00*
0,73,0:05.388.590,70.100 us,2 B,,SP,4B,Write Transaction,82 01
0,74,0:05.388.662,49.800 us,1 B,,SP,4B,Read Transaction,01*
0,75,0:05.388.713,70.100 us,2 B,,SP,4B,Write Transaction,82 01
0,76,0:05.388.784,325.400 us,11 B,,SP,4B,Read Transaction,01 30 91 58 01 33 0F 39 00 00 00*
0,77,0:05.405.100,70.100 us,2 B,,SP,4B,Write Transaction,82 01
0,78,0:05.405.172,49.800 us,1 B,,SP,4B,Read Transaction,01*
0,79,0:05.405.223,70.100 us,2 B,,SP,4B,Write Transaction,82 01
0,80,0:05.405.294,325.400 us,11 B,,SP,4B,Read Transaction,01 30 91 6B 01 31 0F 40 00 00 00*
0,81,0:05.421.601,70.100 us,2 B,,SP,4B,Write Transaction,82 01
0,82,0:05.421.672,49.800 us,1 B,,SP,4B,Read Transaction,01*
0,83,0:05.421.723,70.100 us,2 B,,SP,4B,Write Transaction,82 01
0,84,0:05.421.795,325.100 us,11 B,,SP,4B,Read Transaction,01 30 91 7B 01 2E 0F 40 00 00 00*
0,85,0:05.438.100,70.100 us,2 B,,SP,4B,Write Transaction,82 01
0,86,0:05.438.171,49.800 us,1 B,,SP,4B,Read Transaction,01*
0,87,0:05.438.222,70.100 us,2 B,,SP,4B,Write Transaction,82 01
0,88,0:05.438.294,325.000 us,11 B,,SP,4B,Read Transaction,01 30 91 8D 01 2A 0F 40 00 00 00*
0,89,0:05.454.570,70.100 us,2 B,,SP,4B,Write Transaction,82 01
0,90,0:05.454.641,49.800 us,1 B,,SP,4B,Read Transaction,01*
0,91,0:05.454.692,70.100 us,2 B,,SP,4B,Write Transaction,82 01
0,92,0:05.454.764,325.400 us,11 B,,SP,4B,Read Transaction,01 30 91 A0 01 26 0F 48 00 00 00*
0,93,0:05.471.086,70.100 us,2 B,,SP,4B,Write Transaction,82 01
0,94,0:05.471.157,49.800 us,1 B,,SP,4B,Read Transaction,01*
0,95,0:05.471.208,70.100 us,2 B,,SP,4B,Write Transaction,82 01
0,96,0:05.471.280,325.400 us,11 B,,SP,4B,Read Transaction,01 30 91 B3 01 22 0F 48 00 00 00*
0,97,0:05.489.175,70.100 us,2 B,,SP,4B,Write Transaction,82 01
0,98,0:05.489.247,49.800 us,1 B,,SP,4B,Read Transaction,01*
0,99,0:05.489.298,70.100 us,2 B,,SP,4B,Write Transaction,82 01
0,100,0:05.489.369,325.300 us,11 B,,SP,4B,Read Transaction,01 30 91 C5 01 1D 0F 4E 00 00 00*
0,101,0:05.505.708,70.200 us,2 B,,SP,4B,Write Transaction,82 01
0,102,0:05.505.779,49.800 us,1 B,,SP,4B,Read Transaction,01*
0,103,0:05.505.830,70.100 us,2 B,,SP,4B,Write Transaction,82 01
0,104,0:05.505.902,324.800 us,11 B,,SP,4B,Read Transaction,01 30 91 D6 01 18 0F 4E 00 00 00*
0,105,0:05.522.170,70.200 us,2 B,,SP,4B,Write Transaction,82 01
0,106,0:05.522.242,49.700 us,1 B,,SP,4B,Read Transaction,01*
0,107,0:05.522.293,70.200 us,2 B,,SP,4B,Write Transaction,82 01
0,108,0:05.522.364,325.600 us,11 B,,SP,4B,Read Transaction,01 30 91 E8 01 12 0F 4E 00 00 00*
0,109,0:05.538.674,70.100 us,2 B,,SP,4B,Write Transaction,82 01
0,110,0:05.538.746,49.800 us,1 B,,SP,4B,Read Transaction,01*
0,111,0:05.538.797,70.100 us,2 B,,SP,4B,Write Transaction,82 01
0,112,0:05.538.868,325.300 us,11 B,,SP,4B,Read Transaction,01 30 91 FA 01 0C 0F 4E 00 00 00*
0,113,0:05.555.172,70.100 us,2 B,,SP,4B,Write Transaction,82 01
0,114,0:05.555.244,49.800 us,1 B,,SP,4B,Read Transaction,01*
0,115,0:05.555.295,70.100 us,2 B,,SP,4B,Write Transaction,82 01
0,116,0:05.555.366,325.300 us,11 B,,SP,4B,Read Transaction,01 30 91 0F 02 03 0F 53 00 00 00*
0,117,0:05.571.757,70.100 us,2 B,,SP,4B,Write Transaction,82 01
0,118,0:05.571.829,49.800 us,1 B,,SP,4B,Read Transaction,01*
0,119,0:05.571.880,70.100 us,2 B,,SP,4B,Write Transaction,82 01
0,120,0:05.571.951,325.400 us,11 B,,SP,4B,Read Transaction,01 30 91 22 02 FA 0E 5F 00 00 00*
0,121,0:05.588.176,70.200 us,2 B,,SP,4B,Write Transaction,82 01
0,122,0:05.588.247,49.700 us,1 B,,SP,4B,Read Transaction,01*
0,123,0:05.588.298,70.200 us,2 B,,SP,4B,Write Transaction,82 01
0,124,0:05.588.370,325.300 us,11 B,,SP,4B,Read Transaction,01 30 91 32 02 EF 0E 5F 00 00 00*
0,125,0:05.604.680,70.100 us,2 B,,SP,4B,Write Transaction,82 01
0,126,0:05.604.751,49.800 us,1 B,,SP,4B,Read Transaction,01*
0,127,0:05.604.802,70.100 us,2 B,,SP,4B,Write Transaction,82 01
0,128,0:05.604.874,325.200 us,11 B,,SP,4B,Read Transaction,01 30 91 42 02 E4 0E 5F 00 00 00*
0,129,0:05.621.188,70.100 us,2 B,,SP,4B,Write Transaction,82 01
0,130,0:05.621.259,49.800 us,1 B,,SP,4B,Read Transaction,01*
0,131,0:05.621.310,70.100 us,2 B,,SP,4B,Write Transaction,82 01
0,132,0:05.621.382,325.300 us,11 B,,SP,4B,Read Transaction,01 30 91 50 02 D8 0E 5F 00 00 00*
0,133,0:05.637.691,70.100 us,2 B,,SP,4B,Write Transaction,82 01
0,134,0:05.637.762,49.800 us,1 B,,SP,4B,Read Transaction,01*
0,135,0:05.637.813,70.100 us,2 B,,SP,4B,Write Transaction,82 01
0,136,0:05.637.885,324.900 us,11 B,,SP,4B,Read Transaction,01 30 91 5F 02 CB 0E 5F 00 00 00*
0,137,0:05.655.791,70.100 us,2 B,,SP,4B,Write Transaction,82 01
0,138,0:05.655.863,49.800 us,1 B,,SP,4B,Read Transaction,01*
0,139,0:05.655.914,70.100 us,2 B,,SP,4B,Write Transaction,82 01
0,140,0:05.655.985,325.300 us,11 B,,SP,4B,Read Transaction,01 30 91 6E 02 BD 0E 5F 00 00 00*
0,141,0:05.672.315,70.200 us,2 B,,SP,4B,Write Transaction,82 01
0,142,0:05.672.386,49.800 us,1 B,,SP,4B,Read Transaction,01*
0,143,0:05.672.437,70.100 us,2 B,,SP,4B,Write Transaction,82 01
0,144,0:05.672.508,325.500 us,11 B,,SP,4B,Read Transaction,01 30 91 7E 02 AE 0E 5F 00 00 00*
0,145,0:05.688.813,70.100 us,2 B,,SP,4B,Write Transaction,82 01
0,146,0:05.688.885,49.800 us,1 B,,SP,4B,Read Transaction,01*
0,147,0:05.688.936,70.100 us,2 B,,SP,4B,Write Transaction,82 01
0,148,0:05.689.007,325.300 us,11 B,,SP,4B,Read Transaction,01 30 91 90 02 9E 0E 5F 00 00 00*
0,149,0:05.705.331,70.100 us,2 B,,SP,4B,Write Transaction,82 01
0,150,0:05.705.402,49.800 us,1 B,,SP,4B,Read Transaction,01*
0,151,0:05.705.453,70.100 us,2 B,,SP,4B,Write Transaction,82 01
0,152,0:05.705.524,324.900 us,11 B,,SP,4B,Read Transaction,01 30 91 A1 02 8F 0E 5F 00 00 00*
0,153,0:05.721.829,70.200 us,2 B,,SP,4B,Write Transaction,82 01
0,154,0:05.721.901,49.800 us,1 B,,SP,4B,Read Transaction,01*
0,155,0:05.721.952,70.200 us,2 B,,SP,4B,Write Transaction,82 01
0,156,0:05.722.023,325.200 us,11 B,,SP,4B,Read Transaction,01 30 91 B0 02 80 0E 5F 00 00 00*
0,157,0:05.738.334,70.100 us,2 B,,SP,4B,Write Transaction,82 01
0,158,0:05.738.405,49.800 us,1 B,,SP,4B,Read Transaction,01*
0,159,0:05.738.456,70.100 us,2 B,,SP,4B,Write Transaction,82 01
0,160,0:05.738.528,325.400 us,11 B,,SP,4B,Read Transaction,01 30 91 BF 02 71 0E 5F 00 00 00*
0,161,0:05.754.853,70.100 us,2 B,,SP,4B,Write Transaction,82 01
0,162,0:05.754.925,49.800 us,1 B,,SP,4B,Read Transaction,01*
0,163,0:05.754.976,70.100 us,2 B,,SP,4B,Write Transaction,82 01
0,164,0:05.755.047,325.400 us,11 B,,SP,4B,Read Transaction,01 30 91 CF 02 5F 0E 5F 00 00 00*
0,165,0:05.771.437,70.100 us,2 B,,SP,4B,Write Transaction,82 01
0,166,0:05.771.508,49.800 us,1 B,,SP,4B,Read Transaction,01*
0,167,0:05.771.559,70.100 us,2 B,,SP,4B,Write Transaction,82 01
0,168,0:05.771.631,325.400 us,11 B,,SP,4B,Read Transaction,01 30 91 E2 02 4A 0E 5F 00 00 00*
0,169,0:05.787.847,70.200 us,2 B,,SP,4B,Write Transaction,82 01
0,170,0:05.787.918,49.800 us,1 B,,SP,4B,Read Transaction,01*
0,171,0:05.787.969,70.200 us,2 B,,SP,4B,Write Transaction,82 01
0,172,0:05.788.041,325.500 us,11 B,,SP,4B,Read Transaction,01 30 91 F4 02 37 0E 5F 00 00 00*
0,173,0:05.804.365,70.100 us,2 B,,SP,4B,Write Transaction,82 01
0,174,0:05.804.436,49.800 us,1 B,,SP,4B,Read Transaction,01*
0,175,0:05.804.487,70.100 us,2 B,,SP,4B,Write Transaction,82 01
0,176,0:05.804.559,324.900 us,11 B,,SP,4B,Read Transaction,01 30 91 04 03 26 0E 64 00 00 00*
0,177,0:05.822.481,70.200 us,2 B,,SP,4B,Write Transaction,82 01
0,178,0:05.822.552,49.800 us,1 B,,SP,4B,Read Transaction,01*
0,179,0:05.822.604,70.200 us,2 B,,SP,4B,Write Transaction,82 01
0,180,0:05.822.675,325.600 us,11 B,,SP,4B,Read Transaction,01 30 91 14 03 14 0E 64 00 00 00*
0,181,0:05.839.013,70.100 us,2 B,,SP,4B,Write Transaction,82 01
0,182,0:05.839.084,49.800 us,1 B,,SP,4B,Read Transaction,01*
0,183,0:05.839.135,70.100 us,2 B,,SP,4B,Write Transaction,82 01
0,184,0:05.839.206,325.500 us,11 B,,SP,4B,Read Transaction,01 30 91 24 03 FF 0D 64 00 00 00*
0,185,0:05.855.530,70.100 us,2 B,,SP,4B,Write Transaction,82 01
0,186,0:05.855.602,49.800 us,1 B,,SP,4B,Read Transaction,01*
0,187,0:05.855.653,70.100 us,2 B,,SP,4B,Write Transaction,82 01
0,188,0:05.855.724,325.400 us,11 B,,SP,4B,Read Transaction,01 30 91 35 03 EA 0D 5C 00 00 00*
0,189,0:05.872.031,70.100 us,2 B,,SP,4B,Write Transaction,82 01
0,190,0:05.872.102,49.800 us,1 B,,SP,4B,Read Transaction,01*
0,191,0:05.872.153,70.100 us,2 B,,SP,4B,Write Transaction,82 01
0,192,0:05.872.225,325.300 us,11 B,,SP,4B,Read Transaction,01 30 91 48 03 D0 0D 5C 00 00 00*
0,193,0:05.888.524,70.200 us,2 B,,SP,4B,Write Transaction,82 01
0,194,0:05.888.595,49.800 us,1 B,,SP,4B,Read Transaction,01*
0,195,0:05.888.646,70.200 us,2 B,,SP,4B,Write Transaction,82 01
0,196,0:05.888.718,325.400 us,11 B,,SP,4B,Read Transaction,01 30 91 5D 03 B4 0D 61 00 00 00*
0,197,0:05.905.006,70.200 us,2 B,,SP,4B,Write Transaction,82 01
0,198,0:05.905.077,49.800 us,1 B,,SP,4B,Read Transaction,01*
0,199,0:05.905.128,70.200 us,2 B,,SP,4B,Write Transaction,82 01
0,200,0:05.905.200,325.200 us,11 B,,SP,4B,Read Transaction,01 30 91 6D 03 9E 0D 61 00 00 00*
0,201,0:05.921.506,70.100 us,2 B,,SP,4B,Write Transaction,82 01
0,202,0:05.921.578,49.800 us,1 B,,SP,4B,Read Transaction,01*
0,203,0:05.921.629,70.100 us,2 B,,SP,4B,Write Transaction,82 01
0,204,0:05.921.700,325.500 us,11 B,,SP,4B,Read Transaction,01 30 91 7B 03 8A 0D 61 00 00 00*
0,205,0:05.938.008,70.100 us,2 B,,SP,4B,Write Transaction,82 01
0,206,0:05.938.079,49.800 us,1 B,,SP,4B,Read Transaction,01*
0,207,0:05.938.130,70.100 us,2 B,,SP,4B,Write Transaction,82 01
0,208,0:05.938.202,324.500 us,11 B,,SP,4B,Read Transaction,01 30 91 88 03 77 0D 66 00 00 00*
0,209,0:05.954.604,70.200 us,2 B,,SP,4B,Write Transaction,82 01
0,210,0:05.954.675,49.800 us,1 B,,SP,4B,Read Transaction,01*
0,211,0:05.954.726,70.200 us,2 B,,SP,4B,Write Transaction,82 01
0,212,0:05.954.798,325.600 us,11 B,,SP,4B,Read Transaction,01 30 91 95 03 64 0D 66 00 00 00*
0,213,0:05.971.028,70.100 us,2 B,,SP,4B,Write Transaction,82 01
0,214,0:05.971.100,49.800 us,1 B,,SP,4B,Read Transaction,01*
0,215,0:05.971.151,70.100 us,2 B,,SP,4B,Write Transaction,82 01
0,216,0:05.971.222,325.500 us,11 B,,SP,4B,Read Transaction,01 30 91 A2 03 51 0D 66 00 00 00*
0,217,0:05.989.183,70.100 us,2 B,,SP,4B,Write Transaction,82 01
0,218,0:05.989.254,49.800 us,1 B,,SP,4B,Read Transaction,01*
0,219,0:05.989.305,70.100 us,2 B,,SP,4B,Write Transaction,82 01
0,220,0:05.989.377,325.500 us,11 B,,SP,4B,Read Transaction,01 30 91 B1 03 3C 0D 66 00 00 00*
0,221,0:06.005.705,70.200 us,2 B,,SP,4B,Write Transaction,82 01
0,222,0:06.005.776,49.800 us,1 B,,SP,4B,Read Transaction,01*
0,223,0:06.005.828,70.100 us,2 B,,SP,4B,Write Transaction,82 01
0,224,0:06.005.899,325.500 us,11 B,,SP,4B,Read Transaction,01 30 91 C1 03 27 0D 66 00 00 00*
0,225,0:06.022.207,70.100 us,2 B,,SP,4B,Write Transaction,82 01
0,226,0:06.022.278,49.800 us,1 B,,SP,4B,Read Transaction,01*
0,227,0:06.022.329,70.200 us,2 B,,SP,4B,Write Transaction,82 01
0,228,0:06.022.401,325.100 us,11 B,,SP,4B,Read Transaction,01 30 91 D1 03 12 0D 66 00 00 00*
0,229,0:06.038.707,70.100 us,2 B,,SP,4B,Write Transaction,82 01
0,230,0:06.038.779,49.700 us,1 B,,SP,4B,Read Transaction,01*
0,231,0:06.038.830,70.200 us,2 B,,SP,4B,Write Transaction,82 01
0,232,0:06.038.901,325.000 us,11 B,,SP,4B,Read Transaction,01 30 91 DF 03 FF 0C 66 00 00 00*
0,233,0:06.055.208,70.100 us,2 B,,SP,4B,Write Transaction,82 01
0,234,0:06.055.280,49.800 us,1 B,,SP,4B,Read Transaction,01*
0,235,0:06.055.331,70.100 us,2 B,,SP,4B,Write Transaction,82 01
0,236,0:06.055.402,325.500 us,11 B,,SP,4B,Read Transaction,01 30 91 EC 03 EC 0C 6B 00 00 00*
0,237,0:06.071.696,70.100 us,2 B,,SP,4B,Write Transaction,82 01
0,238,0:06.071.767,49.800 us,1 B,,SP,4B,Read Transaction,01*
0,239,0:06.071.819,70.100 us,2 B,,SP,4B,Write Transaction,82 01
0,240,0:06.071.890,325.500 us,11 B,,SP,4B,Read Transaction,01 30 91 F8 03 D9 0C 6B 00 00 00*
0,241,0:06.088.200,70.200 us,2 B,,SP,4B,Write Transaction,82 01
0,242,0:06.088.271,49.700 us,1 B,,SP,4B,Read Transaction,01*
0,243,0:06.088.322,70.200 us,2 B,,SP,4B,Write Transaction,82 01
0,244,0:06.088.394,325.400 us,11 B,,SP,4B,Read Transaction,01 30 91 03 04 C7 0C 6B 00 00 00*
0,245,0:06.104.702,70.200 us,2 B,,SP,4B,Write Transaction,82 01
0,246,0:06.104.774,49.800 us,1 B,,SP,4B,Read Transaction,01*
0,247,0:06.104.825,70.100 us,2 B,,SP,4B,Write Transaction,82 01
0,248,0:06.104.896,325.500 us,11 B,,SP,4B,Read Transaction,01 30 91 0E 04 B7 0C 6B 00 00 00*
0,249,0:06.121.205,70.100 us,2 B,,SP,4B,Write Transaction,82 01
0,250,0:06.121.277,49.800 us,1 B,,SP,4B,Read Transaction,01*
0,251,0:06.121.328,70.100 us,2 B,,SP,4B,Write Transaction,82 01
0,252,0:06.121.399,324.100 us,11 B,,SP,4B,Read Transaction,01 30 91 18 04 A7 0C 6B 00 00 00*
0,253,0:06.137.701,70.100 us,2 B,,SP,4B,Write Transaction,82 01
0,254,0:06.137.772,49.800 us,1 B,,SP,4B,Read Transaction,01*
0,255,0:06.137.823,70.100 us,2 B,,SP,4B,Write Transaction,82 01
0,256,0:06.137.894,325.500 us,11 B,,SP,4B,Read Transaction,01 30 91 23 04 97 0C 6B 00 00 00*
0,257,0:06.155.862,70.100 us,2 B,,SP,4B,Write Transaction,82 01
0,258,0:06.155.933,49.800 us,1 B,,SP,4B,Read Transaction,01*
0,259,0:06.155.984,70.100 us,2 B,,SP,4B,Write Transaction,82 01
0,260,0:06.156.055,324.000 us,11 B,,SP,4B,Read Transaction,01 30 91 2F 04 87 0C 6B 00 00 00*
0,261,0:06.172.325,70.100 us,2 B,,SP,4B,Write Transaction,82 01
0,262,0:06.172.397,49.800 us,1 B,,SP,4B,Read Transaction,01*
0,263,0:06.172.448,70.100 us,2 B,,SP,4B,Write Transaction,82 01
0,264,0:06.172.519,325.300 us,11 B,,SP,4B,Read Transaction,01 30 91 3A 04 77 0C 6B 00 00 00*
0,265,0:06.188.811,70.200 us,2 B,,SP,4B,Write Transaction,82 01
0,266,0:06.188.883,49.800 us,1 B,,SP,4B,Read Transaction,01*
0,267,0:06.188.934,70.100 us,2 B,,SP,4B,Write Transaction,82 01
0,268,0:06.189.005,325.400 us,11 B,,SP,4B,Read Transaction,01 30 91 46 04 67 0C 6B 00 00 00*
0,269,0:06.205.313,70.100 us,2 B,,SP,4B,Write Transaction,82 01
0,270,0:06.205.384,49.800 us,1 B,,SP,4B,Read Transaction,01*
0,271,0:06.205.435,70.100 us,2 B,,SP,4B,Write Transaction,82 01
0,272,0:06.205.507,325.300 us,11 B,,SP,4B,Read Transaction,01 30 91 51 04 57 0C 6B 00 00 00*
0,273,0:06.221.817,70.100 us,2 B,,SP,4B,Write Transaction,82 01
0,274,0:06.221.888,49.800 us,1 B,,SP,4B,Read Transaction,01*
0,275,0:06.221.939,70.200 us,2 B,,SP,4B,Write Transaction,82 01
0,276,0:06.222.011,324.200 us,11 B,,SP,4B,Read Transaction,01 30 91 5B 04 46 0C 6B 00 00 00*
0,277,0:06.238.324,70.100 us,2 B,,SP,4B,Write Transaction,82 01
0,278,0:06.238.396,49.800 us,1 B,,SP,4B,Read Transaction,01*
0,279,0:06.238.447,70.100 us,2 B,,SP,4B,Write Transaction,82 01
0,280,0:06.238.518,325.400 us,11 B,,SP,4B,Read Transaction,01 30 91 66 04 35 0C 6B 00 00 00*
0,281,0:06.254.830,70.200 us,2 B,,SP,4B,Write Transaction,82 01
0,282,0:06.254.901,49.700 us,1 B,,SP,4B,Read Transaction,01*
0,283,0:06.254.952,70.100 us,2 B,,SP,4B,Write Transaction,82 01
0,284,0:06.255.024,325.400 us,11 B,,SP,4B,Read Transaction,01 30 91 71 04 23 0C 6B 00 00 00*
0,285,0:06.271.314,70.200 us,2 B,,SP,4B,Write Transaction,82 01
0,286,0:06.271.386,49.700 us,1 B,,SP,4B,Read Transaction,01*
0,287,0:06.271.437,70.100 us,2 B,,SP,4B,Write Transaction,82 01
0,288,0:06.271.508,325.300 us,11 B,,SP,4B,Read Transaction,01 30 91 7E 04 0F 0C 6B 00 00 00*
0,289,0:06.287.788,70.100 us,2 B,,SP,4B,Write Transaction,82 01
0,290,0:06.287.859,49.800 us,1 B,,SP,4B,Read Transaction,01*
0,291,0:06.287.910,70.100 us,2 B,,SP,4B,Write Transaction,82 01
0,292,0:06.287.982,325.400 us,11 B,,SP,4B,Read Transaction,01 30 91 8D 04 FC 0B 6B 00 00 00*
0,293,0:06.304.254,70.200 us,2 B,,SP,4B,Write Transaction,82 01
0,294,0:06.304.326,49.700 us,1 B,,SP,4B,Read Transaction,01*
0,295,0:06.304.377,70.200 us,2 B,,SP,4B,Write Transaction,82 01
0,296,0:06.304.448,325.600 us,11 B,,SP,4B,Read Transaction,01 30 91 9C 04 E9 0B 6B 00 00 00*
0,297,0:06.322.344,70.100 us,2 B,,SP,4B,Write Transaction,82 01
0,298,0:06.322.416,49.800 us,1 B,,SP,4B,Read Transaction,01*
0,299,0:06.322.467,70.100 us,2 B,,SP,4B,Write Transaction,82 01
0,300,0:06.322.538,325.200 us,11 B,,SP,4B,Read Transaction,01 30 91 AC 04 D4 0B 6B 00 00 00*
0,301,0:06.338.881,70.200 us,2 B,,SP,4B,Write Transaction,82 01
0,302,0:06.338.952,49.800 us,1 B,,SP,4B,Read Transaction,01*
0,303,0:06.339.003,70.200 us,2 B,,SP,4B,Write Transaction,82 01
0,304,0:06.339.074,325.100 us,11 B,,SP,4B,Read Transaction,01 30 91 BB 04 BF 0B 6B 00 00 00*
0,305,0:06.355.496,70.100 us,2 B,,SP,4B,Write Transaction,82 01
0,306,0:06.355.568,49.800 us,1 B,,SP,4B,Read Transaction,01*
0,307,0:06.355.619,70.100 us,2 B,,SP,4B,Write Transaction,82 01
0,308,0:06.355.690,325.100 us,11 B,,SP,4B,Read Transaction,01 30 91 CB 04 A6 0B 6B 00 00 00*
0,309,0:06.371.880,70.100 us,2 B,,SP,4B,Write Transaction,82 01
0,310,0:06.371.952,49.800 us,1 B,,SP,4B,Read Transaction,01*
0,311,0:06.372.003,70.100 us,2 B,,SP,4B,Write Transaction,82 01
0,312,0:06.372.074,325.400 us,11 B,,SP,4B,Read Transaction,01 30 91 DA 04 8F 0B 6B 00 00 00*
0,313,0:06.388.363,70.100 us,2 B,,SP,4B,Write Transaction,82 01
0,314,0:06.388.435,49.800 us,1 B,,SP,4B,Read Transaction,01*
0,315,0:06.388.486,70.100 us,2 B,,SP,4B,Write Transaction,82 01
0,316,0:06.388.557,325.300 us,11 B,,SP,4B,Read Transaction,01 30 91 ED 04 72 0B 6B 00 00 00*
0,317,0:06.404.857,70.100 us,2 B,,SP,4B,Write Transaction,82 01
0,318,0:06.404.928,49.800 us,1 B,,SP,4B,Read Transaction,01*
0,319,0:06.404.979,70.100 us,2 B,,SP,4B,Write Transaction,82 01
0,320,0:06.405.051,325.400 us,11 B,,SP,4B,Read Transaction,01 30 91 02 05 54 0B 70 00 00 00*
0,321,0:06.421.384,70.100 us,2 B,,SP,4B,Write Transaction,82 01
0,322,0:06.421.456,49.800 us,1 B,,SP,4B,Read Transaction,01*
0,323,0:06.421.507,70.100 us,2 B,,SP,4B,Write Transaction,82 01
0,324,0:06.421.578,325.100 us,11 B,,SP,4B,Read Transaction,01 30 91 18 05 36 0B 70 00 00 00*
0,325,0:06.437.901,70.100 us,2 B,,SP,4B,Write Transaction,82 01
0,326,0:06.437.972,49.800 us,1 B,,SP,4B,Read Transaction,01*
0,327,0:06.438.023,70.100 us,2 B,,SP,4B,Write Transaction,82 01
0,328,0:06.438.095,325.100 us,11 B,,SP,4B,Read Transaction,01 30 91 2E 05 14 0B 68 00 00 00*
0,329,0:06.454.387,70.100 us,2 B,,SP,4B,Write Transaction,82 01
0,330,0:06.454.458,49.800 us,1 B,,SP,4B,Read Transaction,01*
0,331,0:06.454.509,70.100 us,2 B,,SP,4B,Write Transaction,82 01
0,332,0:06.454.581,325.500 us,11 B,,SP,4B,Read Transaction,01 30 91 45 05 F2 0A 68 00 00 00*
0,333,0:06.470.881,70.100 us,2 B,,SP,4B,Write Transaction,82 01
0,334,0:06.470.953,49.800 us,1 B,,SP,4B,Read Transaction,01*
0,335,0:06.471.004,70.100 us,2 B,,SP,4B,Write Transaction,82 01
0,336,0:06.471.075,325.200 us,11 B,,SP,4B,Read Transaction,01 30 91 62 05 CB 0A 6D 00 00 00*
0,337,0:06.488.949,70.100 us,2 B,,SP,4B,Write Transaction,82 01
0,338,0:06.489.020,49.800 us,1 B,,SP,4B,Read Transaction,01*
0,339,0:06.489.071,70.100 us,2 B,,SP,4B,Write Transaction,82 01
0,340,0:06.489.143,325.200 us,11 B,,SP,4B,Read Transaction,01 30 91 79 05 AB 0A 6D 00 00 00*
0,341,0:06.505.467,70.100 us,2 B,,SP,4B,Write Transaction,82 01
0,342,0:06.505.538,49.800 us,1 B,,SP,4B,Read Transaction,01*
0,343,0:06.505.589,70.200 us,2 B,,SP,4B,Write Transaction,82 01
0,344,0:06.505.661,325.100 us,11 B,,SP,4B,Read Transaction,01 30 91 8E 05 8F 0A 6D 00 00 00*
0,345,0:06.521.943,70.100 us,2 B,,SP,4B,Write Transaction,82 01
0,346,0:06.522.015,49.800 us,1 B,,SP,4B,Read Transaction,01*
0,347,0:06.522.066,70.200 us,2 B,,SP,4B,Write Transaction,82 01
0,348,0:06.522.137,325.400 us,11 B,,SP,4B,Read Transaction,01 30 91 A4 05 72 0A 6D 00 00 00*
0,349,0:06.538.453,70.100 us,2 B,,SP,4B,Write Transaction,82 01
0,350,0:06.538.524,49.800 us,1 B,,SP,4B,Read Transaction,01*
0,351,0:06.538.575,70.100 us,2 B,,SP,4B,Write Transaction,82 01
0,352,0:06.538.647,325.300 us,11 B,,SP,4B,Read Transaction,01 30 91 BC 05 56 0A 6D 00 00 00*
0,353,0:06.555.056,70.100 us,2 B,,SP,4B,Write Transaction,82 01
0,354,0:06.555.127,49.700 us,1 B,,SP,4B,Read Transaction,01*
0,355,0:06.555.178,70.200 us,2 B,,SP,4B,Write Transaction,82 01
0,356,0:06.555.250,325.300 us,11 B,,SP,4B,Read Transaction,01 30 91 D7 05 38 0A 6D 00 00 00*
0,357,0:06.571.465,70.200 us,2 B,,SP,4B,Write Transaction,82 01
0,358,0:06.571.536,49.700 us,1 B,,SP,4B,Read Transaction,01*
0,359,0:06.571.587,70.200 us,2 B,,SP,4B,Write Transaction,82 01
0,360,0:06.571.659,325.100 us,11 B,,SP,4B,Read Transaction,01 30 91 EE 05 1D 0A 6D 00 00 00*
0,361,0:06.587.964,70.100 us,2 B,,SP,4B,Write Transaction,82 01
0,362,0:06.588.035,49.800 us,1 B,,SP,4B,Read Transaction,01*
0,363,0:06.588.086,70.100 us,2 B,,SP,4B,Write Transaction,82 01
0,364,0:06.588.158,325.000 us,11 B,,SP,4B,Read Transaction,01 30 91 03 06 03 0A 6D 00 00 00*
0,365,0:06.604.462,70.200 us,2 B,,SP,4B,Write Transaction,82 01
0,366,0:06.604.533,49.800 us,1 B,,SP,4B,Read Transaction,01*
0,367,0:06.604.585,70.200 us,2 B,,SP,4B,Write Transaction,82 01
0,368,0:06.604.656,324.900 us,11 B,,SP,4B,Read Transaction,01 30 91 19 06 E8 09 6D 00 00 00*
0,369,0:06.620.913,70.100 us,2 B,,SP,4B,Write Transaction,82 01
0,370,0:06.620.985,49.800 us,1 B,,SP,4B,Read Transaction,01*
0,371,0:06.621.036,70.100 us,2 B,,SP,4B,Write Transaction,82 01
0,372,0:06.621.107,325.400 us,11 B,,SP,4B,Read Transaction,01 30 91 2F 06 D1 09 6D 00 00 00*
0,373,0:06.637.378,70.100 us,2 B,,SP,4B,Write Transaction,82 01
0,374,0:06.637.450,49.800 us,1 B,,SP,4B,Read Transaction,01*
0,375,0:06.637.501,70.100 us,2 B,,SP,4B,Write Transaction,82 01
0,376,0:06.637.572,325.000 us,11 B,,SP,4B,Read Transaction,01 30 91 43 06 BC 09 72 00 00 00*
0,377,0:06.655.509,70.200 us,2 B,,SP,4B,Write Transaction,82 01
0,378,0:06.655.580,49.800 us,1 B,,SP,4B,Read Transaction,01*
0,379,0:06.655.631,70.200 us,2 B,,SP,4B,Write Transaction,82 01
0,380,0:06.655.703,325.200 us,11 B,,SP,4B,Read Transaction,01 30 91 54 06 A9 09 72 00 00 00*
0,381,0:06.672.035,70.100 us,2 B,,SP,4B,Write Transaction,82 01
0,382,0:06.672.106,49.700 us,1 B,,SP,4B,Read Transaction,01*
0,383,0:06.672.158,70.100 us,2 B,,SP,4B,Write Transaction,82 01
0,384,0:06.672.229,325.100 us,11 B,,SP,4B,Read Transaction,01 30 91 65 06 95 09 72 00 00 00*
0,385,0:06.688.533,70.100 us,2 B,,SP,4B,Write Transaction,82 01
0,386,0:06.688.605,49.800 us,1 B,,SP,4B,Read Transaction,01*
0,387,0:06.688.656,70.200 us,2 B,,SP,4B,Write Transaction,82 01
0,388,0:06.688.727,325.200 us,11 B,,SP,4B,Read Transaction,01 30 91 75 06 82 09 6A 00 00 00*
0,389,0:06.705.030,70.100 us,2 B,,SP,4B,Write Transaction,82 01
0,390,0:06.705.102,49.800 us,1 B,,SP,4B,Read Transaction,01*
0,391,0:06.705.153,70.100 us,2 B,,SP,4B,Write Transaction,82 01
0,392,0:06.705.224,325.500 us,11 B,,SP,4B,Read Transaction,01 30 91 86 06 6F 09 6A 00 00 00*
0,393,0:06.721.530,70.100 us,2 B,,SP,4B,Write Transaction,82 01
0,394,0:06.721.602,49.800 us,1 B,,SP,4B,Read Transaction,01*
0,395,0:06.721.653,70.100 us,2 B,,SP,4B,Write Transaction,82 01
0,396,0:06.721.724,325.300 us,11 B,,SP,4B,Read Transaction,01 30 91 9B 06 57 09 6A 00 00 00*
0,397,0:06.738.116,70.100 us,2 B,,SP,4B,Write Transaction,82 01
0,398,0:06.738.188,49.800 us,1 B,,SP,4B,Read Transaction,01*
0,399,0:06.738.239,70.100 us,2 B,,SP,4B,Write Transaction,82 01
0,400,0:06.738.310,325.500 us,11 B,,SP,4B,Read Transaction,01 30 91 AF 06 41 09 71 00 00 00*
0,401,0:06.754.526,70.200 us,2 B,,SP,4B,Write Transaction,82 01
0,402,0:06.754.597,49.800 us,1 B,,SP,4B,Read Transaction,01*
0,403,0:06.754.648,70.200 us,2 B,,SP,4B,Write Transaction,82 01
0,404,0:06.754.719,325.500 us,11 B,,SP,4B,Read Transaction,01 30 91 C1 06 2B 09 71 00 00 00*
0,405,0:06.771.005,70.100 us,2 B,,SP,4B,Write Transaction,82 01
0,406,0:06.771.077,49.800 us,1 B,,SP,4B,Read Transaction,01*
0,407,0:06.771.128,70.100 us,2 B,,SP,4B,Write Transaction,82 01
0,408,0:06.771.199,325.500 us,11 B,,SP,4B,Read Transaction,01 30 91 D2 06 16 09 71 00 00 00*
0,409,0:06.787.523,70.200 us,2 B,,SP,4B,Write Transaction,82 01
0,410,0:06.787.595,49.900 us,1 B,,SP,4B,Read Transaction,01*
0,411,0:06.787.646,70.100 us,2 B,,SP,4B,Write Transaction,82 01
0,412,0:06.787.717,325.500 us,11 B,,SP,4B,Read Transaction,01 30 91 E2 06 02 09 6C 00 00 00*
0,413,0:06.804.005,70.100 us,2 B,,SP,4B,Write Transaction,82 01
0,414,0:06.804.077,49.800 us,1 B,,SP,4B,Read Transaction,01*
0,415,0:06.804.128,70.100 us,2 B,,SP,4B,Write Transaction,82 01
0,416,0:06.804.199,325.300 us,11 B,,SP,4B,Read Transaction,01 30 91 F3 06 ED 08 6C 00 00 00*
0,417,0:06.822.181,70.100 us,2 B,,SP,4B,Write Transaction,82 01
0,418,0:06.822.252,49.800 us,1 B,,SP,4B,Read Transaction,01*
0,419,0:06.822.303,70.100 us,2 B,,SP,4B,Write Transaction,82 01
0,420,0:06.822.375,325.200 us,11 B,,SP,4B,Read Transaction,01 30 91 06 07 D9 08 71 00 00 00*
0,421,0:06.838.711,70.100 us,2 B,,SP,4B,Write Transaction,82 01
0,422,0:06.838.782,49.800 us,1 B,,SP,4B,Read Transaction,01*
0,423,0:06.838.833,70.100 us,2 B,,SP,4B,Write Transaction,82 01
0,424,0:06.838.905,325.100 us,11 B,,SP,4B,Read Transaction,01 30 91 18 07 C5 08 71 00 00 00*
0,425,0:06.855.236,70.100 us,2 B,,SP,4B,Write Transaction,82 01
0,426,0:06.855.308,49.800 us,1 B,,SP,4B,Read Transaction,01*
0,427,0:06.855.359,70.100 us,2 B,,SP,4B,Write Transaction,82 01
0,428,0:06.855.430,325.300 us,11 B,,SP,4B,Read Transaction,01 30 91 2C 07 AC 08 71 00 00 00*
0,429,0:06.871.718,70.100 us,2 B,,SP,4B,Write Transaction,82 01
0,430,0:06.871.790,49.800 us,1 B,,SP,4B,Read Transaction,01*
0,431,0:06.871.841,70.100 us,2 B,,SP,4B,Write Transaction,82 01
0,432,0:06.871.912,325.200 us,11 B,,SP,4B,Read Transaction,01 30 91 3E 07 92 08 71 00 00 00*
0,433,0:06.888.218,70.200 us,2 B,,SP,4B,Write Transaction,82 01
0,434,0:06.888.289,49.800 us,1 B,,SP,4B,Read Transaction,01*
0,435,0:06.888.340,70.200 us,2 B,,SP,4B,Write Transaction,82 01
0,436,0:06.888.412,325.400 us,11 B,,SP,4B,Read Transaction,01 30 91 53 07 77 08 71 00 00 00*
0,437,0:06.904.690,70.100 us,2 B,,SP,4B,Write Transaction,82 01
0,438,0:06.904.762,49.800 us,1 B,,SP,4B,Read Transaction,01*
0,439,0:06.904.813,70.100 us,2 B,,SP,4B,Write Transaction,82 01
0,440,0:06.904.884,325.000 us,11 B,,SP,4B,Read Transaction,01 30 91 69 07 5F 08 71 00 00 00*
0,441,0:06.921.183,70.200 us,2 B,,SP,4B,Write Transaction,82 01
0,442,0:06.921.254,49.800 us,1 B,,SP,4B,Read Transaction,01*
0,443,0:06.921.305,70.200 us,2 B,,SP,4B,Write Transaction,82 01
0,444,0:06.921.377,325.400 us,11 B,,SP,4B,Read Transaction,01 30 91 7E 07 48 08 71 00 00 00*
0,445,0:06.937.806,70.100 us,2 B,,SP,4B,Write Transaction,82 01
0,446,0:06.937.878,49.700 us,1 B,,SP,4B,Read Transaction,01*
0,447,0:06.937.929,70.200 us,2 B,,SP,4B,Write Transaction,82 01
0,448,0:06.938.000,325.000 us,11 B,,SP,4B,Read Transaction,01 30 91 92 07 32 08 71 00 00 00*
0,449,0:06.954.177,70.100 us,2 B,,SP,4B,Write Transaction,82 01
0,450,0:06.954.249,49.800 us,1 B,,SP,4B,Read Transaction,01*
0,451,0:06.954.300,70.100 us,2 B,,SP,4B,Write Transaction,82 01
0,452,0:06.954.371,325.600 us,11 B,,SP,4B,Read Transaction,01 30 91 A6 07 1B 08 6C 00 00 00*
0,453,0:06.970.678,70.200 us,2 B,,SP,4B,Write Transaction,82 01
0,454,0:06.970.749,49.800 us,1 B,,SP,4B,Read Transaction,01*
0,455,0:06.970.800,70.200 us,2 B,,SP,4B,Write Transaction,82 01
0,456,0:06.970.872,325.500 us,11 B,,SP,4B,Read Transaction,01 30 91 BC 07 05 08 6C 00 00 00*
0,457,0:06.988.745,70.100 us,2 B,,SP,4B,Write Transaction,82 01
0,458,0:06.988.817,49.800 us,1 B,,SP,4B,Read Transaction,01*
0,459,0:06.988.868,70.100 us,2 B,,SP,4B,Write Transaction,82 01
0,460,0:06.988.939,325.300 us,11 B,,SP,4B,Read Transaction,01 30 91 D8 07 E9 07 6C 00 00 00*
0,461,0:07.005.284,70.100 us,2 B,,SP,4B,Write Transaction,82 01
0,462,0:07.005.355,49.800 us,1 B,,SP,4B,Read Transaction,01*
0,463,0:07.005.406,70.100 us,2 B,,SP,4B,Write Transaction,82 01
0,464,0:07.005.477,325.400 us,11 B,,SP,4B,Read Transaction,01 30 91 EF 07 D2 07 6C 00 00 00*
0,465,0:07.021.757,70.200 us,2 B,,SP,4B,Write Transaction,82 01
0,466,0:07.021.828,49.800 us,1 B,,SP,4B,Read Transaction,01*
0,467,0:07.021.879,70.100 us,2 B,,SP,4B,Write Transaction,82 01
0,468,0:07.021.951,325.600 us,11 B,,SP,4B,Read Transaction,01 30 91 07 08 B7 07 6C 00 00 00*
0,469,0:07.038.256,70.100 us,2 B,,SP,4B,Write Transaction,82 01
0,470,0:07.038.327,49.800 us,1 B,,SP,4B,Read Transaction,01*
0,471,0:07.038.379,70.100 us,2 B,,SP,4B,Write Transaction,82 01
0,472,0:07.038.450,325.400 us,11 B,,SP,4B,Read Transaction,01 30 91 1D 08 9F 07 6C 00 00 00*
0,473,0:07.054.753,70.200 us,2 B,,SP,4B,Write Transaction,82 01
0,474,0:07.054.825,49.800 us,1 B,,SP,4B,Read Transaction,01*
0,475,0:07.054.876,70.200 us,2 B,,SP,4B,Write Transaction,82 01
0,476,0:07.054.947,325.100 us,11 B,,SP,4B,Read Transaction,01 30 91 36 08 87 07 72 00 00 00*
0,477,0:07.071.265,70.200 us,2 B,,SP,4B,Write Transaction,82 01
0,478,0:07.071.337,49.800 us,1 B,,SP,4B,Read Transaction,01*
0,479,0:07.071.388,70.100 us,2 B,,SP,4B,Write Transaction,82 01
0,480,0:07.071.459,325.200 us,11 B,,SP,4B,Read Transaction,01 30 91 4D 08 71 07 72 00 00 00*
0,481,0:07.087.772,70.200 us,2 B,,SP,4B,Write Transaction,82 01
0,482,0:07.087.843,49.800 us,1 B,,SP,4B,Read Transaction,01*
0,483,0:07.087.895,70.100 us,2 B,,SP,4B,Write Transaction,82 01
0,484,0:07.087.966,325.000 us,11 B,,SP,4B,Read Transaction,01 30 91 63 08 5B 07 72 00 00 00*
0,485,0:07.104.271,70.100 us,2 B,,SP,4B,Write Transaction,82 01
0,486,0:07.104.342,49.800 us,1 B,,SP,4B,Read Transaction,01*
0,487,0:07.104.393,70.100 us,2 B,,SP,4B,Write Transaction,82 01
0,488,0:07.104.465,325.300 us,11 B,,SP,4B,Read Transaction,01 30 91 78 08 46 07 66 00 00 00*
0,489,0:07.120.744,70.200 us,2 B,,SP,4B,Write Transaction,82 01
0,490,0:07.120.815,49.800 us,1 B,,SP,4B,Read Transaction,01*
0,491,0:07.120.866,70.200 us,2 B,,SP,4B,Write Transaction,82 01
0,492,0:07.120.938,325.400 us,11 B,,SP,4B,Read Transaction,01 30 91 90 08 2C 07 66 00 00 00*
0,493,0:07.137.329,70.200 us,2 B,,SP,4B,Write Transaction,82 01
0,494,0:07.137.400,49.800 us,1 B,,SP,4B,Read Transaction,01*
0,495,0:07.137.452,70.100 us,2 B,,SP,4B,Write Transaction,82 01
0,496,0:07.137.523,325.400 us,11 B,,SP,4B,Read Transaction,01 30 91 AB 08 0F 07 71 00 00 00*
0,497,0:07.155.293,70.100 us,2 B,,SP,4B,Write Transaction,82 01
0,498,0:07.155.364,49.800 us,1 B,,SP,4B,Read Transaction,01*
0,499,0:07.155.415,70.100 us,2 B,,SP,4B,Write Transaction,82 01
0,500,0:07.155.486,325.300 us,11 B,,SP,4B,Read Transaction,01 30 91 C1 08 F7 06 71 00 00 00*
0,501,0:07.171.823,70.100 us,2 B,,SP,4B,Write Transaction,82 01
0,502,0:07.171.894,49.800 us,1 B,,SP,4B,Read Transaction,01*
0,503,0:07.171.946,70.100 us,2 B,,SP,4B,Write Transaction,82 01
0,504,0:07.172.017,325.500 us,11 B,,SP,4B,Read Transaction,01 30 91 D7 08 DF 06 71 00 00 00*
0,505,0:07.188.321,70.100 us,2 B,,SP,4B,Write Transaction,82 01
0,506,0:07.188.393,49.800 us,1 B,,SP,4B,Read Transaction,01*
0,507,0:07.188.444,70.100 us,2 B,,SP,4B,Write Transaction,82 01
0,508,0:07.188.515,325.100 us,11 B,,SP,4B,Read Transaction,01 30 91 EE 08 C5 06 71 00 00 00*
0,509,0:07.204.805,70.200 us,2 B,,SP,4B,Write Transaction,82 01
0,510,0:07.204.877,49.800 us,1 B,,SP,4B,Read Transaction,01*
0,511,0:07.204.928,70.100 us,2 B,,SP,4B,Write Transaction,82 01
0,512,0:07.204.999,325.000 us,11 B,,SP,4B,Read Transaction,01 30 91 05 09 AB 06 71 00 00 00*
0,513,0:07.221.278,70.200 us,2 B,,SP,4B,Write Transaction,82 01
0,514,0:07.221.350,49.800 us,1 B,,SP,4B,Read Transaction,01*
0,515,0:07.221.401,70.200 us,2 B,,SP,4B,Write Transaction,82 01
0,516,0:07.221.472,325.400 us,11 B,,SP,4B,Read Transaction,01 30 91 1E 09 90 06 71 00 00 00*
0,517,0:07.237.791,70.100 us,2 B,,SP,4B,Write Transaction,82 01
0,518,0:07.237.862,49.800 us,1 B,,SP,4B,Read Transaction,01*
0,519,0:07.237.913,70.100 us,2 B,,SP,4B,Write Transaction,82 01
0,520,0:07.237.984,325.200 us,11 B,,SP,4B,Read Transaction,01 30 91 35 09 75 06 71 00 00 00*
0,521,0:07.254.292,70.200 us,2 B,,SP,4B,Write Transaction,82 01
0,522,0:07.254.363,49.800 us,1 B,,SP,4B,Read Transaction,01*
0,523,0:07.254.414,70.200 us,2 B,,SP,4B,Write Transaction,82 01
0,524,0:07.254.486,325.200 us,11 B,,SP,4B,Read Transaction,01 30 91 4B 09 5A 06 6C 00 00 00*
0,525,0:07.270.771,70.100 us,2 B,,SP,4B,Write Transaction,82 01
0,526,0:07.270.842,49.800 us,1 B,,SP,4B,Read Transaction,01*
0,527,0:07.270.893,70.100 us,2 B,,SP,4B,Write Transaction,82 01
0,528,0:07.270.964,325.200 us,11 B,,SP,4B,Read Transaction,01 30 91 63 09 3D 06 6C 00 00 00*
0,529,0:07.287.265,70.200 us,2 B,,SP,4B,Write Transaction,82 01
0,530,0:07.287.336,49.800 us,1 B,,SP,4B,Read Transaction,01*
0,531,0:07.287.387,70.200 us,2 B,,SP,4B,Write Transaction,82 01
0,532,0:07.287.459,325.300 us,11 B,,SP,4B,Read Transaction,01 30 91 7C 09 20 06 72 00 00 00*
0,533,0:07.303.789,70.100 us,2 B,,SP,4B,Write Transaction,82 01
0,534,0:07.303.860,49.800 us,1 B,,SP,4B,Read Transaction,01*
0,535,0:07.303.911,70.100 us,2 B,,SP,4B,Write Transaction,82 01
0,536,0:07.303.983,325.100 us,11 B,,SP,4B,Read Transaction,01 30 91 93 09 07 06 72 00 00 00*
0,537,0:07.320.961,70.100 us,2 B,,SP,4B,Write Transaction,82 01
0,538,0:07.321.033,49.700 us,1 B,,SP,4B,Read Transaction,01*
0,539,0:07.321.084,70.200 us,2 B,,SP,4B,Write Transaction,82 01
0,540,0:07.321.155,318.400 us,11 B,,SP,4B,Read Transaction,01 29 12 02 07 02 01 16 00 00 00*
0,541,0:07.322.014,70.100 us,2 B,,SP,4B,Write Transaction,82 01
0,542,0:07.322.085,49.800 us,1 B,,SP,4B,Read Transaction,01*
0,543,0:07.322.136,70.100 us,2 B,,SP,4B,Write Transaction,82 01
0,544,0:07.322.208,325.200 us,11 B,,SP,4B,Read Transaction,01 30 91 A9 09 ED 05 6D 00 00 00*
0,545,0:07.338.561,70.100 us,2 B,,SP,4B,Write Transaction,82 01
0,546,0:07.338.632,49.700 us,1 B,,SP,4B,Read Transaction,01*
0,547,0:07.338.683,70.200 us,2 B,,SP,4B,Write Transaction,82 01
0,548,0:07.338.755,325.200 us,11 B,,SP,4B,Read Transaction,01 30 91 BE 09 D5 05 68 00 00 00*
0,549,0:07.354.940,70.200 us,2 B,,SP,4B,Write Transaction,82 01
0,550,0:07.355.012,49.800 us,1 B,,SP,4B,Read Transaction,01*
0,551,0:07.355.063,70.100 us,2 B,,SP,4B,Write Transaction,82 01
0,552,0:07.355.134,325.300 us,11 B,,SP,4B,Read Transaction,01 30 91 DB 09 B5 05 6E 00 00 00*
0,553,0:07.371.438,70.100 us,2 B,,SP,4B,Write Transaction,82 01
0,554,0:07.371.510,49.800 us,1 B,,SP,4B,Read Transaction,01*
0,555,0:07.371.561,70.100 us,2 B,,SP,4B,Write Transaction,82 01
0,556,0:07.371.632,325.200 us,11 B,,SP,4B,Read Transaction,01 30 91 F5 09 9A 05 6E 00 00 00*
0,557,0:07.387.920,70.100 us,2 B,,SP,4B,Write Transaction,82 01
0,558,0:07.387.992,49.800 us,1 B,,SP,4B,Read Transaction,01*
0,559,0:07.388.043,70.100 us,2 B,,SP,4B,Write Transaction,82 01
0,560,0:07.388.114,325.200 us,11 B,,SP,4B,Read Transaction,01 30 91 0C 0A 7F 05 6E 00 00 00*
0,561,0:07.404.423,70.100 us,2 B,,SP,4B,Write Transaction,82 01
0,562,0:07.404.495,49.800 us,1 B,,SP,4B,Read Transaction,01*
0,563,0:07.404.546,70.100 us,2 B,,SP,4B,Write Transaction,82 01
0,564,0:07.404.617,325.700 us,11 B,,SP,4B,Read Transaction,01 30 91 24 0A 62 05 6E 00 00 00*
0,565,0:07.420.935,70.200 us,2 B,,SP,4B,Write Transaction,82 01
0,566,0:07.421.007,49.800 us,1 B,,SP,4B,Read Transaction,01*
0,567,0:07.421.058,70.200 us,2 B,,SP,4B,Write Transaction,82 01
0,568,0:07.421.129,325.500 us,11 B,,SP,4B,Read Transaction,01 30 91 3E 0A 47 05 6E 00 00 00*
0,569,0:07.437.440,70.100 us,2 B,,SP,4B,Write Transaction,82 01
0,570,0:07.437.511,49.800 us,1 B,,SP,4B,Read Transaction,01*
0,571,0:07.437.562,70.100 us,2 B,,SP,4B,Write Transaction,82 01
0,572,0:07.437.634,325.500 us,11 B,,SP,4B,Read Transaction,01 30 91 59 0A 2C 05 6E 00 00 00*
0,573,0:07.453.948,70.100 us,2 B,,SP,4B,Write Transaction,82 01
0,574,0:07.454.019,49.800 us,1 B,,SP,4B,Read Transaction,01*
0,575,0:07.454.070,70.100 us,2 B,,SP,4B,Write Transaction,82 01
0,576,0:07.454.142,325.200 us,11 B,,SP,4B,Read Transaction,01 30 91 71 0A 12 05 6E 00 00 00*
0,577,0:07.470.451,70.100 us,2 B,,SP,4B,Write Transaction,82 01
0,578,0:07.470.522,49.800 us,1 B,,SP,4B,Read Transaction,01*
0,579,0:07.470.573,70.200 us,2 B,,SP,4B,Write Transaction,82 01
0,580,0:07.470.645,325.300 us,11 B,,SP,4B,Read Transaction,01 30 91 88 0A F8 04 69 00 00 00*
0,581,0:07.488.583,70.100 us,2 B,,SP,4B,Write Transaction,82 01
0,582,0:07.488.654,49.800 us,1 B,,SP,4B,Read Transaction,01*
0,583,0:07.488.706,70.100 us,2 B,,SP,4B,Write Transaction,82 01
0,584,0:07.488.777,325.100 us,11 B,,SP,4B,Read Transaction,01 30 91 A4 0A DA 04 70 00 00 00*
0,585,0:07.505.086,70.100 us,2 B,,SP,4B,Write Transaction,82 01
0,586,0:07.505.157,49.800 us,1 B,,SP,4B,Read Transaction,01*
0,587,0:07.505.208,70.100 us,2 B,,SP,4B,Write Transaction,82 01
0,588,0:07.505.280,325.400 us,11 B,,SP,4B,Read Transaction,01 30 91 BE 0A BF 04 70 00 00 00*
0,589,0:07.521.684,70.200 us,2 B,,SP,4B,Write Transaction,82 01
0,590,0:07.521.755,49.800 us,1 B,,SP,4B,Read Transaction,01*
0,591,0:07.521.807,70.200 us,2 B,,SP,4B,Write Transaction,82 01
0,592,0:07.521.878,324.900 us,11 B,,SP,4B,Read Transaction,01 30 91 D8 0A A5 04 70 00 00 00*
0,593,0:07.538.122,70.100 us,2 B,,SP,4B,Write Transaction,82 01
0,594,0:07.538.194,49.800 us,1 B,,SP,4B,Read Transaction,01*
0,595,0:07.538.245,70.100 us,2 B,,SP,4B,Write Transaction,82 01
0,596,0:07.538.316,325.500 us,11 B,,SP,4B,Read Transaction,01 30 91 F0 0A 8B 04 6A 00 00 00*
0,597,0:07.554.608,70.100 us,2 B,,SP,4B,Write Transaction,82 01
0,598,0:07.554.680,49.800 us,1 B,,SP,4B,Read Transaction,01*
0,599,0:07.554.731,70.100 us,2 B,,SP,4B,Write Transaction,82 01
0,600,0:07.554.802,325.100 us,11 B,,SP,4B,Read Transaction,01 30 91 0A 0B 73 04 6A 00 00 00*
0,601,0:07.571.101,70.200 us,2 B,,SP,4B,Write Transaction,82 01
0,602,0:07.571.173,49.800 us,1 B,,SP,4B,Read Transaction,01*
0,603,0:07.571.224,70.200 us,2 B,,SP,4B,Write Transaction,82 01
0,604,0:07.571.295,325.600 us,11 B,,SP,4B,Read Transaction,01 30 91 25 0B 5A 04 6A 00 00 00*
0,605,0:07.587.609,70.100 us,2 B,,SP,4B,Write Transaction,82 01
0,606,0:07.587.680,49.800 us,1 B,,SP,4B,Read Transaction,01*
0,607,0:07.587.732,70.100 us,2 B,,SP,4B,Write Transaction,82 01
0,608,0:07.587.803,325.000 us,11 B,,SP,4B,Read Transaction,01 30 91 3C 0B 42 04 6A 00 00 00*
0,609,0:07.604.107,70.200 us,2 B,,SP,4B,Write Transaction,82 01
0,610,0:07.604.179,49.800 us,1 B,,SP,4B,Read Transaction,01*
0,611,0:07.604.230,70.200 us,2 B,,SP,4B,Write Transaction,82 01
0,612,0:07.604.301,325.400 us,11 B,,SP,4B,Read Transaction,01 30 91 52 0B 2B 04 6A 00 00 00*
0,613,0:07.620.609,70.100 us,2 B,,SP,4B,Write Transaction,82 01
0,614,0:07.620.681,49.800 us,1 B,,SP,4B,Read Transaction,01*
0,615,0:07.620.732,70.100 us,2 B,,SP,4B,Write Transaction,82 01
0,616,0:07.620.803,325.600 us,11 B,,SP,4B,Read Transaction,01 30 91 6A 0B 12 04 6A 00 00 00*
0,617,0:07.637.081,70.200 us,2 B,,SP,4B,Write Transaction,82 01
0,618,0:07.637.153,49.800 us,1 B,,SP,4B,Read Transaction,01*
0,619,0:07.637.204,70.100 us,2 B,,SP,4B,Write Transaction,82 01
0,620,0:07.637.275,325.300 us,11 B,,SP,4B,Read Transaction,01 30 91 84 0B F9 03 72 00 00 00*
0,621,0:07.655.236,70.100 us,2 B,,SP,4B,Write Transaction,82 01
0,622,0:07.655.307,49.800 us,1 B,,SP,4B,Read Transaction,01*
0,623,0:07.655.359,70.100 us,2 B,,SP,4B,Write Transaction,82 01
0,624,0:07.655.430,325.500 us,11 B,,SP,4B,Read Transaction,01 30 91 9B 0B E3 03 72 00 00 00*
0,625,0:07.671.794,70.100 us,2 B,,SP,4B,Write Transaction,82 01
0,626,0:07.671.865,49.800 us,1 B,,SP,4B,Read Transaction,01*
0,627,0:07.671.917,70.100 us,2 B,,SP,4B,Write Transaction,82 01
0,628,0:07.671.988,324.700 us,11 B,,SP,4B,Read Transaction,01 30 91 AF 0B CD 03 72 00 00 00*
0,629,0:07.688.300,70.100 us,2 B,,SP,4B,Write Transaction,82 01
0,630,0:07.688.371,49.700 us,1 B,,SP,4B,Read Transaction,01*
0,631,0:07.688.422,70.100 us,2 B,,SP,4B,Write Transaction,82 01
0,632,0:07.688.494,325.100 us,11 B,,SP,4B,Read Transaction,01 30 91 C5 0B B7 03 6A 00 00 00*
0,633,0:07.704.799,70.100 us,2 B,,SP,4B,Write Transaction,82 01
0,634,0:07.704.871,49.800 us,1 B,,SP,4B,Read Transaction,01*
0,635,0:07.704.922,70.100 us,2 B,,SP,4B,Write Transaction,82 01
0,636,0:07.704.993,325.300 us,11 B,,SP,4B,Read Transaction,01 30 91 DA 0B A2 03 6A 00 00 00*
0,637,0:07.721.403,70.100 us,2 B,,SP,4B,Write Transaction,82 01
0,638,0:07.721.474,49.800 us,1 B,,SP,4B,Read Transaction,01*
0,639,0:07.721.525,70.100 us,2 B,,SP,4B,Write Transaction,82 01
0,640,0:07.721.596,325.300 us,11 B,,SP,4B,Read Transaction,01 30 91 F2 0B 8C 03 6A 00 00 00*
0,641,0:07.737.800,70.100 us,2 B,,SP,4B,Write Transaction,82 01
0,642,0:07.737.871,49.800 us,1 B,,SP,4B,Read Transaction,01*
0,643,0:07.737.922,70.100 us,2 B,,SP,4B,Write Transaction,82 01
0,644,0:07.737.993,325.200 us,11 B,,SP,4B,Read Transaction,01 30 91 07 0C 78 03 6F 00 00 00*
0,645,0:07.754.306,70.100 us,2 B,,SP,4B,Write Transaction,82 01
0,646,0:07.754.378,49.800 us,1 B,,SP,4B,Read Transaction,01*
0,647,0:07.754.429,70.100 us,2 B,,SP,4B,Write Transaction,82 01
0,648,0:07.754.500,325.400 us,11 B,,SP,4B,Read Transaction,01 30 91 18 0C 67 03 6F 00 00 00*
0,649,0:07.770.807,70.100 us,2 B,,SP,4B,Write Transaction,82 01
0,650,0:07.770.879,49.800 us,1 B,,SP,4B,Read Transaction,01*
0,651,0:07.770.930,70.100 us,2 B,,SP,4B,Write Transaction,82 01
0,652,0:07.771.001,325.200 us,11 B,,SP,4B,Read Transaction,01 30 91 2A 0C 54 03 6F 00 00 00*
0,653,0:07.787.286,70.100 us,2 B,,SP,4B,Write Transaction,82 01
0,654,0:07.787.358,49.800 us,1 B,,SP,4B,Read Transaction,01*
0,655,0:07.787.409,70.100 us,2 B,,SP,4B,Write Transaction,82 01
0,656,0:07.787.480,325.300 us,11 B,,SP,4B,Read Transaction,01 30 91 3C 0C 42 03 6F 00 00 00*
0,657,0:07.803.781,70.100 us,2 B,,SP,4B,Write Transaction,82 01
0,658,0:07.803.853,49.800 us,1 B,,SP,4B,Read Transaction,01*
0,659,0:07.803.904,70.100 us,2 B,,SP,4B,Write Transaction,82 01
0,660,0:07.803.975,325.300 us,11 B,,SP,4B,Read Transaction,01 30 91 4D 0C 32 03 6F 00 00 00*
0,661,0:07.821.845,70.100 us,2 B,,SP,4B,Write Transaction,82 01
0,662,0:07.821.917,49.800 us,1 B,,SP,4B,Read Transaction,01*
0,663,0:07.821.968,70.100 us,2 B,,SP,4B,Write Transaction,82 01
0,664,0:07.822.039,325.500 us,11 B,,SP,4B,Read Transaction,01 30 91 5F 0C 22 03 6F 00 00 00*
0,665,0:07.838.379,70.200 us,2 B,,SP,4B,Write Transaction,82 01
0,666,0:07.838.450,49.800 us,1 B,,SP,4B,Read Transaction,01*
0,667,0:07.838.501,70.200 us,2 B,,SP,4B,Write Transaction,82 01
0,668,0:07.838.573,325.400 us,11 B,,SP,4B,Read Transaction,01 30 91 6F 0C 14 03 6F 00 00 00*
0,669,0:07.854.871,70.100 us,2 B,,SP,4B,Write Transaction,82 01
0,670,0:07.854.942,49.800 us,1 B,,SP,4B,Read Transaction,01*
0,671,0:07.854.993,70.100 us,2 B,,SP,4B,Write Transaction,82 01
0,672,0:07.855.064,325.200 us,11 B,,SP,4B,Read Transaction,01 30 91 80 0C 05 03 6F 00 00 00*
0,673,0:07.871.376,70.100 us,2 B,,SP,4B,Write Transaction,82 01
0,674,0:07.871.448,49.800 us,1 B,,SP,4B,Read Transaction,01*
0,675,0:07.871.499,70.100 us,2 B,,SP,4B,Write Transaction,82 01
0,676,0:07.871.570,325.400 us,11 B,,SP,4B,Read Transaction,01 30 91 8E 0C F7 02 6F 00 00 00*
0,677,0:07.887.881,70.100 us,2 B,,SP,4B,Write Transaction,82 01
0,678,0:07.887.953,49.800 us,1 B,,SP,4B,Read Transaction,01*
0,679,0:07.888.004,70.100 us,2 B,,SP,4B,Write Transaction,82 01
0,680,0:07.888.075,325.400 us,11 B,,SP,4B,Read Transaction,01 30 91 9E 0C E8 02 68 00 00 00*
0,681,0:07.904.383,70.100 us,2 B,,SP,4B,Write Transaction,82 01
0,682,0:07.904.455,49.800 us,1 B,,SP,4B,Read Transaction,01*
0,683,0:07.904.506,70.100 us,2 B,,SP,4B,Write Transaction,82 01
0,684,0:07.904.577,324.700 us,11 B,,SP,4B,Read Transaction,01 30 91 AE 0C D9 02 68 00 00 00*
0,685,0:07.920.992,70.100 us,2 B,,SP,4B,Write Transaction,82 01
0,686,0:07.921.064,49.700 us,1 B,,SP,4B,Read Transaction,01*
0,687,0:07.921.115,70.100 us,2 B,,SP,4B,Write Transaction,82 01
0,688,0:07.921.186,325.500 us,11 B,,SP,4B,Read Transaction,01 30 91 C0 0C C8 02 68 00 00 00*
0,689,0:07.937.372,70.200 us,2 B,,SP,4B,Write Transaction,82 01
0,690,0:07.937.444,49.800 us,1 B,,SP,4B,Read Transaction,01*
0,691,0:07.937.495,70.200 us,2 B,,SP,4B,Write Transaction,82 01
0,692,0:07.937.566,325.400 us,11 B,,SP,4B,Read Transaction,01 30 91 D3 0C B7 02 6D 00 00 00*
0,693,0:07.953.868,70.100 us,2 B,,SP,4B,Write Transaction,82 01
0,694,0:07.953.940,49.800 us,1 B,,SP,4B,Read Transaction,01*
0,695,0:07.953.991,70.100 us,2 B,,SP,4B,Write Transaction,82 01
0,696,0:07.954.062,324.700 us,11 B,,SP,4B,Read Transaction,01 30 91 E3 0C A7 02 6D 00 00 00*
0,697,0:07.970.367,70.100 us,2 B,,SP,4B,Write Transaction,82 01
0,698,0:07.970.439,49.800 us,1 B,,SP,4B,Read Transaction,01*
0,699,0:07.970.490,70.100 us,2 B,,SP,4B,Write Transaction,82 01
0,700,0:07.970.561,325.300 us,11 B,,SP,4B,Read Transaction,01 30 91 F5 0C 95 02 6D 00 00 00*
0,701,0:07.988.452,70.100 us,2 B,,SP,4B,Write Transaction,82 01
0,702,0:07.988.524,49.800 us,1 B,,SP,4B,Read Transaction,01*
0,703,0:07.988.575,70.100 us,2 B,,SP,4B,Write Transaction,82 01
0,704,0:07.988.646,325.300 us,11 B,,SP,4B,Read Transaction,01 30 91 06 0D 82 02 6D 00 00 00*
0,705,0:08.004.983,70.100 us,2 B,,SP,4B,Write Transaction,82 01
0,706,0:08.005.054,49.800 us,1 B,,SP,4B,Read Transaction,01*
0,707,0:08.005.105,70.100 us,2 B,,SP,4B,Write Transaction,82 01
0,708,0:08.005.176,325.100 us,11 B,,SP,4B,Read Transaction,01 30 91 19 0D 6F 02 6D 00 00 00*
0,709,0:08.021.476,70.100 us,2 B,,SP,4B,Write Transaction,82 01
0,710,0:08.021.547,49.800 us,1 B,,SP,4B,Read Transaction,01*
0,711,0:08.021.598,70.100 us,2 B,,SP,4B,Write Transaction,82 01
0,712,0:08.021.669,325.300 us,11 B,,SP,4B,Read Transaction,01 30 91 2F 0D 5B 02 6D 00 00 00*
0,713,0:08.037.994,70.200 us,2 B,,SP,4B,Write Transaction,82 01
0,714,0:08.038.066,49.800 us,1 B,,SP,4B,Read Transaction,01*
0,715,0:08.038.117,70.200 us,2 B,,SP,4B,Write Transaction,82 01
0,716,0:08.038.188,325.300 us,11 B,,SP,4B,Read Transaction,01 30 91 42 0D 49 02 6D 00 00 00*
0,717,0:08.054.501,70.100 us,2 B,,SP,4B,Write Transaction,82 01
0,718,0:08.054.572,49.800 us,1 B,,SP,4B,Read Transaction,01*
0,719,0:08.054.624,70.100 us,2 B,,SP,4B,Write Transaction,82 01
0,720,0:08.054.695,325.400 us,11 B,,SP,4B,Read Transaction,01 30 91 55 0D 37 02 6D 00 00 00*
0,721,0:08.071.000,70.100 us,2 B,,SP,4B,Write Transaction,82 01
0,722,0:08.071.071,49.700 us,1 B,,SP,4B,Read Transaction,01*
0,723,0:08.071.122,70.100 us,2 B,,SP,4B,Write Transaction,82 01
0,724,0:08.071.194,325.300 us,11 B,,SP,4B,Read Transaction,01 30 91 67 0D 25 02 67 00 00 00*
0,725,0:08.087.502,70.100 us,2 B,,SP,4B,Write Transaction,82 01
0,726,0:08.087.574,49.800 us,1 B,,SP,4B,Read Transaction,01*
0,727,0:08.087.625,70.100 us,2 B,,SP,4B,Write Transaction,82 01
0,728,0:08.087.696,325.500 us,11 B,,SP,4B,Read Transaction,01 30 91 7B 0D 11 02 67 00 00 00*
0,729,0:08.103.995,70.200 us,2 B,,SP,4B,Write Transaction,82 01
0,730,0:08.104.067,49.700 us,1 B,,SP,4B,Read Transaction,01*
0,731,0:08.104.118,70.100 us,2 B,,SP,4B,Write Transaction,82 01
0,732,0:08.104.189,325.400 us,11 B,,SP,4B,Read Transaction,01 30 91 92 0D FA 01 6C 00 00 00*
0,733,0:08.120.591,70.100 us,2 B,,SP,4B,Write Transaction,82 01
0,734,0:08.120.662,49.800 us,1 B,,SP,4B,Read Transaction,01*
0,735,0:08.120.714,70.100 us,2 B,,SP,4B,Write Transaction,82 01
0,736,0:08.120.785,325.400 us,11 B,,SP,4B,Read Transaction,01 30 91 A5 0D E9 01 6C 00 00 00*
0,737,0:08.136.995,70.100 us,2 B,,SP,4B,Write Transaction,82 01
0,738,0:08.137.067,49.800 us,1 B,,SP,4B,Read Transaction,01*
0,739,0:08.137.118,70.100 us,2 B,,SP,4B,Write Transaction,82 01
0,740,0:08.137.189,325.200 us,11 B,,SP,4B,Read Transaction,01 30 91 B6 0D D8 01 6C 00 00 00*
0,741,0:08.155.053,70.100 us,2 B,,SP,4B,Write Transaction,82 01
0,742,0:08.155.125,49.800 us,1 B,,SP,4B,Read Transaction,01*
0,743,0:08.155.176,70.100 us,2 B,,SP,4B,Write Transaction,82 01
0,744,0:08.155.247,325.200 us,11 B,,SP,4B,Read Transaction,01 30 91 C6 0D C8 01 6C 00 00 00*
0,745,0:08.171.582,70.100 us,2 B,,SP,4B,Write Transaction,82 01
0,746,0:08.171.654,49.800 us,1 B,,SP,4B,Read Transaction,01*
0,747,0:08.171.705,70.100 us,2 B,,SP,4B,Write Transaction,82 01
0,748,0:08.171.776,325.200 us,11 B,,SP,4B,Read Transaction,01 30 91 D5 0D B8 01 6C 00 00 00*
0,749,0:08.188.078,70.200 us,2 B,,SP,4B,Write Transaction,82 01
0,750,0:08.188.149,49.800 us,1 B,,SP,4B,Read Transaction,01*
0,751,0:08.188.200,70.100 us,2 B,,SP,4B,Write Transaction,82 01
0,752,0:08.188.272,324.900 us,11 B,,SP,4B,Read Transaction,01 30 91 E7 0D A5 01 6C 00 00 00*
0,753,0:08.204.592,70.100 us,2 B,,SP,4B,Write Transaction,82 01
0,754,0:08.204.663,49.800 us,1 B,,SP,4B,Read Transaction,01*
0,755,0:08.204.714,70.100 us,2 B,,SP,4B,Write Transaction,82 01
0,756,0:08.204.786,325.200 us,11 B,,SP,4B,Read Transaction,01 30 91 F8 0D 94 01 6C 00 00 00*
0,757,0:08.221.079,70.100 us,2 B,,SP,4B,Write Transaction,82 01
0,758,0:08.221.151,49.800 us,1 B,,SP,4B,Read Transaction,01*
0,759,0:08.221.202,70.100 us,2 B,,SP,4B,Write Transaction,82 01
0,760,0:08.221.273,325.100 us,11 B,,SP,4B,Read Transaction,01 30 91 0A 0E 82 01 6C 00 00 00*
0,761,0:08.237.578,70.200 us,2 B,,SP,4B,Write Transaction,82 01
0,762,0:08.237.649,49.800 us,1 B,,SP,4B,Read Transaction,01*
0,763,0:08.237.700,70.200 us,2 B,,SP,4B,Write Transaction,82 01
0,764,0:08.237.772,325.300 us,11 B,,SP,4B,Read Transaction,01 30 91 19 0E 72 01 6C 00 00 00*
0,765,0:08.254.079,70.100 us,2 B,,SP,4B,Write Transaction,82 01
0,766,0:08.254.150,49.800 us,1 B,,SP,4B,Read Transaction,01*
0,767,0:08.254.202,70.100 us,2 B,,SP,4B,Write Transaction,82 01
0,768,0:08.254.273,325.100 us,11 B,,SP,4B,Read Transaction,01 30 91 29 0E 61 01 6C 00 00 00*
0,769,0:08.270.591,70.100 us,2 B,,SP,4B,Write Transaction,82 01
0,770,0:08.270.663,49.800 us,1 B,,SP,4B,Read Transaction,01*
0,771,0:08.270.714,70.100 us,2 B,,SP,4B,Write Transaction,82 01
0,772,0:08.270.785,325.400 us,11 B,,SP,4B,Read Transaction,01 30 91 35 0E 52 01 6C 00 00 00*
0,773,0:08.287.091,70.100 us,2 B,,SP,4B,Write Transaction,82 01
0,774,0:08.287.162,49.800 us,1 B,,SP,4B,Read Transaction,01*
0,775,0:08.287.214,70.100 us,2 B,,SP,4B,Write Transaction,82 01
0,776,0:08.287.285,325.400 us,11 B,,SP,4B,Read Transaction,01 30 91 42 0E 42 01 6C 00 00 00*
0,777,0:08.303.592,70.200 us,2 B,,SP,4B,Write Transaction,82 01
0,778,0:08.303.664,49.800 us,1 B,,SP,4B,Read Transaction,01*
0,779,0:08.303.715,70.100 us,2 B,,SP,4B,Write Transaction,82 01
0,780,0:08.303.786,325.200 us,11 B,,SP,4B,Read Transaction,01 30 91 4E 0E 34 01 66 00 00 00*
0,781,0:08.321.795,70.100 us,2 B,,SP,4B,Write Transaction,82 01
0,782,0:08.321.867,49.800 us,1 B,,SP,4B,Read Transaction,01*
0,783,0:08.321.918,70.100 us,2 B,,SP,4B,Write Transaction,82 01
0,784,0:08.321.989,325.400 us,11 B,,SP,4B,Read Transaction,01 30 91 5C 0E 24 01 66 00 00 00*
0,785,0:08.338.197,70.200 us,2 B,,SP,4B,Write Transaction,82 01
0,786,0:08.338.269,49.800 us,1 B,,SP,4B,Read Transaction,01*
0,787,0:08.338.320,70.100 us,2 B,,SP,4B,Write Transaction,82 01
0,788,0:08.338.391,325.000 us,11 B,,SP,4B,Read Transaction,01 30 91 6B 0E 15 01 6B 00 00 00*
0,789,0:08.354.695,70.100 us,2 B,,SP,4B,Write Transaction,82 01
0,790,0:08.354.766,49.800 us,1 B,,SP,4B,Read Transaction,01*
0,791,0:08.354.817,70.100 us,2 B,,SP,4B,Write Transaction,82 01
0,792,0:08.354.888,325.600 us,11 B,,SP,4B,Read Transaction,01 30 91 7A 0E 07 01 6B 00 00 00*
0,793,0:08.371.193,70.100 us,2 B,,SP,4B,Write Transaction,82 01
0,794,0:08.371.265,49.800 us,1 B,,SP,4B,Read Transaction,01*
0,795,0:08.371.316,70.100 us,2 B,,SP,4B,Write Transaction,82 01
0,796,0:08.371.387,325.200 us,11 B,,SP,4B,Read Transaction,01 30 91 87 0E FA 00 6B 00 00 00*
0,797,0:08.387.693,70.100 us,2 B,,SP,4B,Write Transaction,82 01
0,798,0:08.387.764,49.800 us,1 B,,SP,4B,Read Transaction,01*
0,799,0:08.387.816,70.100 us,2 B,,SP,4B,Write Transaction,82 01
0,800,0:08.387.887,325.300 us,11 B,,SP,4B,Read Transaction,01 30 91 93 0E EF 00 6B 00 00 00*
0,801,0:08.404.192,70.100 us,2 B,,SP,4B,Write Transaction,82 01
0,802,0:08.404.264,49.800 us,1 B,,SP,4B,Read Transaction,01*
0,803,0:08.404.315,70.100 us,2 B,,SP,4B,Write Transaction,82 01
0,804,0:08.404.386,325.200 us,11 B,,SP,4B,Read Transaction,01 30 91 9E 0E E4 00 6B 00 00 00*
0,805,0:08.420.695,70.100 us,2 B,,SP,4B,Write Transaction,82 01
0,806,0:08.420.766,49.800 us,1 B,,SP,4B,Read Transaction,01*
0,807,0:08.420.817,70.100 us,2 B,,SP,4B,Write Transaction,82 01
0,808,0:08.420.888,325.400 us,11 B,,SP,4B,Read Transaction,01 30 91 A7 0E DA 00 6B 00 00 00*
0,809,0:08.437.198,70.100 us,2 B,,SP,4B,Write Transaction,82 01
0,810,0:08.437.269,49.800 us,1 B,,SP,4B,Read Transaction,01*
0,811,0:08.437.320,70.100 us,2 B,,SP,4B,Write Transaction,82 01
0,812,0:08.437.391,325.100 us,11 B,,SP,4B,Read Transaction,01 30 91 B1 0E D0 00 6B 00 00 00*
0,813,0:08.453.700,70.100 us,2 B,,SP,4B,Write Transaction,82 01
0,814,0:08.453.771,49.800 us,1 B,,SP,4B,Read Transaction,01*
0,815,0:08.453.822,70.100 us,2 B,,SP,4B,Write Transaction,82 01
0,816,0:08.453.893,325.400 us,11 B,,SP,4B,Read Transaction,01 30 91 BB 0E C7 00 63 00 00 00*
0,817,0:08.470.174,70.100 us,2 B,,SP,4B,Write Transaction,82 01
0,818,0:08.470.245,49.800 us,1 B,,SP,4B,Read Transaction,01*
0,819,0:08.470.296,70.200 us,2 B,,SP,4B,Write Transaction,82 01
0,820,0:08.470.368,325.200 us,11 B,,SP,4B,Read Transaction,01 30 91 C7 0E BC 00 63 00 00 00*
0,821,0:08.488.329,70.200 us,2 B,,SP,4B,Write Transaction,82 01
0,822,0:08.488.401,49.800 us,1 B,,SP,4B,Read Transaction,01*
0,823,0:08.488.452,70.200 us,2 B,,SP,4B,Write Transaction,82 01
0,824,0:08.488.523,325.300 us,11 B,,SP,4B,Read Transaction,01 30 91 D6 0E B0 00 63 00 00 00*
0,825,0:08.504.944,70.100 us,2 B,,SP,4B,Write Transaction,82 01
0,826,0:08.505.015,49.800 us,1 B,,SP,4B,Read Transaction,01*
0,827,0:08.505.066,70.100 us,2 B,,SP,4B,Write Transaction,82 01
0,828,0:08.505.138,325.500 us,11 B,,SP,4B,Read Transaction,01 30 91 E4 0E A4 00 63 00 00 00*
0,829,0:08.521.377,70.200 us,2 B,,SP,4B,Write Transaction,82 01
0,830,0:08.521.448,49.800 us,1 B,,SP,4B,Read Transaction,01*
0,831,0:08.521.499,70.100 us,2 B,,SP,4B,Write Transaction,82 01
0,832,0:08.521.571,325.200 us,11 B,,SP,4B,Read Transaction,01 30 91 F1 0E 99 00 63 00 00 00*
0,833,0:08.537.862,70.200 us,2 B,,SP,4B,Write Transaction,82 01
0,834,0:08.537.934,49.800 us,1 B,,SP,4B,Read Transaction,01*
0,835,0:08.537.985,70.200 us,2 B,,SP,4B,Write Transaction,82 01
0,836,0:08.538.056,325.200 us,11 B,,SP,4B,Read Transaction,01 30 91 FB 0E 90 00 63 00 00 00*
0,837,0:08.554.378,70.100 us,2 B,,SP,4B,Write Transaction,82 01
0,838,0:08.554.450,49.800 us,1 B,,SP,4B,Read Transaction,01*
0,839,0:08.554.501,70.100 us,2 B,,SP,4B,Write Transaction,82 01
0,840,0:08.554.572,325.100 us,11 B,,SP,4B,Read Transaction,01 30 91 05 0F 88 00 5B 00 00 00*
0,841,0:08.570.863,70.100 us,2 B,,SP,4B,Write Transaction,82 01
0,842,0:08.570.934,49.800 us,1 B,,SP,4B,Read Transaction,01*
0,843,0:08.570.985,70.100 us,2 B,,SP,4B,Write Transaction,82 01
0,844,0:08.571.057,325.600 us,11 B,,SP,4B,Read Transaction,01 30 91 0E 0F 80 00 5B 00 00 00*
0,845,0:08.587.368,70.100 us,2 B,,SP,4B,Write Transaction,82 01
0,846,0:08.587.439,49.800 us,1 B,,SP,4B,Read Transaction,01*
0,847,0:08.587.490,70.100 us,2 B,,SP,4B,Write Transaction,82 01
0,848,0:08.587.562,325.500 us,11 B,,SP,4B,Read Transaction,01 30 91 17 0F 78 00 5B 00 00 00*
0,849,0:08.603.867,70.200 us,2 B,,SP,4B,Write Transaction,82 01
0,850,0:08.603.938,49.800 us,1 B,,SP,4B,Read Transaction,01*
0,851,0:08.603.989,70.200 us,2 B,,SP,4B,Write Transaction,82 01
0,852,0:08.604.061,325.200 us,11 B,,SP,4B,Read Transaction,01 30 91 22 0F 71 00 54 00 00 00*
0,853,0:08.620.365,70.200 us,2 B,,SP,4B,Write Transaction,82 01
0,854,0:08.620.436,49.800 us,1 B,,SP,4B,Read Transaction,01*
0,855,0:08.620.488,70.200 us,2 B,,SP,4B,Write Transaction,82 01
0,856,0:08.620.559,325.500 us,11 B,,SP,4B,Read Transaction,01 30 91 2D 0F 69 00 54 00 00 00*
0,857,0:08.636.863,70.100 us,2 B,,SP,4B,Write Transaction,82 01
0,858,0:08.636.934,49.800 us,1 B,,SP,4B,Read Transaction,01*
0,859,0:08.636.985,70.100 us,2 B,,SP,4B,Write Transaction,82 01
0,860,0:08.637.057,325.300 us,11 B,,SP,4B,Read Transaction,01 30 91 37 0F 62 00 54 00 00 00*
0,861,0:08.654.932,70.100 us,2 B,,SP,4B,Write Transaction,82 01
0,862,0:08.655.003,49.700 us,1 B,,SP,4B,Read Transaction,01*
0,863,0:08.655.054,70.100 us,2 B,,SP,4B,Write Transaction,82 01
0,864,0:08.655.126,325.100 us,11 B,,SP,4B,Read Transaction,01 30 91 42 0F 5D 00 54 00 00 00*
0,865,0:08.671.461,70.100 us,2 B,,SP,4B,Write Transaction,82 01
0,866,0:08.671.533,49.800 us,1 B,,SP,4B,Read Transaction,01*
0,867,0:08.671.584,70.100 us,2 B,,SP,4B,Write Transaction,82 01
0,868,0:08.671.655,325.600 us,11 B,,SP,4B,Read Transaction,01 30 91 4D 0F 58 00 54 00 00 00*
0,869,0:08.687.962,70.100 us,2 B,,SP,4B,Write Transaction,82 01
0,870,0:08.688.033,49.800 us,1 B,,SP,4B,Read Transaction,01*
0,871,0:08.688.084,70.100 us,2 B,,SP,4B,Write Transaction,82 01
0,872,0:08.688.156,325.500 us,11 B,,SP,4B,Read Transaction,01 30 91 57 0F 53 00 54 00 00 00*
0,873,0:08.704.536,70.100 us,2 B,,SP,4B,Write Transaction,82 01
0,874,0:08.704.608,49.800 us,1 B,,SP,4B,Read Transaction,01*
0,875,0:08.704.659,70.100 us,2 B,,SP,4B,Write Transaction,82 01
0,876,0:08.704.730,325.300 us,11 B,,SP,4B,Read Transaction,01 30 91 62 0F 50 00 54 00 00 00*
0,877,0:08.720.958,70.100 us,2 B,,SP,4B,Write Transaction,82 01
0,878,0:08.721.029,49.800 us,1 B,,SP,4B,Read Transaction,01*
0,879,0:08.721.081,70.100 us,2 B,,SP,4B,Write Transaction,82 01
0,880,0:08.721.152,325.100 us,11 B,,SP,4B,Read Transaction,01 30 91 6B 0F 4B 00 4E 00 00 00*
0,881,0:08.737.430,70.200 us,2 B,,SP,4B,Write Transaction,82 01
0,882,0:08.737.501,49.800 us,1 B,,SP,4B,Read Transaction,01*
0,883,0:08.737.552,70.200 us,2 B,,SP,4B,Write Transaction,82 01
0,884,0:08.737.624,325.100 us,11 B,,SP,4B,Read Transaction,01 30 91 74 0F 47 00 4E 00 00 00*
0,885,0:08.753.929,70.100 us,2 B,,SP,4B,Write Transaction,82 01
0,886,0:08.754.000,49.800 us,1 B,,SP,4B,Read Transaction,01*
0,887,0:08.754.051,70.200 us,2 B,,SP,4B,Write Transaction,82 01
0,888,0:08.754.123,325.400 us,11 B,,SP,4B,Read Transaction,01 30 91 7D 0F 43 00 4E 00 00 00*
0,889,0:08.770.426,70.200 us,2 B,,SP,4B,Write Transaction,82 01
0,890,0:08.770.497,49.700 us,1 B,,SP,4B,Read Transaction,01*
0,891,0:08.770.548,70.200 us,2 B,,SP,4B,Write Transaction,82 01
0,892,0:08.770.620,325.000 us,11 B,,SP,4B,Read Transaction,01 30 91 86 0F 40 00 48 00 00 00*
0,893,0:08.786.900,70.200 us,2 B,,SP,4B,Write Transaction,82 01
0,894,0:08.786.972,49.800 us,1 B,,SP,4B,Read Transaction,01*
0,895,0:08.787.023,70.100 us,2 B,,SP,4B,Write Transaction,82 01
0,896,0:08.787.094,325.400 us,11 B,,SP,4B,Read Transaction,01 30 91 8D 0F 3C 00 48 00 00 00*
0,897,0:08.803.399,70.100 us,2 B,,SP,4B,Write Transaction,82 01
0,898,0:08.803.470,49.800 us,1 B,,SP,4B,Read Transaction,01*
0,899,0:08.803.521,70.100 us,2 B,,SP,4B,Write Transaction,82 01
0,900,0:08.803.593,325.500 us,11 B,,SP,4B,Read Transaction,01 30 91 95 0F 39 00 3E 00 00 00*
0,901,0:08.821.470,70.100 us,2 B,,SP,4B,Write Transaction,82 01
0,902,0:08.821.542,49.800 us,1 B,,SP,4B,Read Transaction,01*
0,903,0:08.821.593,70.100 us,2 B,,SP,4B,Write Transaction,82 01
0,904,0:08.821.664,325.300 us,11 B,,SP,4B,Read Transaction,01 30 91 9D 0F 36 00 3E 00 00 00*
0,905,0:08.837.974,70.200 us,2 B,,SP,4B,Write Transaction,82 01
0,906,0:08.838.046,49.800 us,1 B,,SP,4B,Read Transaction,01*
0,907,0:08.838.097,70.100 us,2 B,,SP,4B,Write Transaction,82 01
0,908,0:08.838.168,325.100 us,11 B,,SP,4B,Read Transaction,01 30 91 A6 0F 33 00 3E 00 00 00*
0,909,0:08.854.450,70.100 us,2 B,,SP,4B,Write Transaction,82 01
0,910,0:08.854.521,49.800 us,1 B,,SP,4B,Read Transaction,01*
0,911,0:08.854.572,70.100 us,2 B,,SP,4B,Write Transaction,82 01
0,912,0:08.854.644,325.000 us,11 B,,SP,4B,Read Transaction,01 30 91 AF 0F 30 00 37 00 00 00*
0,913,0:08.870.920,70.100 us,2 B,,SP,4B,Write Transaction,82 01
0,914,0:08.870.991,49.800 us,1 B,,SP,4B,Read Transaction,01*
0,915,0:08.871.042,70.100 us,2 B,,SP,4B,Write Transaction,82 01
0,916,0:08.871.114,325.000 us,11 B,,SP,4B,Read Transaction,01 30 91 B5 0F 2D 00 37 00 00 00*
0,917,0:08.887.415,70.200 us,2 B,,SP,4B,Write Transaction,82 01
0,918,0:08.887.486,49.800 us,1 B,,SP,4B,Read Transaction,01*
0,919,0:08.887.537,70.100 us,2 B,,SP,4B,Write Transaction,82 01
0,920,0:08.887.609,325.100 us,11 B,,SP,4B,Read Transaction,01 30 91 BB 0F 2A 00 30 00 00 00*
0,921,0:08.903.951,70.100 us,2 B,,SP,4B,Write Transaction,82 01
0,922,0:08.904.022,49.700 us,1 B,,SP,4B,Read Transaction,01*
0,923,0:08.904.073,70.200 us,2 B,,SP,4B,Write Transaction,82 01
0,924,0:08.904.145,325.000 us,11 B,,SP,4B,Read Transaction,01 30 91 C0 0F 28 00 30 00 00 00*
0,925,0:08.920.409,70.200 us,2 B,,SP,4B,Write Transaction,82 01
0,926,0:08.920.480,49.700 us,1 B,,SP,4B,Read Transaction,01*
0,927,0:08.920.531,70.200 us,2 B,,SP,4B,Write Transaction,82 01
0,928,0:08.920.603,325.200 us,11 B,,SP,4B,Read Transaction,01 30 91 C5 0F 26 00 2A 00 00 00*
0,929,0:08.936.909,70.100 us,2 B,,SP,4B,Write Transaction,82 01
0,930,0:08.936.980,49.800 us,1 B,,SP,4B,Read Transaction,01*
0,931,0:08.937.032,70.100 us,2 B,,SP,4B,Write Transaction,82 01
0,932,0:08.937.103,325.400 us,11 B,,SP,4B,Read Transaction,01 30 91 CA 0F 23 00 2A 00 00 00*
0,933,0:08.953.414,70.100 us,2 B,,SP,4B,Write Transaction,82 01
0,934,0:08.953.486,49.800 us,1 B,,SP,4B,Read Transaction,01*
0,935,0:08.953.537,70.100 us,2 B,,SP,4B,Write Transaction,82 01
0,936,0:08.953.608,325.300 us,11 B,,SP,4B,Read Transaction,01 30 91 CD 0F 21 00 21 00 00 00*
0,937,0:08.969.912,70.100 us,2 B,,SP,4B,Write Transaction,82 01
0,938,0:08.969.983,49.800 us,1 B,,SP,4B,Read Transaction,01*
0,939,0:08.970.034,70.100 us,2 B,,SP,4B,Write Transaction,82 01
0,940,0:08.970.106,325.500 us,11 B,,SP,4B,Read Transaction,01 30 91 D2 0F 1F 00 1C 00 00 00*
0,941,0:08.987.966,70.100 us,2 B,,SP,4B,Write Transaction,82 01
0,942,0:08.988.037,49.700 us,1 B,,SP,4B,Read Transaction,01*
0,943,0:08.988.088,70.200 us,2 B,,SP,4B,Write Transaction,82 01
0,944,0:08.988.159,325.500 us,11 B,,SP,4B,Read Transaction,01 30 91 D5 0F 1D 00 17 00 00 00*
0,945,0:09.004.514,70.100 us,2 B,,SP,4B,Write Transaction,82 01
0,946,0:09.004.586,49.800 us,1 B,,SP,4B,Read Transaction,01*
0,947,0:09.004.637,70.100 us,2 B,,SP,4B,Write Transaction,82 01
0,948,0:09.004.708,325.400 us,11 B,,SP,4B,Read Transaction,01 30 91 D9 0F 1B 00 17 00 00 00*
0,949,0:09.020.999,70.100 us,2 B,,SP,4B,Write Transaction,82 01
0,950,0:09.021.071,49.800 us,1 B,,SP,4B,Read Transaction,01*
0,951,0:09.021.122,70.100 us,2 B,,SP,4B,Write Transaction,82 01
0,952,0:09.021.193,325.300 us,11 B,,SP,4B,Read Transaction,01 30 91 DB 0F 19 00 10 00 00 00*
0,953,0:09.037.497,70.100 us,2 B,,SP,4B,Write Transaction,82 01
0,954,0:09.037.569,49.700 us,1 B,,SP,4B,Read Transaction,01*
0,955,0:09.037.620,70.200 us,2 B,,SP,4B,Write Transaction,82 01
0,956,0:09.037.691,325.100 us,11 B,,SP,4B,Read Transaction,01 30 91 DE 0F 18 00 10 00 00 00*
0,957,0:09.053.996,70.100 us,2 B,,SP,4B,Write Transaction,82 01
0,958,0:09.054.067,49.800 us,1 B,,SP,4B,Read Transaction,01*
0,959,0:09.054.118,70.100 us,2 B,,SP,4B,Write Transaction,82 01
0,960,0:09.054.190,325.500 us,11 B,,SP,4B,Read Transaction,01 30 91 E0 0F 17 00 0B 00 00 00*
0,961,0:09.070.498,70.100 us,2 B,,SP,4B,Write Transaction,82 01
0,962,0:09.070.570,49.800 us,1 B,,SP,4B,Read Transaction,01*
0,963,0:09.070.621,70.100 us,2 B,,SP,4B,Write Transaction,82 01
0,964,0:09.070.692,325.400 us,11 B,,SP,4B,Read Transaction,01 30 91 E2 0F 15 00 0B 00 00 00*
0,965,0:09.086.993,70.200 us,2 B,,SP,4B,Write Transaction,82 01
0,966,0:09.087.065,49.800 us,1 B,,SP,4B,Read Transaction,01*
0,967,0:09.087.116,70.200 us,2 B,,SP,4B,Write Transaction,82 01
0,968,0:09.087.187,325.600 us,11 B,,SP,4B,Read Transaction,01 30 91 E4 0F 15 00 0B 00 00 00*
0,969,0:09.136.191,70.100 us,2 B,,SP,4B,Write Transaction,82 01
0,970,0:09.136.263,49.800 us,1 B,,SP,4B,Read Transaction,01*
0,971,0:09.136.314,70.100 us,2 B,,SP,4B,Write Transaction,82 01
0,972,0:09.136.385,323.300 us,11 B,,SP,4B,Read Transaction,01 30 15 E4 0F 15 00 0B 00 00 00*
0,973,0:09.224.491,70.100 us,2 B,,SP,4B,Write Transaction,82 01
0,974,0:09.224.563,49.800 us,1 B,,SP,4B,Read Transaction,01*
0,975,0:09.224.614,70.100 us,2 B,,SP,4B,Write Transaction,82 01
0,976,0:09.224.685,321.700 us,11 B,,SP,4B,Read Transaction,01 29 12 02 06 01 00 16 00 00 00*
0,977,0:10.385.472,70.100 us,2 B,,SP,4B,Write Transaction,82 01
0,978,0:10.385.544,49.700 us,1 B,,SP,4B,Read Transaction,01*
0,979,0:10.385.595,70.200 us,2 B,,SP,4B,Write Transaction,82 01
0,980,0:10.385.666,322.100 us,11 B,,SP,4B,Read Transaction,01 29 12 02 06 01 01 16 00 00 00*
0,981,0:11.117.331,70.100 us,2 B,,SP,4B,Write Transaction,82 01
0,982,0:11.117.403,49.800 us,1 B,,SP,4B,Read Transaction,01*
0,983,0:11.117.454,70.100 us,2 B,,SP,4B,Write Transaction,82 01
0,984,0:11.117.525,325.100 us,11 B,,SP,4B,Read Transaction,01 30 94 48 00 15 00 14 00 00 00*
0,985,0:11.151.944,70.200 us,2 B,,SP,4B,Write Transaction,82 01
0,986,0:11.152.016,49.800 us,1 B,,SP,4B,Read Transaction,01*
0,987,0:11.152.067,70.200 us,2 B,,SP,4B,Write Transaction,82 01
0,988,0:11.152.138,325.100 us,11 B,,SP,4B,Read Transaction,01 30 90 48 00 15 00 1A 00 00 00*
0,989,0:11.168.494,70.100 us,2 B,,SP,4B,Write Transaction,82 01
0,990,0:11.168.565,49.800 us,1 B,,SP,4B,Read Transaction,01*
0,991,0:11.168.616,70.100 us,2 B,,SP,4B,Write Transaction,82 01
0,992,0:11.168.688,325.400 us,11 B,,SP,4B,Read Transaction,01 30 91 54 00 15 00 1A 00 00 00*
0,993,0:11.184.986,70.100 us,2 B,,SP,4B,Write Transaction,82 01
0,994,0:11.185.057,49.800 us,1 B,,SP,4B,Read Transaction,01*
0,995,0:11.185.108,70.100 us,2 B,,SP,4B,Write Transaction,82 01
0,996,0:11.185.180,324.800 us,11 B,,SP,4B,Read Transaction,01 30 91 59 00 15 00 20 00 00 00*
0,997,0:11.201.492,70.100 us,2 B,,SP,4B,Write Transaction,82 01
0,998,0:11.201.563,49.800 us,1 B,,SP,4B,Read Transaction,01*
0,999,0:11.201.614,70.100 us,2 B,,SP,4B,Write Transaction,82 01
0,1000,0:11.201.686,325.300 us,11 B,,SP,4B,Read Transaction,01 30 91 5E 00 14 00 25 00 00 00*
0,1001,0:11.217.999,70.100 us,2 B,,SP,4B,Write Transaction,82 01
0,1002,0:11.218.070,49.800 us,1 B,,SP,4B,Read Transaction,01*
0,1003,0:11.218.121,70.100 us,2 B,,SP,4B,Write Transaction,82 01
0,1004,0:11.218.192,325.500 us,11 B,,SP,4B,Read Transaction,01 30 91 66 00 14 00 2B 00 00 00*
0,1005,0:11.234.490,70.100 us,2 B,,SP,4B,Write Transaction,82 01
0,1006,0:11.234.562,49.800 us,1 B,,SP,4B,Read Transaction,01*
0,1007,0:11.234.613,70.100 us,2 B,,SP,4B,Write Transaction,82 01
0,1008,0:11.234.684,325.600 us,11 B,,SP,4B,Read Transaction,01 30 91 72 00 14 00 30 00 00 00*
0,1009,0:11.251.047,70.100 us,2 B,,SP,4B,Write Transaction,82 01
0,1010,0:11.251.118,49.800 us,1 B,,SP,4B,Read Transaction,01*
0,1011,0:11.251.169,70.100 us,2 B,,SP,4B,Write Transaction,82 01
0,1012,0:11.251.241,325.400 us,11 B,,SP,4B,Read Transaction,01 30 91 7E 00 14 00 37 00 00 00*
0,1013,0:11.267.493,70.100 us,2 B,,SP,4B,Write Transaction,82 01
0,1014,0:11.267.564,49.800 us,1 B,,SP,4B,Read Transaction,01*
0,1015,0:11.267.615,70.100 us,2 B,,SP,4B,Write Transaction,82 01
0,1016,0:11.267.687,325.300 us,11 B,,SP,4B,Read Transaction,01 30 91 8B 00 16 00 3D 00 00 00*
0,1017,0:11.283.993,70.100 us,2 B,,SP,4B,Write Transaction,82 01
0,1018,0:11.284.064,49.800 us,1 B,,SP,4B,Read Transaction,01*
0,1019,0:11.284.115,70.100 us,2 B,,SP,4B,Write Transaction,82 01
0,1020,0:11.284.187,324.800 us,11 B,,SP,4B,Read Transaction,01 30 91 97 00 18 00 42 00 00 00*
0,1021,0:11.300.488,70.200 us,2 B,,SP,4B,Write Transaction,82 01
0,1022,0:11.300.560,49.800 us,1 B,,SP,4B,Read Transaction,01*
0,1023,0:11.300.611,70.200 us,2 B,,SP,4B,Write Transaction,82 01
0,1024,0:11.300.682,325.700 us,11 B,,SP,4B,Read Transaction,01 30 91 A2 00 1A 00 42 00 00 00*
0,1025,0:11.318.555,70.200 us,2 B,,SP,4B,Write Transaction,82 01
0,1026,0:11.318.626,49.800 us,1 B,,SP,4B,Read Transaction,01*
0,1027,0:11.318.677,70.200 us,2 B,,SP,4B,Write Transaction,82 01
0,1028,0:11.318.749,324.800 us,11 B,,SP,4B,Read Transaction,01 30 91 AD 00 1E 00 4B 00 00 00*
0,1029,0:11.335.083,70.100 us,2 B,,SP,4B,Write Transaction,82 01
0,1030,0:11.335.154,49.700 us,1 B,,SP,4B,Read Transaction,01*
0,1031,0:11.335.205,70.200 us,2 B,,SP,4B,Write Transaction,82 01
0,1032,0:11.335.277,325.500 us,11 B,,SP,4B,Read Transaction,01 30 91 B8 00 22 00 4B 00 00 00*
0,1033,0:11.351.544,70.100 us,2 B,,SP,4B,Write Transaction,82 01
0,1034,0:11.351.615,49.800 us,1 B,,SP,4B,Read Transaction,01*
0,1035,0:11.351.666,70.200 us,2 B,,SP,4B,Write Transaction,82 01
0,1036,0:11.351.737,325.300 us,11 B,,SP,4B,Read Transaction,01 30 91 C4 00 26 00 50 00 00 00*
0,1037,0:11.368.044,70.100 us,2 B,,SP,4B,Write Transaction,82 01
0,1038,0:11.368.115,49.800 us,1 B,,SP,4B,Read Transaction,01*
0,1039,0:11.368.166,70.100 us,2 B,,SP,4B,Write Transaction,82 01
0,1040,0:11.368.238,325.500 us,11 B,,SP,4B,Read Transaction,01 30 91 D1 00 2A 00 56 00 00 00*
0,1041,0:11.384.537,70.200 us,2 B,,SP,4B,Write Transaction,82 01
0,1042,0:11.384.609,49.900 us,1 B,,SP,4B,Read Transaction,01*
0,1043,0:11.384.660,70.100 us,2 B,,SP,4B,Write Transaction,82 01
0,1044,0:11.384.731,325.400 us,11 B,,SP,4B,Read Transaction,01 30 91 DF 00 30 00 56 00 00 00*
0,1045,0:11.401.030,70.100 us,2 B,,SP,4B,Write Transaction,82 01
0,1046,0:11.401.102,49.800 us,1 B,,SP,4B,Read Transaction,01*
0,1047,0:11.401.153,70.100 us,2 B,,SP,4B,Write Transaction,82 01
0,1048,0:11.401.224,325.100 us,11 B,,SP,4B,Read Transaction,01 30 91 ED 00 37 00 5D 00 00 00*
0,1049,0:11.417.534,70.100 us,2 B,,SP,4B,Write Transaction,82 01
0,1050,0:11.417.605,49.800 us,1 B,,SP,4B,Read Transaction,01*
0,1051,0:11.417.657,70.100 us,2 B,,SP,4B,Write Transaction,82 01
0,1052,0:11.417.728,325.200 us,11 B,,SP,4B,Read Transaction,01 30 91 FA 00 3F 00 69 00 00 00*
0,1053,0:11.434.029,70.100 us,2 B,,SP,4B,Write Transaction,82 01
0,1054,0:11.434.101,49.800 us,1 B,,SP,4B,Read Transaction,01*
0,1055,0:11.434.152,70.100 us,2 B,,SP,4B,Write Transaction,82 01
0,1056,0:11.434.223,325.400 us,11 B,,SP,4B,Read Transaction,01 30 91 06 01 48 00 69 00 00 00*
0,1057,0:11.450.618,70.100 us,2 B,,SP,4B,Write Transaction,82 01
0,1058,0:11.450.689,49.800 us,1 B,,SP,4B,Read Transaction,01*
0,1059,0:11.450.740,70.100 us,2 B,,SP,4B,Write Transaction,82 01
0,1060,0:11.450.812,325.200 us,11 B,,SP,4B,Read Transaction,01 30 91 12 01 52 00 69 00 00 00*
0,1061,0:11.467.031,70.100 us,2 B,,SP,4B,Write Transaction,82 01
0,1062,0:11.467.103,49.800 us,1 B,,SP,4B,Read Transaction,01*
0,1063,0:11.467.154,70.100 us,2 B,,SP,4B,Write Transaction,82 01
0,1064,0:11.467.225,325.400 us,11 B,,SP,4B,Read Transaction,01 30 91 1E 01 5D 00 69 00 00 00*
0,1065,0:11.485.106,70.100 us,2 B,,SP,4B,Write Transaction,82 01
0,1066,0:11.485.178,49.800 us,1 B,,SP,4B,Read Transaction,01*
0,1067,0:11.485.229,70.100 us,2 B,,SP,4B,Write Transaction,82 01
0,1068,0:11.485.300,325.400 us,11 B,,SP,4B,Read Transaction,01 30 91 2A 01 69 00 69 00 00 00*
0,1069,0:11.501.635,70.100 us,2 B,,SP,4B,Write Transaction,82 01
0,1070,0:11.501.706,49.800 us,1 B,,SP,4B,Read Transaction,01*
0,1071,0:11.501.757,70.100 us,2 B,,SP,4B,Write Transaction,82 01
0,1072,0:11.501.829,325.200 us,11 B,,SP,4B,Read Transaction,01 30 91 38 01 76 00 69 00 00 00*
0,1073,0:11.518.134,70.200 us,2 B,,SP,4B,Write Transaction,82 01
0,1074,0:11.518.206,49.800 us,1 B,,SP,4B,Read Transaction,01*
0,1075,0:11.518.257,70.200 us,2 B,,SP,4B,Write Transaction,82 01
0,1076,0:11.518.328,325.300 us,11 B,,SP,4B,Read Transaction,01 30 91 49 01 87 00 69 00 00 00*
0,1077,0:11.534.639,70.100 us,2 B,,SP,4B,Write Transaction,82 01
0,1078,0:11.534.710,49.800 us,1 B,,SP,4B,Read Transaction,01*
0,1079,0:11.534.761,70.100 us,2 B,,SP,4B,Write Transaction,82 01
0,1080,0:11.534.833,325.000 us,11 B,,SP,4B,Read Transaction,01 30 91 58 01 95 00 69 00 00 00*
0,1081,0:11.551.157,70.100 us,2 B,,SP,4B,Write Transaction,82 01
0,1082,0:11.551.229,49.800 us,1 B,,SP,4B,Read Transaction,01*
0,1083,0:11.551.280,70.100 us,2 B,,SP,4B,Write Transaction,82 01
0,1084,0:11.551.351,325.300 us,11 B,,SP,4B,Read Transaction,01 30 91 66 01 A3 00 6E 00 00 00*
0,1085,0:11.567.661,70.200 us,2 B,,SP,4B,Write Transaction,82 01
0,1086,0:11.567.732,49.800 us,1 B,,SP,4B,Read Transaction,01*
0,1087,0:11.567.783,70.200 us,2 B,,SP,4B,Write Transaction,82 01
0,1088,0:11.567.855,325.300 us,11 B,,SP,4B,Read Transaction,01 30 91 74 01 B1 00 6E 00 00 00*
0,1089,0:11.584.171,70.100 us,2 B,,SP,4B,Write Transaction,82 01
0,1090,0:11.584.243,49.800 us,1 B,,SP,4B,Read Transaction,01*
0,1091,0:11.584.294,70.200 us,2 B,,SP,4B,Write Transaction,82 01
0,1092,0:11.584.365,325.400 us,11 B,,SP,4B,Read Transaction,01 30 91 81 01 BF 00 69 00 00 00*
0,1093,0:11.600.670,70.200 us,2 B,,SP,4B,Write Transaction,82 01
0,1094,0:11.600.742,49.700 us,1 B,,SP,4B,Read Transaction,01*
0,1095,0:11.600.793,70.200 us,2 B,,SP,4B,Write Transaction,82 01
0,1096,0:11.600.864,325.300 us,11 B,,SP,4B,Read Transaction,01 30 91 8F 01 CD 00 69 00 00 00*
0,1097,0:11.617.171,70.200 us,2 B,,SP,4B,Write Transaction,82 01
0,1098,0:11.617.242,49.800 us,1 B,,SP,4B,Read Transaction,01*
0,1099,0:11.617.293,70.200 us,2 B,,SP,4B,Write Transaction,82 01
0,1100,0:11.617.364,324.900 us,11 B,,SP,4B,Read Transaction,01 30 91 9E 01 DB 00 69 00 00 00*
0,1101,0:11.633.658,70.200 us,2 B,,SP,4B,Write Transaction,82 01
0,1102,0:11.633.729,49.900 us,1 B,,SP,4B,Read Transaction,01*
0,1103,0:11.633.780,70.100 us,2 B,,SP,4B,Write Transaction,82 01
0,1104,0:11.633.852,325.300 us,11 B,,SP,4B,Read Transaction,01 30 91 AF 01 EA 00 69 00 00 00*
0,1105,0:11.651.854,70.100 us,2 B,,SP,4B,Write Transaction,82 01
0,1106,0:11.651.926,49.800 us,1 B,,SP,4B,Read Transaction,01*
0,1107,0:11.651.977,70.100 us,2 B,,SP,4B,Write Transaction,82 01
0,1108,0:11.652.048,325.500 us,11 B,,SP,4B,Read Transaction,01 30 91 C0 01 FA 00 69 00 00 00*
0,1109,0:11.668.279,70.100 us,2 B,,SP,4B,Write Transaction,82 01
0,1110,0:11.668.350,49.800 us,1 B,,SP,4B,Read Transaction,01*
0,1111,0:11.668.402,70.100 us,2 B,,SP,4B,Write Transaction,82 01
0,1112,0:11.668.473,325.300 us,11 B,,SP,4B,Read Transaction,01 30 91 D0 01 08 01 69 00 00 00*
0,1113,0:11.684.781,70.100 us,2 B,,SP,4B,Write Transaction,82 01
0,1114,0:11.684.852,49.800 us,1 B,,SP,4B,Read Transaction,01*
0,1115,0:11.684.903,70.100 us,2 B,,SP,4B,Write Transaction,82 01
0,1116,0:11.684.975,325.000 us,11 B,,SP,4B,Read Transaction,01 30 91 DF 01 15 01 69 00 00 00*
0,1117,0:11.701.280,70.100 us,2 B,,SP,4B,Write Transaction,82 01
0,1118,0:11.701.351,49.800 us,1 B,,SP,4B,Read Transaction,01*
0,1119,0:11.701.402,70.100 us,2 B,,SP,4B,Write Transaction,82 01
0,1120,0:11.701.474,325.400 us,11 B,,SP,4B,Read Transaction,01 30 91 EE 01 22 01 69 00 00 00*
0,1121,0:11.717.778,70.100 us,2 B,,SP,4B,Write Transaction,82 01
0,1122,0:11.717.849,49.800 us,1 B,,SP,4B,Read Transaction,01*
0,1123,0:11.717.900,70.100 us,2 B,,SP,4B,Write Transaction,82 01
0,1124,0:11.717.972,325.500 us,11 B,,SP,4B,Read Transaction,01 30 91 FD 01 30 01 69 00 00 00*
0,1125,0:11.734.265,70.200 us,2 B,,SP,4B,Write Transaction,82 01
0,1126,0:11.734.337,49.800 us,1 B,,SP,4B,Read Transaction,01*
0,1127,0:11.734.388,70.200 us,2 B,,SP,4B,Write Transaction,82 01
0,1128,0:11.734.459,325.400 us,11 B,,SP,4B,Read Transaction,01 30 91 0F 02 40 01 6E 00 00 00*
0,1129,0:11.750.775,70.100 us,2 B,,SP,4B,Write Transaction,82 01
0,1130,0:11.750.846,49.800 us,1 B,,SP,4B,Read Transaction,01*
0,1131,0:11.750.897,70.100 us,2 B,,SP,4B,Write Transaction,82 01
0,1132,0:11.750.969,325.400 us,11 B,,SP,4B,Read Transaction,01 30 91 21 02 4E 01 6E 00 00 00*
0,1133,0:11.767.280,70.200 us,2 B,,SP,4B,Write Transaction,82 01
0,1134,0:11.767.351,49.700 us,1 B,,SP,4B,Read Transaction,01*
0,1135,0:11.767.402,70.200 us,2 B,,SP,4B,Write Transaction,82 01
0,1136,0:11.767.474,325.200 us,11 B,,SP,4B,Read Transaction,01 30 91 32 02 5D 01 6E 00 00 00*
0,1137,0:11.783.761,70.200 us,2 B,,SP,4B,Write Transaction,82 01
0,1138,0:11.783.832,49.800 us,1 B,,SP,4B,Read Transaction,01*
0,1139,0:11.783.883,70.200 us,2 B,,SP,4B,Write Transaction,82 01
0,1140,0:11.783.955,325.400 us,11 B,,SP,4B,Read Transaction,01 30 91 42 02 6C 01 6E 00 00 00*
0,1141,0:11.800.265,70.100 us,2 B,,SP,4B,Write Transaction,82 01
0,1142,0:11.800.337,49.800 us,1 B,,SP,4B,Read Transaction,01*
0,1143,0:11.800.388,70.100 us,2 B,,SP,4B,Write Transaction,82 01
0,1144,0:11.800.459,325.100 us,11 B,,SP,4B,Read Transaction,01 30 91 52 02 7C 01 6E 00 00 00*
0,1145,0:11.818.373,70.100 us,2 B,,SP,4B,Write Transaction,82 01
0,1146,0:11.818.444,49.800 us,1 B,,SP,4B,Read Transaction,01*
0,1147,0:11.818.496,70.100 us,2 B,,SP,4B,Write Transaction,82 01
0,1148,0:11.818.567,325.200 us,11 B,,SP,4B,Read Transaction,01 30 91 65 02 8E 01 67 00 00 00*
0,1149,0:11.834.999,70.100 us,2 B,,SP,4B,Write Transaction,82 01
0,1150,0:11.835.070,49.800 us,1 B,,SP,4B,Read Transaction,01*
0,1151,0:11.835.122,70.100 us,2 B,,SP,4B,Write Transaction,82 01
0,1152,0:11.835.193,325.300 us,11 B,,SP,4B,Read Transaction,01 30 91 79 02 A1 01 6C 00 00 00*
0,1153,0:11.851.394,70.100 us,2 B,,SP,4B,Write Transaction,82 01
0,1154,0:11.851.465,49.800 us,1 B,,SP,4B,Read Transaction,01*
0,1155,0:11.851.516,70.200 us,2 B,,SP,4B,Write Transaction,82 01
0,1156,0:11.851.588,325.300 us,11 B,,SP,4B,Read Transaction,01 30 91 90 02 B7 01 6C 00 00 00*
0,1157,0:11.867.898,70.200 us,2 B,,SP,4B,Write Transaction,82 01
0,1158,0:11.867.969,49.800 us,1 B,,SP,4B,Read Transaction,01*
0,1159,0:11.868.020,70.200 us,2 B,,SP,4B,Write Transaction,82 01
0,1160,0:11.868.091,325.400 us,11 B,,SP,4B,Read Transaction,01 30 91 A3 02 CA 01 6C 00 00 00*
0,1161,0:11.884.377,70.100 us,2 B,,SP,4B,Write Transaction,82 01
0,1162,0:11.884.448,49.800 us,1 B,,SP,4B,Read Transaction,01*
0,1163,0:11.884.500,70.100 us,2 B,,SP,4B,Write Transaction,82 01
0,1164,0:11.884.571,325.200 us,11 B,,SP,4B,Read Transaction,01 30 91 B5 02 DD 01 6C 00 00 00*
0,1165,0:11.900.902,70.100 us,2 B,,SP,4B,Write Transaction,82 01
0,1166,0:11.900.974,49.800 us,1 B,,SP,4B,Read Transaction,01*
0,1167,0:11.901.025,70.100 us,2 B,,SP,4B,Write Transaction,82 01
0,1168,0:11.901.096,325.500 us,11 B,,SP,4B,Read Transaction,01 30 91 C8 02 F1 01 6C 00 00 00*
0,1169,0:11.916.497,70.100 us,2 B,,SP,4B,Write Transaction,82 01
0,1170,0:11.916.568,49.800 us,1 B,,SP,4B,Read Transaction,01*
0,1171,0:11.916.619,70.100 us,2 B,,SP,4B,Write Transaction,82 01
0,1172,0:11.916.691,318.400 us,11 B,,SP,4B,Read Transaction,01 29 12 02 07 01 01 16 00 00 00*
0,1173,0:11.917.555,70.100 us,2 B,,SP,4B,Write Transaction,82 01
0,1174,0:11.917.626,49.700 us,1 B,,SP,4B,Read Transaction,01*
0,1175,0:11.917.677,70.200 us,2 B,,SP,4B,Write Transaction,82 01
0,1176,0:11.917.749,325.200 us,11 B,,SP,4B,Read Transaction,01 30 91 DF 02 0B 02 6C 00 00 00*
0,1177,0:11.933.954,70.100 us,2 B,,SP,4B,Write Transaction,82 01
0,1178,0:11.934.025,49.800 us,1 B,,SP,4B,Read Transaction,01*
0,1179,0:11.934.076,70.100 us,2 B,,SP,4B,Write Transaction,82 01
0,1180,0:11.934.148,325.200 us,11 B,,SP,4B,Read Transaction,01 30 91 F6 02 25 02 6C 00 00 00*
0,1181,0:11.950.449,70.100 us,2 B,,SP,4B,Write Transaction,82 01
0,1182,0:11.950.520,49.800 us,1 B,,SP,4B,Read Transaction,01*
0,1183,0:11.950.571,70.100 us,2 B,,SP,4B,Write Transaction,82 01
0,1184,0:11.950.643,325.300 us,11 B,,SP,4B,Read Transaction,01 30 91 0B 03 3D 02 6C 00 00 00*
0,1185,0:11.966.952,70.200 us,2 B,,SP,4B,Write Transaction,82 01
0,1186,0:11.967.023,49.800 us,1 B,,SP,4B,Read Transaction,01*
0,1187,0:11.967.074,70.200 us,2 B,,SP,4B,Write Transaction,82 01
0,1188,0:11.967.145,325.400 us,11 B,,SP,4B,Read Transaction,01 30 91 1F 03 58 02 6C 00 00 00*
0,1189,0:11.985.113,70.100 us,2 B,,SP,4B,Write Transaction,82 01
0,1190,0:11.985.185,49.800 us,1 B,,SP,4B,Read Transaction,01*
0,1191,0:11.985.236,70.100 us,2 B,,SP,4B,Write Transaction,82 01
0,1192,0:11.985.307,325.200 us,11 B,,SP,4B,Read Transaction,01 30 91 33 03 72 02 6C 00 00 00*
0,1193,0:12.001.672,70.100 us,2 B,,SP,4B,Write Transaction,82 01
0,1194,0:12.001.744,49.800 us,1 B,,SP,4B,Read Transaction,01*
0,1195,0:12.001.795,70.100 us,2 B,,SP,4B,Write Transaction,82 01
0,1196,0:12.001.866,325.000 us,11 B,,SP,4B,Read Transaction,01 30 91 4C 03 90 02 72 00 00 00*
0,1197,0:12.018.138,70.200 us,2 B,,SP,4B,Write Transaction,82 01
0,1198,0:12.018.209,49.800 us,1 B,,SP,4B,Read Transaction,01*
0,1199,0:12.018.260,70.100 us,2 B,,SP,4B,Write Transaction,82 01
0,1200,0:12.018.332,325.200 us,11 B,,SP,4B,Read Transaction,01 30 91 64 03 AC 02 72 00 00 00*
0,1201,0:12.034.752,70.100 us,2 B,,SP,4B,Write Transaction,82 01
0,1202,0:12.034.823,49.800 us,1 B,,SP,4B,Read Transaction,01*
0,1203,0:12.034.875,70.100 us,2 B,,SP,4B,Write Transaction,82 01
0,1204,0:12.034.946,325.500 us,11 B,,SP,4B,Read Transaction,01 30 91 79 03 C5 02 72 00 00 00*
0,1205,0:12.051.151,70.200 us,2 B,,SP,4B,Write Transaction,82 01
0,1206,0:12.051.222,49.800 us,1 B,,SP,4B,Read Transaction,01*
0,1207,0:12.051.273,70.200 us,2 B,,SP,4B,Write Transaction,82 01
0,1208,0:12.051.345,325.400 us,11 B,,SP,4B,Read Transaction,01 30 91 8D 03 DC 02 6B 00 00 00*
0,1209,0:12.067.653,70.100 us,2 B,,SP,4B,Write Transaction,82 01
0,1210,0:12.067.724,49.800 us,1 B,,SP,4B,Read Transaction,01*
0,1211,0:12.067.775,70.100 us,2 B,,SP,4B,Write Transaction,82 01
0,1212,0:12.067.847,325.300 us,11 B,,SP,4B,Read Transaction,01 30 91 A2 03 F5 02 6B 00 00 00*
0,1213,0:12.084.156,70.100 us,2 B,,SP,4B,Write Transaction,82 01
0,1214,0:12.084.228,49.800 us,1 B,,SP,4B,Read Transaction,01*
0,1215,0:12.084.279,70.100 us,2 B,,SP,4B,Write Transaction,82 01
0,1216,0:12.084.350,325.400 us,11 B,,SP,4B,Read Transaction,01 30 91 B8 03 0F 03 6B 00 00 00*
0,1217,0:12.100.659,70.200 us,2 B,,SP,4B,Write Transaction,82 01
0,1218,0:12.100.730,49.800 us,1 B,,SP,4B,Read Transaction,01*
0,1219,0:12.100.781,70.200 us,2 B,,SP,4B,Write Transaction,82 01
0,1220,0:12.100.853,324.800 us,11 B,,SP,4B,Read Transaction,01 30 91 CD 03 26 03 71 00 00 00*
0,1221,0:12.117.148,70.100 us,2 B,,SP,4B,Write Transaction,82 01
0,1222,0:12.117.219,49.800 us,1 B,,SP,4B,Read Transaction,01*
0,1223,0:12.117.270,70.100 us,2 B,,SP,4B,Write Transaction,82 01
0,1224,0:12.117.342,325.400 us,11 B,,SP,4B,Read Transaction,01 30 91 DF 03 3B 03 71 00 00 00*
0,1225,0:12.133.636,70.200 us,2 B,,SP,4B,Write Transaction,82 01
0,1226,0:12.133.708,49.800 us,1 B,,SP,4B,Read Transaction,01*
0,1227,0:12.133.759,70.200 us,2 B,,SP,4B,Write Transaction,82 01
0,1228,0:12.133.830,325.100 us,11 B,,SP,4B,Read Transaction,01 30 91 F0 03 4F 03 71 00 00 00*
0,1229,0:12.151.707,70.100 us,2 B,,SP,4B,Write Transaction,82 01
0,1230,0:12.151.778,49.700 us,1 B,,SP,4B,Read Transaction,01*
0,1231,0:12.151.829,70.200 us,2 B,,SP,4B,Write Transaction,82 01
0,1232,0:12.151.901,325.400 us,11 B,,SP,4B,Read Transaction,01 30 91 00 04 62 03 71 00 00 00*
0,1233,0:12.168.255,70.200 us,2 B,,SP,4B,Write Transaction,82 01
0,1234,0:12.168.327,49.800 us,1 B,,SP,4B,Read Transaction,01*
0,1235,0:12.168.378,70.100 us,2 B,,SP,4B,Write Transaction,82 01
0,1236,0:12.168.449,325.200 us,11 B,,SP,4B,Read Transaction,01 30 91 11 04 74 03 71 00 00 00*
0,1237,0:12.184.750,70.100 us,2 B,,SP,4B,Write Transaction,82 01
0,1238,0:12.184.821,49.800 us,1 B,,SP,4B,Read Transaction,01*
0,1239,0:12.184.872,70.100 us,2 B,,SP,4B,Write Transaction,82 01
0,1240,0:12.184.944,325.500 us,11 B,,SP,4B,Read Transaction,01 30 91 23 04 87 03 71 00 00 00*
0,1241,0:12.201.240,70.200 us,2 B,,SP,4B,Write Transaction,82 01
0,1242,0:12.201.311,49.700 us,1 B,,SP,4B,Read Transaction,01*
0,1243,0:12.201.362,70.200 us,2 B,,SP,4B,Write Transaction,82 01
0,1244,0:12.201.434,325.500 us,11 B,,SP,4B,Read Transaction,01 30 91 33 04 99 03 71 00 00 00*
0,1245,0:12.217.738,70.200 us,2 B,,SP,4B,Write Transaction,82 01
0,1246,0:12.217.809,49.700 us,1 B,,SP,4B,Read Transaction,01*
0,1247,0:12.217.860,70.200 us,2 B,,SP,4B,Write Transaction,82 01
0,1248,0:12.217.931,325.300 us,11 B,,SP,4B,Read Transaction,01 30 91 41 04 A9 03 71 00 00 00*
0,1249,0:12.234.341,70.100 us,2 B,,SP,4B,Write Transaction,82 01
0,1250,0:12.234.413,49.700 us,1 B,,SP,4B,Read Transaction,01*
0,1251,0:12.234.464,70.200 us,2 B,,SP,4B,Write Transaction,82 01
0,1252,0:12.234.535,325.000 us,11 B,,SP,4B,Read Transaction,01 30 91 4E 04 B9 03 6A 00 00 00*
0,1253,0:12.250.742,70.100 us,2 B,,SP,4B,Write Transaction,82 01
0,1254,0:12.250.813,49.800 us,1 B,,SP,4B,Read Transaction,01*
0,1255,0:12.250.864,70.100 us,2 B,,SP,4B,Write Transaction,82 01
0,1256,0:12.250.936,325.200 us,11 B,,SP,4B,Read Transaction,01 30 91 5A 04 C8 03 6A 00 00 00*
0,1257,0:12.267.246,70.100 us,2 B,,SP,4B,Write Transaction,82 01
0,1258,0:12.267.317,49.800 us,1 B,,SP,4B,Read Transaction,01*
0,1259,0:12.267.368,70.100 us,2 B,,SP,4B,Write Transaction,82 01
0,1260,0:12.267.439,325.100 us,11 B,,SP,4B,Read Transaction,01 30 91 65 04 D8 03 6A 00 00 00*
0,1261,0:12.283.745,70.100 us,2 B,,SP,4B,Write Transaction,82 01
0,1262,0:12.283.817,49.800 us,1 B,,SP,4B,Read Transaction,01*
0,1263,0:12.283.868,70.100 us,2 B,,SP,4B,Write Transaction,82 01
0,1264,0:12.283.939,325.500 us,11 B,,SP,4B,Read Transaction,01 30 91 71 04 E8 03 6A 00 00 00*
0,1265,0:12.300.227,70.100 us,2 B,,SP,4B,Write Transaction,82 01
0,1266,0:12.300.298,49.800 us,1 B,,SP,4B,Read Transaction,01*
0,1267,0:12.300.349,70.100 us,2 B,,SP,4B,Write Transaction,82 01
0,1268,0:12.300.421,325.400 us,11 B,,SP,4B,Read Transaction,01 30 91 7D 04 F7 03 6A 00 00 00*
0,1269,0:12.318.300,70.100 us,2 B,,SP,4B,Write Transaction,82 01
0,1270,0:12.318.371,49.800 us,1 B,,SP,4B,Read Transaction,01*
0,1271,0:12.318.422,70.100 us,2 B,,SP,4B,Write Transaction,82 01
0,1272,0:12.318.494,325.300 us,11 B,,SP,4B,Read Transaction,01 30 91 8A 04 08 04 6A 00 00 00*
0,1273,0:12.334.818,70.100 us,2 B,,SP,4B,Write Transaction,82 01
0,1274,0:12.334.889,49.800 us,1 B,,SP,4B,Read Transaction,01*
0,1275,0:12.334.940,70.100 us,2 B,,SP,4B,Write Transaction,82 01
0,1276,0:12.335.012,324.700 us,11 B,,SP,4B,Read Transaction,01 30 91 99 04 18 04 6F 00 00 00*
0,1277,0:12.351.309,70.100 us,2 B,,SP,4B,Write Transaction,82 01
0,1278,0:12.351.381,49.800 us,1 B,,SP,4B,Read Transaction,01*
0,1279,0:12.351.432,70.200 us,2 B,,SP,4B,Write Transaction,82 01
0,1280,0:12.351.503,325.300 us,11 B,,SP,4B,Read Transaction,01 30 91 A8 04 27 04 6F 00 00 00*
0,1281,0:12.367.805,70.100 us,2 B,,SP,4B,Write Transaction,82 01
0,1282,0:12.367.876,49.800 us,1 B,,SP,4B,Read Transaction,01*
0,1283,0:12.367.927,70.100 us,2 B,,SP,4B,Write Transaction,82 01
0,1284,0:12.367.999,325.500 us,11 B,,SP,4B,Read Transaction,01 30 91 B5 04 35 04 6F 00 00 00*
0,1285,0:12.384.325,70.100 us,2 B,,SP,4B,Write Transaction,82 01
0,1286,0:12.384.397,49.800 us,1 B,,SP,4B,Read Transaction,01*
0,1287,0:12.384.448,70.100 us,2 B,,SP,4B,Write Transaction,82 01
0,1288,0:12.384.519,325.400 us,11 B,,SP,4B,Read Transaction,01 30 91 C1 04 43 04 6F 00 00 00*
0,1289,0:12.400.825,70.100 us,2 B,,SP,4B,Write Transaction,82 01
0,1290,0:12.400.896,49.700 us,1 B,,SP,4B,Read Transaction,01*
0,1291,0:12.400.947,70.100 us,2 B,,SP,4B,Write Transaction,82 01
0,1292,0:12.401.019,325.300 us,11 B,,SP,4B,Read Transaction,01 30 91 CE 04 50 04 6F 00 00 00*
0,1293,0:12.417.325,70.200 us,2 B,,SP,4B,Write Transaction,82 01
0,1294,0:12.417.396,49.800 us,1 B,,SP,4B,Read Transaction,01*
0,1295,0:12.417.447,70.200 us,2 B,,SP,4B,Write Transaction,82 01
0,1296,0:12.417.518,325.200 us,11 B,,SP,4B,Read Transaction,01 30 91 DA 04 5E 04 67 00 00 00*
0,1297,0:12.433.938,70.100 us,2 B,,SP,4B,Write Transaction,82 01
0,1298,0:12.434.010,49.800 us,1 B,,SP,4B,Read Transaction,01*
0,1299,0:12.434.061,70.100 us,2 B,,SP,4B,Write Transaction,82 01
0,1300,0:12.434.132,325.300 us,11 B,,SP,4B,Read Transaction,01 30 91 E9 04 6E 04 67 00 00 00*
0,1301,0:12.450.319,70.100 us,2 B,,SP,4B,Write Transaction,82 01
0,1302,0:12.450.390,49.800 us,1 B,,SP,4B,Read Transaction,01*
0,1303,0:12.450.442,70.100 us,2 B,,SP,4B,Write Transaction,82 01
0,1304,0:12.450.513,325.400 us,11 B,,SP,4B,Read Transaction,01 30 91 FA 04 7F 04 67 00 00 00*
0,1305,0:12.466.821,70.100 us,2 B,,SP,4B,Write Transaction,82 01
0,1306,0:12.466.893,49.800 us,1 B,,SP,4B,Read Transaction,01*
0,1307,0:12.466.944,70.100 us,2 B,,SP,4B,Write Transaction,82 01
0,1308,0:12.467.015,325.300 us,11 B,,SP,4B,Read Transaction,01 30 91 0A 05 90 04 6D 00 00 00*
0,1309,0:12.484.921,70.200 us,2 B,,SP,4B,Write Transaction,82 01
0,1310,0:12.484.993,49.700 us,1 B,,SP,4B,Read Transaction,01*
0,1311,0:12.485.044,70.200 us,2 B,,SP,4B,Write Transaction,82 01
0,1312,0:12.485.115,325.400 us,11 B,,SP,4B,Read Transaction,01 30 91 1A 05 A1 04 6D 00 00 00*
0,1313,0:12.501.463,70.100 us,2 B,,SP,4B,Write Transaction,82 01
0,1314,0:12.501.534,49.800 us,1 B,,SP,4B,Read Transaction,01*
0,1315,0:12.501.585,70.100 us,2 B,,SP,4B,Write Transaction,82 01
0,1316,0:12.501.656,325.400 us,11 B,,SP,4B,Read Transaction,01 30 91 29 05 B2 04 6D 00 00 00*
0,1317,0:12.517.943,70.100 us,2 B,,SP,4B,Write Transaction,82 01
0,1318,0:12.518.014,49.800 us,1 B,,SP,4B,Read Transaction,01*
0,1319,0:12.518.065,70.100 us,2 B,,SP,4B,Write Transaction,82 01
0,1320,0:12.518.137,325.400 us,11 B,,SP,4B,Read Transaction,01 30 91 38 05 C4 04 6D 00 00 00*
0,1321,0:12.534.439,70.200 us,2 B,,SP,4B,Write Transaction,82 01
0,1322,0:12.534.511,49.800 us,1 B,,SP,4B,Read Transaction,01*
0,1323,0:12.534.562,70.200 us,2 B,,SP,4B,Write Transaction,82 01
0,1324,0:12.534.633,325.300 us,11 B,,SP,4B,Read Transaction,01 30 91 49 05 D7 04 6D 00 00 00*
0,1325,0:12.550.957,70.100 us,2 B,,SP,4B,Write Transaction,82 01
0,1326,0:12.551.029,49.800 us,1 B,,SP,4B,Read Transaction,01*
0,1327,0:12.551.080,70.100 us,2 B,,SP,4B,Write Transaction,82 01
0,1328,0:12.551.151,325.000 us,11 B,,SP,4B,Read Transaction,01 30 91 5D 05 ED 04 6D 00 00 00*
0,1329,0:12.567.449,70.200 us,2 B,,SP,4B,Write Transaction,82 01
0,1330,0:12.567.521,49.800 us,1 B,,SP,4B,Read Transaction,01*
0,1331,0:12.567.572,70.200 us,2 B,,SP,4B,Write Transaction,82 01
0,1332,0:12.567.643,325.300 us,11 B,,SP,4B,Read Transaction,01 30 91 6F 05 01 05 6D 00 00 00*
0,1333,0:12.583.950,70.100 us,2 B,,SP,4B,Write Transaction,82 01
0,1334,0:12.584.021,49.800 us,1 B,,SP,4B,Read Transaction,01*
0,1335,0:12.584.072,70.100 us,2 B,,SP,4B,Write Transaction,82 01
0,1336,0:12.584.144,325.100 us,11 B,,SP,4B,Read Transaction,01 30 91 81 05 16 05 6D 00 00 00*
0,1337,0:12.600.460,70.100 us,2 B,,SP,4B,Write Transaction,82 01
0,1338,0:12.600.531,49.800 us,1 B,,SP,4B,Read Transaction,01*
0,1339,0:12.600.582,70.100 us,2 B,,SP,4B,Write Transaction,82 01
0,1340,0:12.600.654,325.500 us,11 B,,SP,4B,Read Transaction,01 30 91 93 05 2A 05 68 00 00 00*
0,1341,0:12.616.963,70.100 us,2 B,,SP,4B,Write Transaction,82 01
0,1342,0:12.617.034,49.800 us,1 B,,SP,4B,Read Transaction,01*
0,1343,0:12.617.085,70.200 us,2 B,,SP,4B,Write Transaction,82 01
0,1344,0:12.617.156,325.400 us,11 B,,SP,4B,Read Transaction,01 30 91 A5 05 41 05 68 00 00 00*
0,1345,0:12.633.582,70.200 us,2 B,,SP,4B,Write Transaction,82 01
0,1346,0:12.633.653,49.800 us,1 B,,SP,4B,Read Transaction,01*
0,1347,0:12.633.704,70.200 us,2 B,,SP,4B,Write Transaction,82 01
0,1348,0:12.633.775,325.200 us,11 B,,SP,4B,Read Transaction,01 30 91 B8 05 57 05 6D 00 00 00*
0,1349,0:12.651.573,70.100 us,2 B,,SP,4B,Write Transaction,82 01
0,1350,0:12.651.645,49.800 us,1 B,,SP,4B,Read Transaction,01*
0,1351,0:12.651.696,70.200 us,2 B,,SP,4B,Write Transaction,82 01
0,1352,0:12.651.767,325.300 us,11 B,,SP,4B,Read Transaction,01 30 91 CE 05 6F 05 6D 00 00 00*
0,1353,0:12.668.109,70.100 us,2 B,,SP,4B,Write Transaction,82 01
0,1354,0:12.668.180,49.800 us,1 B,,SP,4B,Read Transaction,01*
0,1355,0:12.668.231,70.100 us,2 B,,SP,4B,Write Transaction,82 01
0,1356,0:12.668.303,325.400 us,11 B,,SP,4B,Read Transaction,01 30 91 E2 05 84 05 6D 00 00 00*
0,1357,0:12.684.613,70.200 us,2 B,,SP,4B,Write Transaction,82 01
0,1358,0:12.684.685,49.900 us,1 B,,SP,4B,Read Transaction,01*
0,1359,0:12.684.736,70.100 us,2 B,,SP,4B,Write Transaction,82 01
0,1360,0:12.684.807,325.300 us,11 B,,SP,4B,Read Transaction,01 30 91 F4 05 97 05 6D 00 00 00*
0,1361,0:12.701.114,70.200 us,2 B,,SP,4B,Write Transaction,82 01
0,1362,0:12.701.185,49.800 us,1 B,,SP,4B,Read Transaction,01*
0,1363,0:12.701.236,70.200 us,2 B,,SP,4B,Write Transaction,82 01
0,1364,0:12.701.308,324.900 us,11 B,,SP,4B,Read Transaction,01 30 91 06 06 AC 05 6D 00 00 00*
0,1365,0:12.717.635,70.100 us,2 B,,SP,4B,Write Transaction,82 01
0,1366,0:12.717.706,49.800 us,1 B,,SP,4B,Read Transaction,01*
0,1367,0:12.717.758,70.100 us,2 B,,SP,4B,Write Transaction,82 01
0,1368,0:12.717.829,325.500 us,11 B,,SP,4B,Read Transaction,01 30 91 18 06 C0 05 65 00 00 00*
0,1369,0:12.734.125,70.100 us,2 B,,SP,4B,Write Transaction,82 01
0,1370,0:12.734.196,49.800 us,1 B,,SP,4B,Read Transaction,01*
0,1371,0:12.734.247,70.100 us,2 B,,SP,4B,Write Transaction,82 01
0,1372,0:12.734.319,325.100 us,11 B,,SP,4B,Read Transaction,01 30 91 2E 06 D6 05 65 00 00 00*
0,1373,0:12.750.629,70.100 us,2 B,,SP,4B,Write Transaction,82 01
0,1374,0:12.750.700,49.800 us,1 B,,SP,4B,Read Transaction,01*
0,1375,0:12.750.751,70.100 us,2 B,,SP,4B,Write Transaction,82 01
0,1376,0:12.750.823,325.200 us,11 B,,SP,4B,Read Transaction,01 30 91 41 06 EB 05 6B 00 00 00*
0,1377,0:12.767.132,70.100 us,2 B,,SP,4B,Write Transaction,82 01
0,1378,0:12.767.204,49.800 us,1 B,,SP,4B,Read Transaction,01*
0,1379,0:12.767.255,70.200 us,2 B,,SP,4B,Write Transaction,82 01
0,1380,0:12.767.326,325.300 us,11 B,,SP,4B,Read Transaction,01 30 91 53 06 FE 05 6B 00 00 00*
0,1381,0:12.783.638,70.100 us,2 B,,SP,4B,Write Transaction,82 01
0,1382,0:12.783.709,49.800 us,1 B,,SP,4B,Read Transaction,01*
0,1383,0:12.783.760,70.100 us,2 B,,SP,4B,Write Transaction,82 01
0,1384,0:12.783.832,325.500 us,11 B,,SP,4B,Read Transaction,01 30 91 63 06 12 06 6B 00 00 00*
0,1385,0:12.800.140,70.100 us,2 B,,SP,4B,Write Transaction,82 01
0,1386,0:12.800.211,49.800 us,1 B,,SP,4B,Read Transaction,01*
0,1387,0:12.800.262,70.100 us,2 B,,SP,4B,Write Transaction,82 01
0,1388,0:12.800.334,325.300 us,11 B,,SP,4B,Read Transaction,01 30 91 71 06 24 06 6B 00 00 00*
0,1389,0:12.818.380,70.100 us,2 B,,SP,4B,Write Transaction,82 01
0,1390,0:12.818.451,49.800 us,1 B,,SP,4B,Read Transaction,01*
0,1391,0:12.818.503,70.100 us,2 B,,SP,4B,Write Transaction,82 01
0,1392,0:12.818.574,325.300 us,11 B,,SP,4B,Read Transaction,01 30 91 81 06 38 06 6B 00 00 00*
0,1393,0:12.834.810,70.100 us,2 B,,SP,4B,Write Transaction,82 01
0,1394,0:12.834.881,49.800 us,1 B,,SP,4B,Read Transaction,01*
0,1395,0:12.834.933,70.100 us,2 B,,SP,4B,Write Transaction,82 01
0,1396,0:12.835.004,325.400 us,11 B,,SP,4B,Read Transaction,01 30 91 91 06 4C 06 6B 00 00 00*
0,1397,0:12.851.321,70.100 us,2 B,,SP,4B,Write Transaction,82 01
0,1398,0:12.851.393,49.800 us,1 B,,SP,4B,Read Transaction,01*
0,1399,0:12.851.444,70.100 us,2 B,,SP,4B,Write Transaction,82 01
0,1400,0:12.851.515,325.500 us,11 B,,SP,4B,Read Transaction,01 30 91 A3 06 61 06 6B 00 00 00*
0,1401,0:12.867.815,70.100 us,2 B,,SP,4B,Write Transaction,82 01
0,1402,0:12.867.886,49.700 us,1 B,,SP,4B,Read Transaction,01*
0,1403,0:12.867.937,70.100 us,2 B,,SP,4B,Write Transaction,82 01
0,1404,0:12.868.009,325.300 us,11 B,,SP,4B,Read Transaction,01 30 91 B2 06 73 06 6B 00 00 00*
0,1405,0:12.884.310,70.100 us,2 B,,SP,4B,Write Transaction,82 01
0,1406,0:12.884.382,49.800 us,1 B,,SP,4B,Read Transaction,01*
0,1407,0:12.884.433,70.100 us,2 B,,SP,4B,Write Transaction,82 01
0,1408,0:12.884.504,325.200 us,11 B,,SP,4B,Read Transaction,01 30 91 C1 06 85 06 6B 00 00 00*
0,1409,0:12.900.814,70.100 us,2 B,,SP,4B,Write Transaction,82 01
0,1410,0:12.900.885,49.800 us,1 B,,SP,4B,Read Transaction,01*
0,1411,0:12.900.936,70.100 us,2 B,,SP,4B,Write Transaction,82 01
0,1412,0:12.901.008,325.200 us,11 B,,SP,4B,Read Transaction,01 30 91 CD 06 95 06 6B 00 00 00*
0,1413,0:12.917.319,70.100 us,2 B,,SP,4B,Write Transaction,82 01
0,1414,0:12.917.391,49.800 us,1 B,,SP,4B,Read Transaction,01*
0,1415,0:12.917.442,70.100 us,2 B,,SP,4B,Write Transaction,82 01
0,1416,0:12.917.513,325.300 us,11 B,,SP,4B,Read Transaction,01 30 91 D9 06 A5 06 6B 00 00 00*
0,1417,0:12.933.821,70.200 us,2 B,,SP,4B,Write Transaction,82 01
0,1418,0:12.933.892,49.800 us,1 B,,SP,4B,Read Transaction,01*
0,1419,0:12.933.943,70.200 us,2 B,,SP,4B,Write Transaction,82 01
0,1420,0:12.934.015,325.100 us,11 B,,SP,4B,Read Transaction,01 30 91 E4 06 B5 06 6B 00 00 00*
0,1421,0:12.950.335,70.100 us,2 B,,SP,4B,Write Transaction,82 01
0,1422,0:12.950.407,49.800 us,1 B,,SP,4B,Read Transaction,01*
0,1423,0:12.950.458,70.100 us,2 B,,SP,4B,Write Transaction,82 01
0,1424,0:12.950.529,325.300 us,11 B,,SP,4B,Read Transaction,01 30 91 F0 06 C5 06 6B 00 00 00*
0,1425,0:12.966.818,70.200 us,2 B,,SP,4B,Write Transaction,82 01
0,1426,0:12.966.889,49.800 us,1 B,,SP,4B,Read Transaction,01*
0,1427,0:12.966.940,70.200 us,2 B,,SP,4B,Write Transaction,82 01
0,1428,0:12.967.011,325.600 us,11 B,,SP,4B,Read Transaction,01 30 91 FC 06 D5 06 6B 00 00 00*
0,1429,0:12.984.860,70.100 us,2 B,,SP,4B,Write Transaction,82 01
0,1430,0:12.984.931,49.800 us,1 B,,SP,4B,Read Transaction,01*
0,1431,0:12.984.982,70.100 us,2 B,,SP,4B,Write Transaction,82 01
0,1432,0:12.985.054,325.300 us,11 B,,SP,4B,Read Transaction,01 30 91 0B 07 E7 06 6B 00 00 00*
0,1433,0:13.001.393,70.100 us,2 B,,SP,4B,Write Transaction,82 01
0,1434,0:13.001.464,49.800 us,1 B,,SP,4B,Read Transaction,01*
0,1435,0:13.001.515,70.200 us,2 B,,SP,4B,Write Transaction,82 01
0,1436,0:13.001.587,325.400 us,11 B,,SP,4B,Read Transaction,01 30 91 18 07 F7 06 6B 00 00 00*
0,1437,0:13.017.978,70.200 us,2 B,,SP,4B,Write Transaction,82 01
0,1438,0:13.018.050,49.800 us,1 B,,SP,4B,Read Transaction,01*
0,1439,0:13.018.101,70.100 us,2 B,,SP,4B,Write Transaction,82 01
0,1440,0:13.018.172,325.500 us,11 B,,SP,4B,Read Transaction,01 30 91 26 07 07 07 6B 00 00 00*
0,1441,0:13.034.410,70.100 us,2 B,,SP,4B,Write Transaction,82 01
0,1442,0:13.034.482,49.800 us,1 B,,SP,4B,Read Transaction,01*
0,1443,0:13.034.533,70.100 us,2 B,,SP,4B,Write Transaction,82 01
0,1444,0:13.034.604,325.400 us,11 B,,SP,4B,Read Transaction,01 30 91 31 07 13 07 6B 00 00 00*
0,1445,0:13.050.897,70.100 us,2 B,,SP,4B,Write Transaction,82 01
0,1446,0:13.050.968,49.800 us,1 B,,SP,4B,Read Transaction,01*
0,1447,0:13.051.019,70.100 us,2 B,,SP,4B,Write Transaction,82 01
0,1448,0:13.051.091,325.500 us,11 B,,SP,4B,Read Transaction,01 30 91 3C 07 20 07 6B 00 00 00*
0,1449,0:13.067.408,70.200 us,2 B,,SP,4B,Write Transaction,82 01
0,1450,0:13.067.480,49.800 us,1 B,,SP,4B,Read Transaction,01*
0,1451,0:13.067.531,70.200 us,2 B,,SP,4B,Write Transaction,82 01
0,1452,0:13.067.602,325.200 us,11 B,,SP,4B,Read Transaction,01 30 91 48 07 2D 07 6B 00 00 00*
0,1453,0:13.083.913,70.100 us,2 B,,SP,4B,Write Transaction,82 01
0,1454,0:13.083.985,49.800 us,1 B,,SP,4B,Read Transaction,01*
0,1455,0:13.084.036,70.100 us,2 B,,SP,4B,Write Transaction,82 01
0,1456,0:13.084.107,325.200 us,11 B,,SP,4B,Read Transaction,01 30 91 53 07 3A 07 6B 00 00 00*
0,1457,0:13.100.418,70.100 us,2 B,,SP,4B,Write Transaction,82 01
0,1458,0:13.100.490,49.800 us,1 B,,SP,4B,Read Transaction,01*
0,1459,0:13.100.541,70.100 us,2 B,,SP,4B,Write Transaction,82 01
0,1460,0:13.100.612,325.500 us,11 B,,SP,4B,Read Transaction,01 30 91 5F 07 47 07 65 00 00 00*
0,1461,0:13.116.919,70.100 us,2 B,,SP,4B,Write Transaction,82 01
0,1462,0:13.116.990,49.800 us,1 B,,SP,4B,Read Transaction,01*
0,1463,0:13.117.042,70.100 us,2 B,,SP,4B,Write Transaction,82 01
0,1464,0:13.117.113,325.600 us,11 B,,SP,4B,Read Transaction,01 30 91 6E 07 55 07 65 00 00 00*
0,1465,0:13.133.410,70.100 us,2 B,,SP,4B,Write Transaction,82 01
0,1466,0:13.133.482,49.800 us,1 B,,SP,4B,Read Transaction,01*
0,1467,0:13.133.533,70.200 us,2 B,,SP,4B,Write Transaction,82 01
0,1468,0:13.133.604,325.500 us,11 B,,SP,4B,Read Transaction,01 30 91 7C 07 63 07 65 00 00 00*
0,1469,0:13.151.482,70.200 us,2 B,,SP,4B,Write Transaction,82 01
0,1470,0:13.151.553,49.800 us,1 B,,SP,4B,Read Transaction,01*
0,1471,0:13.151.605,70.100 us,2 B,,SP,4B,Write Transaction,82 01
0,1472,0:13.151.676,325.200 us,11 B,,SP,4B,Read Transaction,01 30 91 8A 07 71 07 6B 00 00 00*
0,1473,0:13.168.014,70.100 us,2 B,,SP,4B,Write Transaction,82 01
0,1474,0:13.168.085,49.800 us,1 B,,SP,4B,Read Transaction,01*
0,1475,0:13.168.136,70.100 us,2 B,,SP,4B,Write Transaction,82 01
0,1476,0:13.168.208,325.400 us,11 B,,SP,4B,Read Transaction,01 30 91 97 07 7F 07 6B 00 00 00*
0,1477,0:13.184.521,70.100 us,2 B,,SP,4B,Write Transaction,82 01
0,1478,0:13.184.593,49.800 us,1 B,,SP,4B,Read Transaction,01*
0,1479,0:13.184.644,70.100 us,2 B,,SP,4B,Write Transaction,82 01
0,1480,0:13.184.715,325.500 us,11 B,,SP,4B,Read Transaction,01 30 91 A4 07 8E 07 6B 00 00 00*
0,1481,0:13.201.022,70.100 us,2 B,,SP,4B,Write Transaction,82 01
0,1482,0:13.201.094,49.800 us,1 B,,SP,4B,Read Transaction,01*
0,1483,0:13.201.145,70.100 us,2 B,,SP,4B,Write Transaction,82 01
0,1484,0:13.201.216,325.400 us,11 B,,SP,4B,Read Transaction,01 30 91 B1 07 9C 07 6B 00 00 00*
0,1485,0:13.217.608,70.100 us,2 B,,SP,4B,Write Transaction,82 01
0,1486,0:13.217.679,49.800 us,1 B,,SP,4B,Read Transaction,01*
0,1487,0:13.217.730,70.100 us,2 B,,SP,4B,Write Transaction,82 01
0,1488,0:13.217.802,325.300 us,11 B,,SP,4B,Read Transaction,01 30 91 C1 07 AD 07 6B 00 00 00*
0,1489,0:13.234.008,70.100 us,2 B,,SP,4B,Write Transaction,82 01
0,1490,0:13.234.079,49.800 us,1 B,,SP,4B,Read Transaction,01*
0,1491,0:13.234.130,70.100 us,2 B,,SP,4B,Write Transaction,82 01
0,1492,0:13.234.201,325.100 us,11 B,,SP,4B,Read Transaction,01 30 91 D1 07 BD 07 6B 00 00 00*
0,1493,0:13.250.497,70.200 us,2 B,,SP,4B,Write Transaction,82 01
0,1494,0:13.250.568,49.800 us,1 B,,SP,4B,Read Transaction,01*
0,1495,0:13.250.619,70.100 us,2 B,,SP,4B,Write Transaction,82 01
0,1496,0:13.250.691,324.800 us,11 B,,SP,4B,Read Transaction,01 30 91 E3 07 CE 07 6B 00 00 00*
0,1497,0:13.267.000,70.200 us,2 B,,SP,4B,Write Transaction,82 01
0,1498,0:13.267.071,49.700 us,1 B,,SP,4B,Read Transaction,01*
0,1499,0:13.267.122,70.100 us,2 B,,SP,4B,Write Transaction,82 01
0,1500,0:13.267.194,325.500 us,11 B,,SP,4B,Read Transaction,01 30 91 F3 07 DE 07 6B 00 00 00*
0,1501,0:13.283.519,70.100 us,2 B,,SP,4B,Write Transaction,82 01
0,1502,0:13.283.590,49.800 us,1 B,,SP,4B,Read Transaction,01*
0,1503,0:13.283.642,70.100 us,2 B,,SP,4B,Write Transaction,82 01
0,1504,0:13.283.713,325.400 us,11 B,,SP,4B,Read Transaction,01 30 91 03 08 EF 07 6B 00 00 00*
0,1505,0:13.300.030,70.100 us,2 B,,SP,4B,Write Transaction,82 01
0,1506,0:13.300.101,49.800 us,1 B,,SP,4B,Read Transaction,01*
0,1507,0:13.300.152,70.100 us,2 B,,SP,4B,Write Transaction,82 01
0,1508,0:13.300.224,324.800 us,11 B,,SP,4B,Read Transaction,01 30 91 11 08 FF 07 6B 00 00 00*
0,1509,0:13.318.107,70.200 us,2 B,,SP,4B,Write Transaction,82 01
0,1510,0:13.318.178,49.800 us,1 B,,SP,4B,Read Transaction,01*
0,1511,0:13.318.230,70.100 us,2 B,,SP,4B,Write Transaction,82 01
0,1512,0:13.318.301,325.400 us,11 B,,SP,4B,Read Transaction,01 30 91 23 08 11 08 64 00 00 00*
0,1513,0:13.334.628,70.200 us,2 B,,SP,4B,Write Transaction,82 01
0,1514,0:13.334.700,49.800 us,1 B,,SP,4B,Read Transaction,01*
0,1515,0:13.334.751,70.100 us,2 B,,SP,4B,Write Transaction,82 01
0,1516,0:13.334.822,325.300 us,11 B,,SP,4B,Read Transaction,01 30 91 38 08 27 08 6B 00 00 00*
0,1517,0:13.351.128,70.100 us,2 B,,SP,4B,Write Transaction,82 01
0,1518,0:13.351.200,49.800 us,1 B,,SP,4B,Read Transaction,01*
0,1519,0:13.351.251,70.100 us,2 B,,SP,4B,Write Transaction,82 01
0,1520,0:13.351.322,325.400 us,11 B,,SP,4B,Read Transaction,01 30 91 4D 08 3D 08 6B 00 00 00*
0,1521,0:13.367.652,70.100 us,2 B,,SP,4B,Write Transaction,82 01
0,1522,0:13.367.723,49.800 us,1 B,,SP,4B,Read Transaction,01*
0,1523,0:13.367.774,70.100 us,2 B,,SP,4B,Write Transaction,82 01
0,1524,0:13.367.846,325.500 us,11 B,,SP,4B,Read Transaction,01 30 91 5F 08 51 08 6B 00 00 00*
0,1525,0:13.384.122,70.100 us,2 B,,SP,4B,Write Transaction,82 01
0,1526,0:13.384.193,49.800 us,1 B,,SP,4B,Read Transaction,01*
0,1527,0:13.384.244,70.200 us,2 B,,SP,4B,Write Transaction,82 01
0,1528,0:13.384.316,325.200 us,11 B,,SP,4B,Read Transaction,01 30 91 72 08 66 08 6B 00 00 00*
0,1529,0:13.400.622,70.200 us,2 B,,SP,4B,Write Transaction,82 01
0,1530,0:13.400.693,49.800 us,1 B,,SP,4B,Read Transaction,01*
0,1531,0:13.400.744,70.200 us,2 B,,SP,4B,Write Transaction,82 01
0,1532,0:13.400.816,325.200 us,11 B,,SP,4B,Read Transaction,01 30 91 85 08 7A 08 6B 00 00 00*
0,1533,0:13.417.217,70.100 us,2 B,,SP,4B,Write Transaction,82 01
0,1534,0:13.417.289,49.700 us,1 B,,SP,4B,Read Transaction,01*
0,1535,0:13.417.340,70.200 us,2 B,,SP,4B,Write Transaction,82 01
0,1536,0:13.417.411,325.500 us,11 B,,SP,4B,Read Transaction,01 30 91 9B 08 91 08 6B 00 00 00*
0,1537,0:13.433.632,70.100 us,2 B,,SP,4B,Write Transaction,82 01
0,1538,0:13.433.704,49.800 us,1 B,,SP,4B,Read Transaction,01*
0,1539,0:13.433.755,70.200 us,2 B,,SP,4B,Write Transaction,82 01
0,1540,0:13.433.826,325.700 us,11 B,,SP,4B,Read Transaction,01 30 91 AF 08 A7 08 6B 00 00 00*
0,1541,0:13.450.133,70.200 us,2 B,,SP,4B,Write Transaction,82 01
0,1542,0:13.450.204,49.800 us,1 B,,SP,4B,Read Transaction,01*
0,1543,0:13.450.255,70.200 us,2 B,,SP,4B,Write Transaction,82 01
0,1544,0:13.450.327,325.200 us,11 B,,SP,4B,Read Transaction,01 30 91 C3 08 BA 08 6B 00 00 00*
0,1545,0:13.466.639,70.100 us,2 B,,SP,4B,Write Transaction,82 01
0,1546,0:13.466.711,49.800 us,1 B,,SP,4B,Read Transaction,01*
0,1547,0:13.466.762,70.100 us,2 B,,SP,4B,Write Transaction,82 01
0,1548,0:13.466.833,325.200 us,11 B,,SP,4B,Read Transaction,01 30 91 D3 08 CA 08 6B 00 00 00*
0,1549,0:13.484.738,70.100 us,2 B,,SP,4B,Write Transaction,82 01
0,1550,0:13.484.809,49.800 us,1 B,,SP,4B,Read Transaction,01*
0,1551,0:13.484.861,70.100 us,2 B,,SP,4B,Write Transaction,82 01
0,1552,0:13.484.932,325.100 us,11 B,,SP,4B,Read Transaction,01 30 91 E3 08 DB 08 6B 00 00 00*
0,1553,0:13.501.267,70.100 us,2 B,,SP,4B,Write Transaction,82 01
0,1554,0:13.501.338,49.800 us,1 B,,SP,4B,Read Transaction,01*
0,1555,0:13.501.389,70.100 us,2 B,,SP,4B,Write Transaction,82 01
0,1556,0:13.501.461,325.500 us,11 B,,SP,4B,Read Transaction,01 30 91 F3 08 ED 08 6B 00 00 00*
0,1557,0:13.517.766,70.200 us,2 B,,SP,4B,Write Transaction,82 01
0,1558,0:13.517.838,49.800 us,1 B,,SP,4B,Read Transaction,01*
0,1559,0:13.517.889,70.200 us,2 B,,SP,4B,Write Transaction,82 01
0,1560,0:13.517.960,325.500 us,11 B,,SP,4B,Read Transaction,01 30 91 07 09 02 09 6B 00 00 00*
0,1561,0:13.534.255,70.100 us,2 B,,SP,4B,Write Transaction,82 01
0,1562,0:13.534.326,49.800 us,1 B,,SP,4B,Read Transaction,01*
0,1563,0:13.534.377,70.100 us,2 B,,SP,4B,Write Transaction,82 01
0,1564,0:13.534.449,325.400 us,11 B,,SP,4B,Read Transaction,01 30 91 1A 09 17 09 6B 00 00 00*
0,1565,0:13.550.739,70.100 us,2 B,,SP,4B,Write Transaction,82 01
0,1566,0:13.550.810,49.800 us,1 B,,SP,4B,Read Transaction,01*
0,1567,0:13.550.862,70.100 us,2 B,,SP,4B,Write Transaction,82 01
0,1568,0:13.550.933,325.300 us,11 B,,SP,4B,Read Transaction,01 30 91 2C 09 2A 09 6B 00 00 00*
0,1569,0:13.567.244,70.100 us,2 B,,SP,4B,Write Transaction,82 01
0,1570,0:13.567.316,49.800 us,1 B,,SP,4B,Read Transaction,01*
0,1571,0:13.567.367,70.100 us,2 B,,SP,4B,Write Transaction,82 01
0,1572,0:13.567.438,325.300 us,11 B,,SP,4B,Read Transaction,01 30 91 3E 09 3D 09 6B 00 00 00*
0,1573,0:13.583.746,70.100 us,2 B,,SP,4B,Write Transaction,82 01
0,1574,0:13.583.818,49.800 us,1 B,,SP,4B,Read Transaction,01*
0,1575,0:13.583.869,70.100 us,2 B,,SP,4B,Write Transaction,82 01
0,1576,0:13.583.940,325.200 us,11 B,,SP,4B,Read Transaction,01 30 91 4E 09 4F 09 6B 00 00 00*
0,1577,0:13.600.364,70.100 us,2 B,,SP,4B,Write Transaction,82 01
0,1578,0:13.600.436,49.800 us,1 B,,SP,4B,Read Transaction,01*
0,1579,0:13.600.487,70.100 us,2 B,,SP,4B,Write Transaction,82 01
0,1580,0:13.600.558,325.300 us,11 B,,SP,4B,Read Transaction,01 30 91 61 09 62 09 6B 00 00 00*
0,1581,0:13.616.759,70.100 us,2 B,,SP,4B,Write Transaction,82 01
0,1582,0:13.616.831,49.800 us,1 B,,SP,4B,Read Transaction,01*
0,1583,0:13.616.882,70.100 us,2 B,,SP,4B,Write Transaction,82 01
0,1584,0:13.616.953,325.200 us,11 B,,SP,4B,Read Transaction,01 30 91 78 09 78 09 6B 00 00 00*
0,1585,0:13.633.256,70.100 us,2 B,,SP,4B,Write Transaction,82 01
0,1586,0:13.633.328,49.800 us,1 B,,SP,4B,Read Transaction,01*
0,1587,0:13.633.379,70.100 us,2 B,,SP,4B,Write Transaction,82 01
0,1588,0:13.633.450,325.400 us,11 B,,SP,4B,Read Transaction,01 30 91 8C 09 8D 09 6B 00 00 00*
0,1589,0:13.651.420,70.200 us,2 B,,SP,4B,Write Transaction,82 01
0,1590,0:13.651.492,49.800 us,1 B,,SP,4B,Read Transaction,01*
0,1591,0:13.651.543,70.200 us,2 B,,SP,4B,Write Transaction,82 01
0,1592,0:13.651.614,324.800 us,11 B,,SP,4B,Read Transaction,01 30 91 A0 09 A1 09 6B 00 00 00*
0,1593,0:13.667.951,70.100 us,2 B,,SP,4B,Write Transaction,82 01
0,1594,0:13.668.022,49.800 us,1 B,,SP,4B,Read Transaction,01*
0,1595,0:13.668.073,70.100 us,2 B,,SP,4B,Write Transaction,82 01
0,1596,0:13.668.144,325.500 us,11 B,,SP,4B,Read Transaction,01 30 91 B3 09 B5 09 6B 00 00 00*
0,1597,0:13.684.432,70.200 us,2 B,,SP,4B,Write Transaction,82 01
0,1598,0:13.684.503,49.800 us,1 B,,SP,4B,Read Transaction,01*
0,1599,0:13.684.554,70.200 us,2 B,,SP,4B,Write Transaction,82 01
0,1600,0:13.684.626,325.400 us,11 B,,SP,4B,Read Transaction,01 30 91 CA 09 CC 09 6B 00 00 00*
0,1601,0:13.700.927,70.200 us,2 B,,SP,4B,Write Transaction,82 01
0,1602,0:13.700.999,49.800 us,1 B,,SP,4B,Read Transaction,01*
0,1603,0:13.701.050,70.200 us,2 B,,SP,4B,Write Transaction,82 01
0,1604,0:13.701.121,325.300 us,11 B,,SP,4B,Read Transaction,01 30 91 E3 09 E2 09 6B 00 00 00*
0,1605,0:13.717.427,70.100 us,2 B,,SP,4B,Write Transaction,82 01
0,1606,0:13.717.499,49.800 us,1 B,,SP,4B,Read Transaction,01*
0,1607,0:13.717.550,70.100 us,2 B,,SP,4B,Write Transaction,82 01
0,1608,0:13.717.621,325.000 us,11 B,,SP,4B,Read Transaction,01 30 91 F9 09 F5 09 6B 00 00 00*
0,1609,0:13.733.932,70.100 us,2 B,,SP,4B,Write Transaction,82 01
0,1610,0:13.734.003,49.800 us,1 B,,SP,4B,Read Transaction,01*
0,1611,0:13.734.054,70.100 us,2 B,,SP,4B,Write Transaction,82 01
0,1612,0:13.734.126,324.800 us,11 B,,SP,4B,Read Transaction,01 30 91 0D 0A 07 0A 6B 00 00 00*
0,1613,0:13.750.452,70.100 us,2 B,,SP,4B,Write Transaction,82 01
0,1614,0:13.750.523,49.800 us,1 B,,SP,4B,Read Transaction,01*
0,1615,0:13.750.574,70.100 us,2 B,,SP,4B,Write Transaction,82 01
0,1616,0:13.750.646,325.300 us,11 B,,SP,4B,Read Transaction,01 30 91 21 0A 19 0A 6B 00 00 00*
0,1617,0:13.766.952,70.100 us,2 B,,SP,4B,Write Transaction,82 01
0,1618,0:13.767.023,49.800 us,1 B,,SP,4B,Read Transaction,01*
0,1619,0:13.767.074,70.100 us,2 B,,SP,4B,Write Transaction,82 01
0,1620,0:13.767.146,325.400 us,11 B,,SP,4B,Read Transaction,01 30 91 37 0A 2C 0A 6B 00 00 00*
0,1621,0:13.783.443,70.100 us,2 B,,SP,4B,Write Transaction,82 01
0,1622,0:13.783.514,49.800 us,1 B,,SP,4B,Read Transaction,01*
0,1623,0:13.783.565,70.100 us,2 B,,SP,4B,Write Transaction,82 01
0,1624,0:13.783.637,325.300 us,11 B,,SP,4B,Read Transaction,01 30 91 4F 0A 42 0A 6B 00 00 00*
0,1625,0:13.800.032,70.100 us,2 B,,SP,4B,Write Transaction,82 01
0,1626,0:13.800.103,49.800 us,1 B,,SP,4B,Read Transaction,01*
0,1627,0:13.800.154,70.100 us,2 B,,SP,4B,Write Transaction,82 01
0,1628,0:13.800.226,325.400 us,11 B,,SP,4B,Read Transaction,01 30 91 65 0A 58 0A 6B 00 00 00*
0,1629,0:13.818.026,70.100 us,2 B,,SP,4B,Write Transaction,82 01
0,1630,0:13.818.097,49.800 us,1 B,,SP,4B,Read Transaction,01*
0,1631,0:13.818.149,70.100 us,2 B,,SP,4B,Write Transaction,82 01
0,1632,0:13.818.220,325.200 us,11 B,,SP,4B,Read Transaction,01 30 91 78 0A 6C 0A 6B 00 00 00*
0,1633,0:13.834.539,70.100 us,2 B,,SP,4B,Write Transaction,82 01
0,1634,0:13.834.610,49.800 us,1 B,,SP,4B,Read Transaction,01*
0,1635,0:13.834.662,70.100 us,2 B,,SP,4B,Write Transaction,82 01
0,1636,0:13.834.733,325.300 us,11 B,,SP,4B,Read Transaction,01 30 91 8A 0A 81 0A 6B 00 00 00*
0,1637,0:13.850.165,70.100 us,2 B,,SP,4B,Write Transaction,82 01
0,1638,0:13.850.236,49.700 us,1 B,,SP,4B,Read Transaction,01*
0,1639,0:13.850.287,70.100 us,2 B,,SP,4B,Write Transaction,82 01
0,1640,0:13.850.359,318.400 us,11 B,,SP,4B,Read Transaction,01 29 12 02 08 02 02 16 00 00 00*
0,1641,0:13.851.193,70.100 us,2 B,,SP,4B,Write Transaction,82 01
0,1642,0:13.851.264,49.800 us,1 B,,SP,4B,Read Transaction,01*
0,1643,0:13.851.315,70.100 us,2 B,,SP,4B,Write Transaction,82 01
0,1644,0:13.851.387,325.400 us,11 B,,SP,4B,Read Transaction,01 30 91 A0 0A 98 0A 6B 00 00 00*
0,1645,0:13.867.588,70.100 us,2 B,,SP,4B,Write Transaction,82 01
0,1646,0:13.867.659,49.800 us,1 B,,SP,4B,Read Transaction,01*
0,1647,0:13.867.710,70.100 us,2 B,,SP,4B,Write Transaction,82 01
0,1648,0:13.867.782,325.200 us,11 B,,SP,4B,Read Transaction,01 30 91 B4 0A AE 0A 6B 00 00 00*
0,1649,0:13.884.086,70.200 us,2 B,,SP,4B,Write Transaction,82 01
0,1650,0:13.884.158,49.700 us,1 B,,SP,4B,Read Transaction,01*
0,1651,0:13.884.209,70.200 us,2 B,,SP,4B,Write Transaction,82 01
0,1652,0:13.884.280,325.300 us,11 B,,SP,4B,Read Transaction,01 30 91 C7 0A C2 0A 6B 00 00 00*
0,1653,0:13.900.608,70.100 us,2 B,,SP,4B,Write Transaction,82 01
0,1654,0:13.900.680,49.800 us,1 B,,SP,4B,Read Transaction,01*
0,1655,0:13.900.731,70.100 us,2 B,,SP,4B,Write Transaction,82 01
0,1656,0:13.900.802,325.100 us,11 B,,SP,4B,Read Transaction,01 30 91 D8 0A D4 0A 6B 00 00 00*
0,1657,0:13.917.113,70.200 us,2 B,,SP,4B,Write Transaction,82 01
0,1658,0:13.917.185,49.800 us,1 B,,SP,4B,Read Transaction,01*
0,1659,0:13.917.236,70.200 us,2 B,,SP,4B,Write Transaction,82 01
0,1660,0:13.917.307,325.400 us,11 B,,SP,4B,Read Transaction,01 30 91 E8 0A E5 0A 6B 00 00 00*
0,1661,0:13.933.610,70.100 us,2 B,,SP,4B,Write Transaction,82 01
0,1662,0:13.933.682,49.800 us,1 B,,SP,4B,Read Transaction,01*
0,1663,0:13.933.733,70.100 us,2 B,,SP,4B,Write Transaction,82 01
0,1664,0:13.933.804,325.300 us,11 B,,SP,4B,Read Transaction,01 30 91 F7 0A F7 0A 66 00 00 00*
0,1665,0:13.950.111,70.100 us,2 B,,SP,4B,Write Transaction,82 01
0,1666,0:13.950.183,49.800 us,1 B,,SP,4B,Read Transaction,01*
0,1667,0:13.950.234,70.100 us,2 B,,SP,4B,Write Transaction,82 01
0,1668,0:13.950.305,325.500 us,11 B,,SP,4B,Read Transaction,01 30 91 07 0B 0A 0B 66 00 00 00*
0,1669,0:13.966.604,70.100 us,2 B,,SP,4B,Write Transaction,82 01
0,1670,0:13.966.675,49.800 us,1 B,,SP,4B,Read Transaction,01*
0,1671,0:13.966.726,70.100 us,2 B,,SP,4B,Write Transaction,82 01
0,1672,0:13.966.798,325.200 us,11 B,,SP,4B,Read Transaction,01 30 91 1B 0B 21 0B 6C 00 00 00*
0,1673,0:13.984.670,70.100 us,2 B,,SP,4B,Write Transaction,82 01
0,1674,0:13.984.742,49.700 us,1 B,,SP,4B,Read Transaction,01*
0,1675,0:13.984.793,70.200 us,2 B,,SP,4B,Write Transaction,82 01
0,1676,0:13.984.864,325.200 us,11 B,,SP,4B,Read Transaction,01 30 91 2E 0B 36 0B 6C 00 00 00*
0,1677,0:14.001.269,70.100 us,2 B,,SP,4B,Write Transaction,82 01
0,1678,0:14.001.340,49.800 us,1 B,,SP,4B,Read Transaction,01*
0,1679,0:14.001.391,70.100 us,2 B,,SP,4B,Write Transaction,82 01
0,1680,0:14.001.463,324.100 us,11 B,,SP,4B,Read Transaction,01 30 91 3E 0B 48 0B 6C 00 00 00*
0,1681,0:14.017.689,70.100 us,2 B,,SP,4B,Write Transaction,82 01
0,1682,0:14.017.760,49.800 us,1 B,,SP,4B,Read Transaction,01*
0,1683,0:14.017.811,70.100 us,2 B,,SP,4B,Write Transaction,82 01
0,1684,0:14.017.883,325.400 us,11 B,,SP,4B,Read Transaction,01 30 91 4E 0B 5B 0B 6C 00 00 00*
0,1685,0:14.034.188,70.100 us,2 B,,SP,4B,Write Transaction,82 01
0,1686,0:14.034.259,49.800 us,1 B,,SP,4B,Read Transaction,01*
0,1687,0:14.034.310,70.100 us,2 B,,SP,4B,Write Transaction,82 01
0,1688,0:14.034.382,325.200 us,11 B,,SP,4B,Read Transaction,01 30 91 5E 0B 6C 0B 6C 00 00 00*
0,1689,0:14.050.690,70.100 us,2 B,,SP,4B,Write Transaction,82 01
0,1690,0:14.050.761,49.800 us,1 B,,SP,4B,Read Transaction,01*
0,1691,0:14.050.812,70.100 us,2 B,,SP,4B,Write Transaction,82 01
0,1692,0:14.050.884,325.100 us,11 B,,SP,4B,Read Transaction,01 30 91 6E 0B 7D 0B 66 00 00 00*
0,1693,0:14.067.206,70.100 us,2 B,,SP,4B,Write Transaction,82 01
0,1694,0:14.067.278,49.800 us,1 B,,SP,4B,Read Transaction,01*
0,1695,0:14.067.329,70.100 us,2 B,,SP,4B,Write Transaction,82 01
0,1696,0:14.067.400,325.000 us,11 B,,SP,4B,Read Transaction,01 30 91 81 0B 8F 0B 6C 00 00 00*
0,1697,0:14.083.700,70.100 us,2 B,,SP,4B,Write Transaction,82 01
0,1698,0:14.083.772,49.800 us,1 B,,SP,4B,Read Transaction,01*
0,1699,0:14.083.823,70.100 us,2 B,,SP,4B,Write Transaction,82 01
0,1700,0:14.083.894,325.300 us,11 B,,SP,4B,Read Transaction,01 30 91 95 0B A0 0B 6C 00 00 00*
0,1701,0:14.100.201,70.100 us,2 B,,SP,4B,Write Transaction,82 01
0,1702,0:14.100.273,49.800 us,1 B,,SP,4B,Read Transaction,01*
0,1703,0:14.100.324,70.100 us,2 B,,SP,4B,Write Transaction,82 01
0,1704,0:14.100.395,325.200 us,11 B,,SP,4B,Read Transaction,01 30 91 A6 0B B0 0B 6C 00 00 00*
0,1705,0:14.116.711,70.200 us,2 B,,SP,4B,Write Transaction,82 01
0,1706,0:14.116.782,49.800 us,1 B,,SP,4B,Read Transaction,01*
0,1707,0:14.116.834,70.200 us,2 B,,SP,4B,Write Transaction,82 01
0,1708,0:14.116.905,325.300 us,11 B,,SP,4B,Read Transaction,01 30 91 B7 0B C0 0B 67 00 00 00*
0,1709,0:14.133.211,70.100 us,2 B,,SP,4B,Write Transaction,82 01
0,1710,0:14.133.282,49.800 us,1 B,,SP,4B,Read Transaction,01*
0,1711,0:14.133.333,70.100 us,2 B,,SP,4B,Write Transaction,82 01
0,1712,0:14.133.405,325.400 us,11 B,,SP,4B,Read Transaction,01 30 91 C9 0B D2 0B 60 00 00 00*
0,1713,0:14.151.279,70.200 us,2 B,,SP,4B,Write Transaction,82 01
0,1714,0:14.151.351,49.800 us,1 B,,SP,4B,Read Transaction,01*
0,1715,0:14.151.402,70.200 us,2 B,,SP,4B,Write Transaction,82 01
0,1716,0:14.151.473,325.000 us,11 B,,SP,4B,Read Transaction,01 30 91 DE 0B E4 0B 6A 00 00 00*
0,1717,0:14.167.822,70.100 us,2 B,,SP,4B,Write Transaction,82 01
0,1718,0:14.167.893,49.800 us,1 B,,SP,4B,Read Transaction,01*
0,1719,0:14.167.944,70.100 us,2 B,,SP,4B,Write Transaction,82 01
0,1720,0:14.168.016,325.000 us,11 B,,SP,4B,Read Transaction,01 30 91 F4 0B F6 0B 6A 00 00 00*
0,1721,0:14.184.290,70.200 us,2 B,,SP,4B,Write Transaction,82 01
0,1722,0:14.184.361,49.800 us,1 B,,SP,4B,Read Transaction,01*
0,1723,0:14.184.413,70.200 us,2 B,,SP,4B,Write Transaction,82 01
0,1724,0:14.184.484,325.200 us,11 B,,SP,4B,Read Transaction,01 30 91 08 0C 06 0C 6A 00 00 00*
0,1725,0:14.200.885,70.100 us,2 B,,SP,4B,Write Transaction,82 01
0,1726,0:14.200.956,49.800 us,1 B,,SP,4B,Read Transaction,01*
0,1727,0:14.201.007,70.100 us,2 B,,SP,4B,Write Transaction,82 01
0,1728,0:14.201.079,325.400 us,11 B,,SP,4B,Read Transaction,01 30 91 1A 0C 14 0C 6A 00 00 00*
0,1729,0:14.217.299,70.100 us,2 B,,SP,4B,Write Transaction,82 01
0,1730,0:14.217.370,49.700 us,1 B,,SP,4B,Read Transaction,01*
0,1731,0:14.217.421,70.200 us,2 B,,SP,4B,Write Transaction,82 01
0,1732,0:14.217.493,325.200 us,11 B,,SP,4B,Read Transaction,01 30 91 2C 0C 22 0C 6A 00 00 00*
0,1733,0:14.233.800,70.100 us,2 B,,SP,4B,Write Transaction,82 01
0,1734,0:14.233.872,49.800 us,1 B,,SP,4B,Read Transaction,01*
0,1735,0:14.233.923,70.100 us,2 B,,SP,4B,Write Transaction,82 01
0,1736,0:14.233.994,325.200 us,11 B,,SP,4B,Read Transaction,01 30 91 3E 0C 32 0C 6A 00 00 00*
0,1737,0:14.250.300,70.100 us,2 B,,SP,4B,Write Transaction,82 01
0,1738,0:14.250.371,49.800 us,1 B,,SP,4B,Read Transaction,01*
0,1739,0:14.250.422,70.100 us,2 B,,SP,4B,Write Transaction,82 01
0,1740,0:14.250.493,325.600 us,11 B,,SP,4B,Read Transaction,01 30 91 53 0C 42 0C 6A 00 00 00*
0,1741,0:14.266.820,70.100 us,2 B,,SP,4B,Write Transaction,82 01
0,1742,0:14.266.891,49.800 us,1 B,,SP,4B,Read Transaction,01*
0,1743,0:14.266.942,70.100 us,2 B,,SP,4B,Write Transaction,82 01
0,1744,0:14.267.014,325.100 us,11 B,,SP,4B,Read Transaction,01 30 91 68 0C 52 0C 6A 00 00 00*
0,1745,0:14.283.315,70.200 us,2 B,,SP,4B,Write Transaction,82 01
0,1746,0:14.283.386,49.800 us,1 B,,SP,4B,Read Transaction,01*
0,1747,0:14.283.437,70.100 us,2 B,,SP,4B,Write Transaction,82 01
0,1748,0:14.283.509,325.500 us,11 B,,SP,4B,Read Transaction,01 30 91 7B 0C 62 0C 6A 00 00 00*
0,1749,0:14.299.822,70.100 us,2 B,,SP,4B,Write Transaction,82 01
0,1750,0:14.299.893,49.800 us,1 B,,SP,4B,Read Transaction,01*
0,1751,0:14.299.944,70.100 us,2 B,,SP,4B,Write Transaction,82 01
0,1752,0:14.300.016,325.300 us,11 B,,SP,4B,Read Transaction,01 30 91 8D 0C 71 0C 65 00 00 00*
0,1753,0:14.317.925,70.100 us,2 B,,SP,4B,Write Transaction,82 01
0,1754,0:14.317.997,49.800 us,1 B,,SP,4B,Read Transaction,01*
0,1755,0:14.318.048,70.100 us,2 B,,SP,4B,Write Transaction,82 01
0,1756,0:14.318.119,325.200 us,11 B,,SP,4B,Read Transaction,01 30 91 A0 0C 7F 0C 65 00 00 00*
0,1757,0:14.334.447,70.100 us,2 B,,SP,4B,Write Transaction,82 01
0,1758,0:14.334.518,49.800 us,1 B,,SP,4B,Read Transaction,01*
0,1759,0:14.334.570,70.200 us,2 B,,SP,4B,Write Transaction,82 01
0,1760,0:14.334.641,324.800 us,11 B,,SP,4B,Read Transaction,01 30 91 B7 0C 92 0C 65 00 00 00*
0,1761,0:14.350.949,70.100 us,2 B,,SP,4B,Write Transaction,82 01
0,1762,0:14.351.021,49.800 us,1 B,,SP,4B,Read Transaction,01*
0,1763,0:14.351.072,70.200 us,2 B,,SP,4B,Write Transaction,82 01
0,1764,0:14.351.143,325.100 us,11 B,,SP,4B,Read Transaction,01 30 91 CE 0C A4 0C 65 00 00 00*
0,1765,0:14.367.448,70.100 us,2 B,,SP,4B,Write Transaction,82 01
0,1766,0:14.367.520,49.800 us,1 B,,SP,4B,Read Transaction,01*
0,1767,0:14.367.571,70.200 us,2 B,,SP,4B,Write Transaction,82 01
0,1768,0:14.367.642,325.400 us,11 B,,SP,4B,Read Transaction,01 30 91 E2 0C B5 0C 65 00 00 00*
0,1769,0:14.384.022,70.100 us,2 B,,SP,4B,Write Transaction,82 01
0,1770,0:14.384.094,49.800 us,1 B,,SP,4B,Read Transaction,01*
0,1771,0:14.384.145,70.100 us,2 B,,SP,4B,Write Transaction,82 01
0,1772,0:14.384.216,325.400 us,11 B,,SP,4B,Read Transaction,01 30 91 F6 0C C5 0C 65 00 00 00*
0,1773,0:14.400.432,70.200 us,2 B,,SP,4B,Write Transaction,82 01
0,1774,0:14.400.504,49.800 us,1 B,,SP,4B,Read Transaction,01*
0,1775,0:14.400.555,70.200 us,2 B,,SP,4B,Write Transaction,82 01
0,1776,0:14.400.626,325.300 us,11 B,,SP,4B,Read Transaction,01 30 91 0A 0D D5 0C 65 00 00 00*
0,1777,0:14.416.926,70.100 us,2 B,,SP,4B,Write Transaction,82 01
0,1778,0:14.416.997,49.800 us,1 B,,SP,4B,Read Transaction,01*
0,1779,0:14.417.048,70.100 us,2 B,,SP,4B,Write Transaction,82 01
0,1780,0:14.417.120,325.400 us,11 B,,SP,4B,Read Transaction,01 30 91 22 0D E8 0C 65 00 00 00*
0,1781,0:14.433.425,70.200 us,2 B,,SP,4B,Write Transaction,82 01
0,1782,0:14.433.496,49.800 us,1 B,,SP,4B,Read Transaction,01*
0,1783,0:14.433.548,70.200 us,2 B,,SP,4B,Write Transaction,82 01
0,1784,0:14.433.619,325.600 us,11 B,,SP,4B,Read Transaction,01 30 91 37 0D F7 0C 65 00 00 00*
0,1785,0:14.449.931,70.100 us,2 B,,SP,4B,Write Transaction,82 01
0,1786,0:14.450.002,49.800 us,1 B,,SP,4B,Read Transaction,01*
0,1787,0:14.450.053,70.100 us,2 B,,SP,4B,Write Transaction,82 01
0,1788,0:14.450.125,325.500 us,11 B,,SP,4B,Read Transaction,01 30 91 4A 0D 06 0D 65 00 00 00*
0,1789,0:14.466.435,70.200 us,2 B,,SP,4B,Write Transaction,82 01
0,1790,0:14.466.506,49.800 us,1 B,,SP,4B,Read Transaction,01*
0,1791,0:14.466.557,70.200 us,2 B,,SP,4B,Write Transaction,82 01
0,1792,0:14.466.629,325.600 us,11 B,,SP,4B,Read Transaction,01 30 91 5E 0D 14 0D 60 00 00 00*
0,1793,0:14.484.617,70.100 us,2 B,,SP,4B,Write Transaction,82 01
0,1794,0:14.484.689,49.800 us,1 B,,SP,4B,Read Transaction,01*
0,1795,0:14.484.740,70.200 us,2 B,,SP,4B,Write Transaction,82 01
0,1796,0:14.484.811,325.400 us,11 B,,SP,4B,Read Transaction,01 30 91 72 0D 22 0D 5B 00 00 00*
0,1797,0:14.501.139,70.200 us,2 B,,SP,4B,Write Transaction,82 01
0,1798,0:14.501.210,49.800 us,1 B,,SP,4B,Read Transaction,01*
0,1799,0:14.501.261,70.200 us,2 B,,SP,4B,Write Transaction,82 01
0,1800,0:14.501.333,325.400 us,11 B,,SP,4B,Read Transaction,01 30 91 8A 0D 32 0D 60 00 00 00*
0,1801,0:14.517.654,70.100 us,2 B,,SP,4B,Write Transaction,82 01
0,1802,0:14.517.725,49.800 us,1 B,,SP,4B,Read Transaction,01*
0,1803,0:14.517.776,70.200 us,2 B,,SP,4B,Write Transaction,82 01
0,1804,0:14.517.848,324.900 us,11 B,,SP,4B,Read Transaction,01 30 91 A2 0D 44 0D 60 00 00 00*
0,1805,0:14.534.136,70.100 us,2 B,,SP,4B,Write Transaction,82 01
0,1806,0:14.534.208,49.800 us,1 B,,SP,4B,Read Transaction,01*
0,1807,0:14.534.259,70.100 us,2 B,,SP,4B,Write Transaction,82 01
0,1808,0:14.534.330,325.200 us,11 B,,SP,4B,Read Transaction,01 30 91 B5 0D 52 0D 60 00 00 00*
0,1809,0:14.550.621,70.100 us,2 B,,SP,4B,Write Transaction,82 01
0,1810,0:14.550.692,49.700 us,1 B,,SP,4B,Read Transaction,01*
0,1811,0:14.550.743,70.200 us,2 B,,SP,4B,Write Transaction,82 01
0,1812,0:14.550.815,325.400 us,11 B,,SP,4B,Read Transaction,01 30 91 C8 0D 62 0D 60 00 00 00*
0,1813,0:14.567.120,70.100 us,2 B,,SP,4B,Write Transaction,82 01
0,1814,0:14.567.192,49.800 us,1 B,,SP,4B,Read Transaction,01*
0,1815,0:14.567.243,70.100 us,2 B,,SP,4B,Write Transaction,82 01
0,1816,0:14.567.314,325.500 us,11 B,,SP,4B,Read Transaction,01 30 91 DC 0D 74 0D 60 00 00 00*
0,1817,0:14.583.698,70.200 us,2 B,,SP,4B,Write Transaction,82 01
0,1818,0:14.583.770,49.700 us,1 B,,SP,4B,Read Transaction,01*
0,1819,0:14.583.821,70.200 us,2 B,,SP,4B,Write Transaction,82 01
0,1820,0:14.583.892,325.200 us,11 B,,SP,4B,Read Transaction,01 30 91 F5 0D 87 0D 60 00 00 00*
0,1821,0:14.600.114,70.100 us,2 B,,SP,4B,Write Transaction,82 01
0,1822,0:14.600.185,49.800 us,1 B,,SP,4B,Read Transaction,01*
0,1823,0:14.600.236,70.100 us,2 B,,SP,4B,Write Transaction,82 01
0,1824,0:14.600.308,325.500 us,11 B,,SP,4B,Read Transaction,01 30 91 0B 0E 99 0D 60 00 00 00*
0,1825,0:14.616.615,70.100 us,2 B,,SP,4B,Write Transaction,82 01
0,1826,0:14.616.686,49.700 us,1 B,,SP,4B,Read Transaction,01*
0,1827,0:14.616.737,70.100 us,2 B,,SP,4B,Write Transaction,82 01
0,1828,0:14.616.809,325.100 us,11 B,,SP,4B,Read Transaction,01 30 91 20 0E AA 0D 60 00 00 00*
0,1829,0:14.633.115,70.100 us,2 B,,SP,4B,Write Transaction,82 01
0,1830,0:14.633.186,49.800 us,1 B,,SP,4B,Read Transaction,01*
0,1831,0:14.633.237,70.100 us,2 B,,SP,4B,Write Transaction,82 01
0,1832,0:14.633.309,325.200 us,11 B,,SP,4B,Read Transaction,01 30 91 34 0E BB 0D 60 00 00 00*
0,1833,0:14.651.202,70.100 us,2 B,,SP,4B,Write Transaction,82 01
0,1834,0:14.651.273,49.800 us,1 B,,SP,4B,Read Transaction,01*
0,1835,0:14.651.324,70.100 us,2 B,,SP,4B,Write Transaction,82 01
0,1836,0:14.651.395,325.300 us,11 B,,SP,4B,Read Transaction,01 30 91 49 0E CE 0D 5A 00 00 00*
0,1837,0:14.667.718,70.100 us,2 B,,SP,4B,Write Transaction,82 01
0,1838,0:14.667.790,49.800 us,1 B,,SP,4B,Read Transaction,01*
0,1839,0:14.667.841,70.100 us,2 B,,SP,4B,Write Transaction,82 01
0,1840,0:14.667.912,325.300 us,11 B,,SP,4B,Read Transaction,01 30 91 60 0E E4 0D 5A 00 00 00*
0,1841,0:14.684.196,70.100 us,2 B,,SP,4B,Write Transaction,82 01
0,1842,0:14.684.267,49.800 us,1 B,,SP,4B,Read Transaction,01*
0,1843,0:14.684.318,70.100 us,2 B,,SP,4B,Write Transaction,82 01
0,1844,0:14.684.390,324.700 us,11 B,,SP,4B,Read Transaction,01 30 91 76 0E FA 0D 61 00 00 00*
0,1845,0:14.700.705,70.100 us,2 B,,SP,4B,Write Transaction,82 01
0,1846,0:14.700.776,49.800 us,1 B,,SP,4B,Read Transaction,01*
0,1847,0:14.700.827,70.100 us,2 B,,SP,4B,Write Transaction,82 01
0,1848,0:14.700.899,325.300 us,11 B,,SP,4B,Read Transaction,01 30 91 8A 0E 0E 0E 61 00 00 00*
0,1849,0:14.717.188,70.100 us,2 B,,SP,4B,Write Transaction,82 01
0,1850,0:14.717.260,49.800 us,1 B,,SP,4B,Read Transaction,01*
0,1851,0:14.717.311,70.100 us,2 B,,SP,4B,Write Transaction,82 01
0,1852,0:14.717.382,325.400 us,11 B,,SP,4B,Read Transaction,01 30 91 9C 0E 23 0E 61 00 00 00*
0,1853,0:14.733.692,70.100 us,2 B,,SP,4B,Write Transaction,82 01
0,1854,0:14.733.763,49.800 us,1 B,,SP,4B,Read Transaction,01*
0,1855,0:14.733.815,70.100 us,2 B,,SP,4B,Write Transaction,82 01
0,1856,0:14.733.886,325.300 us,11 B,,SP,4B,Read Transaction,01 30 91 B0 0E 39 0E 5C 00 00 00*
0,1857,0:14.750.163,70.100 us,2 B,,SP,4B,Write Transaction,82 01
0,1858,0:14.750.234,49.800 us,1 B,,SP,4B,Read Transaction,01*
0,1859,0:14.750.285,70.100 us,2 B,,SP,4B,Write Transaction,82 01
0,1860,0:14.750.356,325.300 us,11 B,,SP,4B,Read Transaction,01 30 91 C7 0E 52 0E 62 00 00 00*
0,1861,0:14.766.662,70.200 us,2 B,,SP,4B,Write Transaction,82 01
0,1862,0:14.766.734,49.800 us,1 B,,SP,4B,Read Transaction,01*
0,1863,0:14.766.785,70.200 us,2 B,,SP,4B,Write Transaction,82 01
0,1864,0:14.766.856,325.200 us,11 B,,SP,4B,Read Transaction,01 30 91 DE 0E 6E 0E 62 00 00 00*
0,1865,0:14.783.254,70.200 us,2 B,,SP,4B,Write Transaction,82 01
0,1866,0:14.783.325,49.800 us,1 B,,SP,4B,Read Transaction,01*
0,1867,0:14.783.376,70.200 us,2 B,,SP,4B,Write Transaction,82 01
0,1868,0:14.783.448,325.500 us,11 B,,SP,4B,Read Transaction,01 30 91 F0 0E 84 0E 62 00 00 00*
0,1869,0:14.799.667,70.100 us,2 B,,SP,4B,Write Transaction,82 01
0,1870,0:14.799.738,49.800 us,1 B,,SP,4B,Read Transaction,01*
0,1871,0:14.799.789,70.100 us,2 B,,SP,4B,Write Transaction,82 01
0,1872,0:14.799.860,325.400 us,11 B,,SP,4B,Read Transaction,01 30 91 02 0F 9A 0E 55 00 00 00*
0,1873,0:14.817.803,70.100 us,2 B,,SP,4B,Write Transaction,82 01
0,1874,0:14.817.875,49.800 us,1 B,,SP,4B,Read Transaction,01*
0,1875,0:14.817.926,70.100 us,2 B,,SP,4B,Write Transaction,82 01
0,1876,0:14.817.997,325.400 us,11 B,,SP,4B,Read Transaction,01 30 91 13 0F AF 0E 50 00 00 00*
0,1877,0:14.834.333,70.200 us,2 B,,SP,4B,Write Transaction,82 01
0,1878,0:14.834.405,49.800 us,1 B,,SP,4B,Read Transaction,01*
0,1879,0:14.834.456,70.200 us,2 B,,SP,4B,Write Transaction,82 01
0,1880,0:14.834.527,325.600 us,11 B,,SP,4B,Read Transaction,01 30 91 27 0F C5 0E 50 00 00 00*
0,1881,0:14.850.824,70.200 us,2 B,,SP,4B,Write Transaction,82 01
0,1882,0:14.850.896,49.800 us,1 B,,SP,4B,Read Transaction,01*
0,1883,0:14.850.947,70.200 us,2 B,,SP,4B,Write Transaction,82 01
0,1884,0:14.851.018,325.400 us,11 B,,SP,4B,Read Transaction,01 30 91 3B 0F D9 0E 50 00 00 00*
0,1885,0:14.867.298,70.100 us,2 B,,SP,4B,Write Transaction,82 01
0,1886,0:14.867.369,49.800 us,1 B,,SP,4B,Read Transaction,01*
0,1887,0:14.867.420,70.100 us,2 B,,SP,4B,Write Transaction,82 01
0,1888,0:14.867.492,325.400 us,11 B,,SP,4B,Read Transaction,01 30 91 4E 0F EA 0E 47 00 00 00*
0,1889,0:14.883.799,70.100 us,2 B,,SP,4B,Write Transaction,82 01
0,1890,0:14.883.870,49.800 us,1 B,,SP,4B,Read Transaction,01*
0,1891,0:14.883.922,70.100 us,2 B,,SP,4B,Write Transaction,82 01
0,1892,0:14.883.993,325.600 us,11 B,,SP,4B,Read Transaction,01 30 91 5E 0F F7 0E 41 00 00 00*
0,1893,0:14.900.298,70.100 us,2 B,,SP,4B,Write Transaction,82 01
0,1894,0:14.900.369,49.800 us,1 B,,SP,4B,Read Transaction,01*
0,1895,0:14.900.420,70.100 us,2 B,,SP,4B,Write Transaction,82 01
0,1896,0:14.900.491,325.400 us,11 B,,SP,4B,Read Transaction,01 30 91 6D 0F 03 0F 3B 00 00 00*
0,1897,0:14.916.770,70.100 us,2 B,,SP,4B,Write Transaction,82 01
0,1898,0:14.916.841,49.800 us,1 B,,SP,4B,Read Transaction,01*
0,1899,0:14.916.892,70.100 us,2 B,,SP,4B,Write Transaction,82 01
0,1900,0:14.916.964,325.300 us,11 B,,SP,4B,Read Transaction,01 30 91 7C 0F 0E 0F 34 00 00 00*
0,1901,0:14.933.236,70.100 us,2 B,,SP,4B,Write Transaction,82 01
0,1902,0:14.933.308,49.800 us,1 B,,SP,4B,Read Transaction,01*
0,1903,0:14.933.359,70.100 us,2 B,,SP,4B,Write Transaction,82 01
0,1904,0:14.933.430,325.300 us,11 B,,SP,4B,Read Transaction,01 30 91 8B 0F 17 0F 2A 00 00 00*
0,1905,0:14.949.742,70.100 us,2 B,,SP,4B,Write Transaction,82 01
0,1906,0:14.949.813,49.800 us,1 B,,SP,4B,Read Transaction,01*
0,1907,0:14.949.864,70.200 us,2 B,,SP,4B,Write Transaction,82 01
0,1908,0:14.949.936,325.300 us,11 B,,SP,4B,Read Transaction,01 30 91 9B 0F 1E 0F 2A 00 00 00*
0,1909,0:14.966.236,70.100 us,2 B,,SP,4B,Write Transaction,82 01
0,1910,0:14.966.308,49.800 us,1 B,,SP,4B,Read Transaction,01*
0,1911,0:14.966.359,70.100 us,2 B,,SP,4B,Write Transaction,82 01
0,1912,0:14.966.430,325.200 us,11 B,,SP,4B,Read Transaction,01 30 91 A7 0F 23 0F 21 00 00 00*
0,1913,0:14.984.377,70.200 us,2 B,,SP,4B,Write Transaction,82 01
0,1914,0:14.984.449,49.900 us,1 B,,SP,4B,Read Transaction,01*
0,1915,0:14.984.500,70.100 us,2 B,,SP,4B,Write Transaction,82 01
0,1916,0:14.984.571,325.200 us,11 B,,SP,4B,Read Transaction,01 30 91 B1 0F 27 0F 1C 00 00 00*
0,1917,0:15.000.865,70.200 us,2 B,,SP,4B,Write Transaction,82 01
0,1918,0:15.000.936,49.800 us,1 B,,SP,4B,Read Transaction,01*
0,1919,0:15.000.987,70.200 us,2 B,,SP,4B,Write Transaction,82 01
0,1920,0:15.001.059,325.400 us,11 B,,SP,4B,Read Transaction,01 30 91 BA 0F 29 0F 17 00 00 00*
0,1921,0:15.017.319,70.200 us,2 B,,SP,4B,Write Transaction,82 01
0,1922,0:15.017.390,49.800 us,1 B,,SP,4B,Read Transaction,01*
0,1923,0:15.017.441,70.100 us,2 B,,SP,4B,Write Transaction,82 01
0,1924,0:15.017.513,325.500 us,11 B,,SP,4B,Read Transaction,01 30 91 C2 0F 2B 0F 17 00 00 00*
0,1925,0:15.033.815,70.100 us,2 B,,SP,4B,Write Transaction,82 01
0,1926,0:15.033.886,49.800 us,1 B,,SP,4B,Read Transaction,01*
0,1927,0:15.033.937,70.100 us,2 B,,SP,4B,Write Transaction,82 01
0,1928,0:15.034.009,325.100 us,11 B,,SP,4B,Read Transaction,01 30 91 C8 0F 2C 0F 0F 00 00 00*
0,1929,0:15.050.284,70.200 us,2 B,,SP,4B,Write Transaction,82 01
0,1930,0:15.050.355,49.700 us,1 B,,SP,4B,Read Transaction,01*
0,1931,0:15.050.406,70.200 us,2 B,,SP,4B,Write Transaction,82 01
0,1932,0:15.050.477,325.200 us,11 B,,SP,4B,Read Transaction,01 30 91 CD 0F 2C 0F 0F 00 00 00*
0,1933,0:15.066.754,70.100 us,2 B,,SP,4B,Write Transaction,82 01
0,1934,0:15.066.826,49.800 us,1 B,,SP,4B,Read Transaction,01*
0,1935,0:15.066.877,70.100 us,2 B,,SP,4B,Write Transaction,82 01
0,1936,0:15.066.948,325.200 us,11 B,,SP,4B,Read Transaction,01 30 91 D2 0F 2C 0F 0A 00 00 00*
0,1937,0:15.083.247,70.100 us,2 B,,SP,4B,Write Transaction,82 01
0,1938,0:15.083.318,49.800 us,1 B,,SP,4B,Read Transaction,01*
0,1939,0:15.083.370,70.100 us,2 B,,SP,4B,Write Transaction,82 01
0,1940,0:15.083.441,325.500 us,11 B,,SP,4B,Read Transaction,01 30 91 D6 0F 2C 0F 0A 00 00 00*
0,1941,0:15.099.745,70.100 us,2 B,,SP,4B,Write Transaction,82 01
0,1942,0:15.099.816,49.800 us,1 B,,SP,4B,Read Transaction,01*
0,1943,0:15.099.867,70.100 us,2 B,,SP,4B,Write Transaction,82 01
0,1944,0:15.099.939,325.300 us,11 B,,SP,4B,Read Transaction,01 30 91 D9 0F 2C 0F 0A 00 00 00*
0,1945,0:15.150.778,70.100 us,2 B,,SP,4B,Write Transaction,82 01
0,1946,0:15.150.849,49.800 us,1 B,,SP,4B,Read Transaction,01*
0,1947,0:15.150.900,70.100 us,2 B,,SP,4B,Write Transaction,82 01
0,1948,0:15.150.971,325.400 us,11 B,,SP,4B,Read Transaction,01 30 15 D9 0F 2C 0F 0A 00 00 00*
0,1949,0:15.561.578,70.100 us,2 B,,SP,4B,Write Transaction,82 01
0,1950,0:15.561.650,49.800 us,1 B,,SP,4B,Read Transaction,01*
0,1951,0:15.561.701,70.100 us,2 B,,SP,4B,Write Transaction,82 01
0,1952,0:15.561.772,322.000 us,11 B,,SP,4B,Read Transaction,01 29 12 02 06 02 01 16 00 00 00*
0,1953,0:16.722.874,70.100 us,2 B,,SP,4B,Write Transaction,82 01
0,1954,0:16.722.946,49.700 us,1 B,,SP,4B,Read Transaction,01*
0,1955,0:16.722.997,70.100 us,2 B,,SP,4B,Write Transaction,82 01
0,1956,0:16.723.068,322.100 us,11 B,,SP,4B,Read Transaction,01 29 12 02 06 01 00 16 00 00 00*
0,1957,0:17.884.307,70.200 us,2 B,,SP,4B,Write Transaction,82 01
0,1958,0:17.884.378,49.800 us,1 B,,SP,4B,Read Transaction,01*
0,1959,0:17.884.429,70.200 us,2 B,,SP,4B,Write Transaction,82 01
0,1960,0:17.884.501,322.000 us,11 B,,SP,4B,Read Transaction,01 29 12 02 06 01 01 16 00 00 00*
0,1961,0:19.045.733,70.200 us,2 B,,SP,4B,Write Transaction,82 01
0,1962,0:19.045.805,49.800 us,1 B,,SP,4B,Read Transaction,01*
0,1963,0:19.045.856,70.100 us,2 B,,SP,4B,Write Transaction,82 01
0,1964,0:19.045.927,321.200 us,11 B,,SP,4B,Read Transaction,01 29 12 02 06 01 00 16 00 00 00*
0,1965,0:20.207.091,70.200 us,2 B,,SP,4B,Write Transaction,82 01
0,1966,0:20.207.163,49.700 us,1 B,,SP,4B,Read Transaction,01*
0,1967,0:20.207.214,70.200 us,2 B,,SP,4B,Write Transaction,82 01
0,1968,0:20.207.285,321.500 us,11 B,,SP,4B,Read Transaction,01 29 12 02 06 01 01 16 00 00 00*
0,1969,0:21.368.268,70.100 us,2 B,,SP,4B,Write Transaction,82 01
0,1970,0:21.368.340,49.700 us,1 B,,SP,4B,Read Transaction,01*
0,1971,0:21.368.391,70.200 us,2 B,,SP,4B,Write Transaction,82 01
0,1972,0:21.368.462,322.200 us,11 B,,SP,4B,Read Transaction,01 29 12 02 06 01 01 16 00 00 00*
0,1973,0:22.529.475,70.100 us,2 B,,SP,4B,Write Transaction,82 01
0,1974,0:22.529.475,,,,,,Capture stopped,[08/03/23 12:18:29]
